nohup: ignoring input
Listening on :6004
received messag ?->? 
 124.160.213.249:59789 172.16.246.153:6004
write:21 03 00 38 00 34 C2 B0
34 30 32
heart:34 30 32 37 32 32 35 36 30 34 38 32
write:21 03 07 CF 00 78 73 C3
write:21 03 01 0F 00 08 72 93
write:22 03 00 38 00 34 C2 83
22 03 68
3443 68 6A C1 43 68 12 2D 43 67 FF 3B 43 C9 17 4C 43 C8 DF DF 43 C9 0C 29 43 25 B8 52 43 26 D4 7B 43 23 AE 14 47 0C 0A 00 47 0D EA 00 47 09 94 00 47 D1 D3 00 46 51 10 00 46 45 D0 00 46 53 E0 00 47 1A B0 00 47 16 78 00 47 17 2C 00 47 14 5C 00 47 DF 98 00 3F 6E 56 04 3F 70 62 4E 3F 6D 4F DF 3F 70 20 C5 42 48 E0 9D
write:22 03 07 CF 00 78 73 F0
22 03 F0
3446 6E 8A CD 45 74 11 9A 46 13 39 9A 00 00 00 00 00 00 00 00 00 00 00 00 00 00 00 00 00 00 00 00 00 00 00 00 00 00 00 00 00 00 00 00 00 00 00 00 00 00 00 00 00 00 00 00 00 00 00 00 00 00 00 00 00 00 00 00 00 00 00 00 00 00 00 00 00 00 00 00 00 00 00 00 00 00 00 00 00 00 00 00 00 00 00 00 00 00 00 00 00 00 00 00 00 00 00 00 00 00 00 00 00 00 00 00 00 00 00 00 00 00 00 00 00 00 00 00 00 00 00 00 00 00 00 00 00 00 00 00 00 00 00 00 00 00 00 00 00 00 00 00 00 00 00 00 00 00 00 00 00 00 00 00 00 00 00 00 00 00 00 00 00 00 00 00 00 00 00 00 00 00 00 00 00 00 00 00 00 00 00 00 00 00 00 00 00 00 00 00 00 00 00 00 00 00 00 00 00 00 00 00 00 00 00 00 00 00 00 00 00 00 00 00 00 00 00 00 00 00 00 00 00 00 00 00 00 00 00 00
00 00 44
heart:00 00 44 F2 61 9A 00 00 00 00 00 00 00 00 00 00 00 00 00 00 00 00 00 00 00 00 46 2F 32 9A 45 2E 97 33 45 D9 24 CD 00 00 00 00 44 B7 D3 33 40 C9 99 9A 00 00 00 00 3F 40 00 00 00 00 00 00 40 AC CC CD 46 A2 7B E6 45 AB C7 33 46 39 CA 9A 00 00 00 00 45 55 24 00 00 00 00 00 00 00 00 00 00 00 00 00 00 00 00 00 00 00 00 00 46 67 37 33 45 6B CC CD 46 06 3E 33 00 00 00 00 45 18 14 CD 41 28 00 00 3E E6 66 66 3F F9 99 9A 00 00 00 00 40 FE 66 66 46 28 7C CD 44 CD 5E 66 45 D8 06 00 00 00 00 00 45 0B 35 9A 00 00 00 00 00 00 00 00 00 00 00 00 00 00 00 00 00 00 00 00 46 14 0F 33 44 A5 86 66 45 BE D0 66 00 00 00 00 44 FF AC CD 40 53 33 33 00 00 00 00 3E 19 99 9A 00 00 00 00 40 40 2A AB
write:22 03 01 0F 00 08 72 A0
22 03 10
3400 1C 1D EC 00 00 00 00 00 15 F1 EE 00 00 1F 33
43 68 6A C1
232.417
43 68 12 2D
232.071
43 67 FF 3B
231.997
43 C9 17 4C
402.182
43 C8 DF DF
401.749
43 C9 0C 29
402.095
43 25 B8 52
165.72
43 26 D4 7B
166.83
43 23 AE 14
163.68
47 0C 0A 00
35850
47 0D EA 00
36330
47 09 94 00
35220
47 D1 D3 00
107430
46 51 10 00
13380
46 45 D0 00
12660
46 53 E0 00
13560
47 1A B0 00
39600
47 16 78 00
38520
47 17 2C 00
38700
47 14 5C 00
37980
47 DF 98 00
114480
3F 6E 56 04
0.931
3F 70 62 4E
0.939
3F 6D 4F DF
0.927
3F 70 20 C5
0.938
42 48 E0 9D
50.21935
46 6E 8A CD
15266.7
45 74 11 9A
3905.1
46 13 39 9A
9422.4
00 00 00 00
0
00 00 00 00
0
00 00 00 00
0
00 00 00 00
0
00 00 00 00
0
00 00 00 00
0
00 00 00 00
0
00 00 00 00
0
00 00 00 00
0
00 00 00 00
0
00 00 00 00
0
00 00 00 00
0
00 00 00 00
0
00 00 00 00
0
00 00 00 00
0
00 00 00 00
0
00 00 00 00
0
00 00 00 00
0
00 00 00 00
0
00 00 00 00
0
00 00 00 00
0
00 00 00 00
0
00 00 00 00
0
00 00 00 00
0
00 00 00 00
0
00 00 00 00
0
00 00 00 00
0
00 00 00 00
0
00 00 00 00
0
00 00 00 00
0
00 00 00 00
0
00 00 00 00
0
00 00 00 00
0
00 00 00 00
0
00 00 00 00
0
00 00 00 00
0
00 00 00 00
0
00 00 00 00
0
00 00 00 00
0
00 00 00 00
0
00 00 00 00
0
00 00 00 00
0
00 00 00 00
0
00 00 00 00
0
00 00 00 00
0
00 00 00 00
0
00 00 00 00
0
00 00 00 00
0
00 00 00 00
0
00 00 00 00
0
00 00 00 00
0
00 00 00 00
0
00 00 00 00
0
00 00 00 00
0
00 00 00 00
0
00 00 00 00
0
00 00 00 00
0
00 1C 1D EC
1842668
00 00 00 00
0
00 15 F1 EE
1438190
00 00 1F 33
7987
232.417232.071231.997402.182401.749402.095165.72166.83163.68358503633035220107430133801266013560396003852038700379801144800.9310.9390.9270.93850.2193515266.73905.19422.400000000000000000000000000000000000000000000000000000000034201711231339341842.66801438.197.987insert into tbl_power_info_v2(P_A_DIANYA,P_B_DIANYA,P_C_DIANYA,P_UAB_XIANDIANYA,P_UBC_XIANDIANYA,P_UCA_XIANDIANYA,P_A_DIANLIU,P_B_DIANLIU,P_C_DIANLIU,P_A_YGGL,P_B_YGGL,P_C_YGGL,P_HXYGGL,P_A_WGGL,P_B_WGGL,P_C_WGGL,P_HXWGGL,P_A_SZGL,P_B_SZGL,P_C_SZGL,P_HXSZGL,P_A_GLYS,P_B_GLYS,P_C_GLYS,P_HXGLYS,P_DWPL,P_BY_KwhZ,P_BY_KwhJ,P_BY_KwhF,P_BY_KwhP,P_BY_KwhG,P_BY_HKwhZ,P_BY_HKwhJ,P_BY_HKwhF,P_BY_HKwhP,P_BY_HKwhG, P_BY_KvarhZ,P_BY_KvarhJ,P_BY_KvarhF,P_BY_KvarhP,P_BY_KvarhG, P_BY_HKvarhZ,P_BY_HKvarhJ,P_BY_HKvarhF,P_BY_HKvarhP,P_BY_HKvarhG, P_SY_KwhZ,P_SY_KwhJ,P_SY_KwhF,P_SY_KwhP,P_SY_KwhG, P_SY_HKwhZ,P_SY_HKwhJ,P_SY_HKwhF,P_SY_HKwhP,P_SY_HKwhG, P_SY_KvarhZ,P_SY_KvarhJ,P_SY_KvarhF,P_SY_KvarhP,P_SY_KvarhG, P_SY_HKvarhZ,P_SY_HKvarhJ,P_SY_HKvarhF,P_SY_HKvarhP,P_SY_HKvarhG, P_SSY_KwhZ,P_SSY_KwhJ,P_SSY_KwhF,P_SSY_KwhP,P_SSY_KwhG, P_SSY_HKwhZ,P_SSY_HKwhJ,P_SSY_HKwhF,P_SSY_HKwhP,P_SSY_HKwhG, P_SSY_KvarhZ,P_SSY_KvarhJ,P_SSY_KvarhF,P_SSY_KvarhP,P_SSY_KvarhG, P_SSY_HKvarhZ,P_SSY_HKvarhJ,P_SSY_HKvarhF,P_SSY_HKvarhP,P_SSY_HKvarhG,P_CODE,P_TIME,P_ZXYGDN,P_FXYGDN,P_ZXWGDN,P_FXWGDN)values(232.417,232.071,231.997,402.182,401.749,402.095,165.72,166.83,163.68,35850,36330,35220,107430,13380,12660,13560,39600,38520,38700,37980,114480,0.931,0.939,0.927,0.938,50.21935,15266.7,3905.1,9422.4,0,0,0,0,0,0,0,0,0,0,0,0,0,0,0,0,0,0,0,0,0,0,0,0,0,0,0,0,0,0,0,0,0,0,0,0,0,0,0,0,0,0,0,0,0,0,0,0,0,0,0,0,0,0,0,0,0,34,20171123133934,1842.668,0,1438.19,7.987)
写入成功读取完毕一个
write:23 03 00 38 00 34 C3 52
write:23 03 07 CF 00 78 72 21
write:23 03 01 0F 00 08 73 71
write:24 03 00 38 00 34 C2 E5
24 03 68
3643 67 E8 F6 43 68 11 27 43 67 75 81 43 C8 DF DF 43 C8 A8 73 43 C8 9D 50 41 9E A3 D7 41 A4 E1 48 41 93 D7 0A 45 01 60 00 45 2E 60 00 44 FB 40 00 45 D6 B0 00 45 68 80 00 45 55 C0 00 45 53 E0 00 46 25 00 00 45 8F 70 00 45 95 10 00 45 86 10 00 46 44 E0 00 3E E6 E9 79 3F 14 7A E1 3E F1 26 E9 3F 0B 85 1F 42 48 53 0E
write:24 03 07 CF 00 78 73 96
24 03 F0
3644 BF 44 CD 42 6B 33 33 44 97 08 00 00 00 00 00 43 83 79 9A 00 00 00 00 00 00 00 00 00 00 00 00 00 00 00 00 00 00 00 00 44 BD 4C CD 41 8C 66 66 44 A2 64 CD 00 00 00 00 43 45 B3 33 40 23 33 33 3E 99 99 9A 3E E6 66 66 00 00 00 00 3F C0 00 00 44 FE DE 66 42 D6 CC CD 44 C8 0B 33 00 00 00 00 43 A5 99 9A 00 00 00 00 00 00 00 00 00 00 00 00 00 00 00 00 00 00 00 00 44 FD F8 00 42 43 00 00 44 D9 B0 00 00 00 00 00 43 71 80 00 40 A3 33 33 3E 99 99 9A 3F D3 33 33 00 00 00 00 40 40 00 00 44 FE E3 33 42 4A 33 33 44 CD C3 33 00 00 00 00 43 AB 26 66 00 00 00 00 00 00 00 00 00 00 00 00 00 00 00 00 00 00 00 00 45 00 B3 33 41 23 33 33 44 E2 4B 33 00 00 00 00 43 6E 80 00 40 A8 00 00 3F 66 66 66 40 06 66 66 00 00 00 00 40 10 09 AF
write:24 03 01 0F 00 08 72 C6
24 03 10
3600 08 ED C8 00 00 00 00 00 08 C4 A1 00 00 88 47
43 67 E8 F6
231.91
43 68 11 27
232.067
43 67 75 81
231.459
43 C8 DF DF
401.749
43 C8 A8 73
401.316
43 C8 9D 50
401.229
41 9E A3 D7
19.83
41 A4 E1 48
20.61
41 93 D7 0A
18.48
45 01 60 00
2070
45 2E 60 00
2790
44 FB 40 00
2010
45 D6 B0 00
6870
45 68 80 00
3720
45 55 C0 00
3420
45 53 E0 00
3390
46 25 00 00
10560
45 8F 70 00
4590
45 95 10 00
4770
45 86 10 00
4290
46 44 E0 00
12600
3E E6 E9 79
0.451
3F 14 7A E1
0.58
3E F1 26 E9
0.471
3F 0B 85 1F
0.545
42 48 53 0E
50.08111
44 BF 44 CD
1530.15
42 6B 33 33
58.8
44 97 08 00
1208.25
00 00 00 00
0
43 83 79 9A
262.95
00 00 00 00
0
00 00 00 00
0
00 00 00 00
0
00 00 00 00
0
00 00 00 00
0
44 BD 4C CD
1514.4
41 8C 66 66
17.55
44 A2 64 CD
1299.15
00 00 00 00
0
43 45 B3 33
197.7
40 23 33 33
2.55
3E 99 99 9A
0.3
3E E6 66 66
0.45
00 00 00 00
0
3F C0 00 00
1.5
44 FE DE 66
2038.95
42 D6 CC CD
107.4
44 C8 0B 33
1600.35
00 00 00 00
0
43 A5 99 9A
331.2
00 00 00 00
0
00 00 00 00
0
00 00 00 00
0
00 00 00 00
0
00 00 00 00
0
44 FD F8 00
2031.75
42 43 00 00
48.75
44 D9 B0 00
1741.5
00 00 00 00
0
43 71 80 00
241.5
40 A3 33 33
5.1
3E 99 99 9A
0.3
3F D3 33 33
1.65
00 00 00 00
0
40 40 00 00
3
44 FE E3 33
2039.1
42 4A 33 33
50.55
44 CD C3 33
1646.1
00 00 00 00
0
43 AB 26 66
342.3
00 00 00 00
0
00 00 00 00
0
00 00 00 00
0
00 00 00 00
0
00 00 00 00
0
45 00 B3 33
2059.2
41 23 33 33
10.2
44 E2 4B 33
1810.35
00 00 00 00
0
43 6E 80 00
238.5
40 A8 00 00
5.25
3F 66 66 66
0.9
40 06 66 66
2.1
00 00 00 00
0
40 10 09 AF
2.250591
00 08 ED C8
585160
00 00 00 00
0
00 08 C4 A1
574625
00 00 88 47
34887
231.91232.067231.459401.749401.316401.22919.8320.6118.48207027902010687037203420339010560459047704290126000.4510.580.4710.54550.081111530.1558.81208.250262.95000001514.417.551299.150197.72.550.30.4501.52038.95107.41600.350331.2000002031.7548.751741.50241.55.10.31.65032039.150.551646.10342.3000002059.210.21810.350238.55.250.92.102.2505913620171123134156585.160574.62534.887insert into tbl_power_info_v2(P_A_DIANYA,P_B_DIANYA,P_C_DIANYA,P_UAB_XIANDIANYA,P_UBC_XIANDIANYA,P_UCA_XIANDIANYA,P_A_DIANLIU,P_B_DIANLIU,P_C_DIANLIU,P_A_YGGL,P_B_YGGL,P_C_YGGL,P_HXYGGL,P_A_WGGL,P_B_WGGL,P_C_WGGL,P_HXWGGL,P_A_SZGL,P_B_SZGL,P_C_SZGL,P_HXSZGL,P_A_GLYS,P_B_GLYS,P_C_GLYS,P_HXGLYS,P_DWPL,P_BY_KwhZ,P_BY_KwhJ,P_BY_KwhF,P_BY_KwhP,P_BY_KwhG,P_BY_HKwhZ,P_BY_HKwhJ,P_BY_HKwhF,P_BY_HKwhP,P_BY_HKwhG, P_BY_KvarhZ,P_BY_KvarhJ,P_BY_KvarhF,P_BY_KvarhP,P_BY_KvarhG, P_BY_HKvarhZ,P_BY_HKvarhJ,P_BY_HKvarhF,P_BY_HKvarhP,P_BY_HKvarhG, P_SY_KwhZ,P_SY_KwhJ,P_SY_KwhF,P_SY_KwhP,P_SY_KwhG, P_SY_HKwhZ,P_SY_HKwhJ,P_SY_HKwhF,P_SY_HKwhP,P_SY_HKwhG, P_SY_KvarhZ,P_SY_KvarhJ,P_SY_KvarhF,P_SY_KvarhP,P_SY_KvarhG, P_SY_HKvarhZ,P_SY_HKvarhJ,P_SY_HKvarhF,P_SY_HKvarhP,P_SY_HKvarhG, P_SSY_KwhZ,P_SSY_KwhJ,P_SSY_KwhF,P_SSY_KwhP,P_SSY_KwhG, P_SSY_HKwhZ,P_SSY_HKwhJ,P_SSY_HKwhF,P_SSY_HKwhP,P_SSY_HKwhG, P_SSY_KvarhZ,P_SSY_KvarhJ,P_SSY_KvarhF,P_SSY_KvarhP,P_SSY_KvarhG, P_SSY_HKvarhZ,P_SSY_HKvarhJ,P_SSY_HKvarhF,P_SSY_HKvarhP,P_SSY_HKvarhG,P_CODE,P_TIME,P_ZXYGDN,P_FXYGDN,P_ZXWGDN,P_FXWGDN)values(231.91,232.067,231.459,401.749,401.316,401.229,19.83,20.61,18.48,2070,2790,2010,6870,3720,3420,3390,10560,4590,4770,4290,12600,0.451,0.58,0.471,0.545,50.08111,1530.15,58.8,1208.25,0,262.95,0,0,0,0,0,1514.4,17.55,1299.15,0,197.7,2.55,0.3,0.45,0,1.5,2038.95,107.4,1600.35,0,331.2,0,0,0,0,0,2031.75,48.75,1741.5,0,241.5,5.1,0.3,1.65,0,3,2039.1,50.55,1646.1,0,342.3,0,0,0,0,0,2059.2,10.2,1810.35,0,238.5,5.25,0.9,2.1,0,2.250591,36,20171123134156,585.16,0,574.625,34.887)
写入成功读取完毕一个
write:25 03 00 38 00 34 C3 34
25 03 68
3743 67 31 27 43 67 60 C5 43 67 68 B4 43 C8 39 9A 43 C8 5A C1 43 C8 44 9C 41 FE 66 66 42 03 0A 3D 42 14 EB 85 45 BB 80 00 45 BE 50 00 45 D4 D0 00 46 93 E4 00 45 84 30 00 45 8A C0 00 45 A4 10 00 46 59 80 00 45 E5 B0 00 45 ED 30 00 46 06 88 00 46 B7 84 00 3F 51 26 E9 3F 4E 14 7B 3F 4A C0 83 3F 4E 56 04 42 47 72 87
write:25 03 07 CF 00 78 72 47
25 03 F0
3745 44 7B 33 43 B8 46 66 45 07 DA 66 00 00 00 00 44 16 56 66 00 00 00 00 00 00 00 00 00 00 00 00 00 00 00 00 00 00 00 00 00 00 00 00 00 00 00 00 00 00 00 00 00 00 00 00 00 00 00 00 00 00 00 00 00 00 00 00 00 00 00 00 00 00 00 00 00 00 00 00 00 00 00 00 00 00 00 00 00 00 00 00 00 00 00 00 00 00 00 00 00 00 00 00 00 00 00 00 00 00 00 00 00 00 00 00 00 00 00 00 00 00 00 00 00 00 00 00 00 00 00 00 00 00 00 00 00 00 00 00 00 00 00 00 00 00 00 00 00 00 00 00 00 00 00 00 00 00 00 00 00 00 00 00 00 00 00 00 00 00 00 00 00 00 00 00 00 00 00 00 00 00 00 00 00 00 00 00 00 00 00 00 00 00 00 00 00 00 00 00 00 00 00 00 00 00 00 00 00 00 00 00 00 00 00 00 00 00 00 00 00 00 00 00 00 00 00 00 00 00 00 00 00 00 00 00 00 00 00 00
00 00 00
heart:00 00 00 00 00 00 00 00 00 00 00 00 00 00 00 00 00 00 00 00 44 A2 04 CD 43 43 00 00 44 62 C3 33 00 00 00 00 43 41 F3 33 3F F9 99 9A 3E 99 99 9A 3E 19 99 9A 00 00 00 00 3F AC CC CD 45 5E 62 66 43 A5 E6 66 45 25 D8 00 00 00 00 00 44 0F 2C CD 00 00 00 00 00 00 00 00 00 00 00 00 00 00 00 00 00 00 00 00 45 0E 46 66 43 77 F3 33 44 D2 51 9A 00 00 00 00 43 AC E0 00 40 10 00 00 3E 99 99 9A 3F 19 99 9A 00 00 00 00 3F 99 99 9A 45 22 37 33 43 83 EC CD 44 F1 46 66 00 00 00 00 43 C8 A0 00 00 00 00 00 00 00 00 00 00 00 00 00 00 00 00 00 00 00 00 00 44 DC 50 00 43 48 19 9A 44 A5 5B 33 00 00 00 00 43 6F 66 66 40 E1 99 9A 40 66 66 66 40 10 00 00 00 00 00 00 3F 99 91 3B
write:25 03 01 0F 00 08 73 17
25 03 10
3700 06 42 74 00 00 00 00 00 03 97 BF 00 00 89 F1
43 67 31 27
231.192
43 67 60 C5
231.378
43 67 68 B4
231.409
43 C8 39 9A
400.45
43 C8 5A C1
400.709
43 C8 44 9C
400.536
41 FE 66 66
31.8
42 03 0A 3D
32.76
42 14 EB 85
37.23
45 BB 80 00
6000
45 BE 50 00
6090
45 D4 D0 00
6810
46 93 E4 00
18930
45 84 30 00
4230
45 8A C0 00
4440
45 A4 10 00
5250
46 59 80 00
13920
45 E5 B0 00
7350
45 ED 30 00
7590
46 06 88 00
8610
46 B7 84 00
23490
3F 51 26 E9
0.817
3F 4E 14 7B
0.805
3F 4A C0 83
0.792
3F 4E 56 04
0.806
42 47 72 87
49.861843
45 44 7B 33
3143.7
43 B8 46 66
368.55
45 07 DA 66
2173.65
00 00 00 00
0
44 16 56 66
601.35
00 00 00 00
0
00 00 00 00
0
00 00 00 00
0
00 00 00 00
0
00 00 00 00
0
00 00 00 00
0
00 00 00 00
0
00 00 00 00
0
00 00 00 00
0
00 00 00 00
0
00 00 00 00
0
00 00 00 00
0
00 00 00 00
0
00 00 00 00
0
00 00 00 00
0
00 00 00 00
0
00 00 00 00
0
00 00 00 00
0
00 00 00 00
0
00 00 00 00
0
00 00 00 00
0
00 00 00 00
0
00 00 00 00
0
00 00 00 00
0
00 00 00 00
0
00 00 00 00
0
00 00 00 00
0
00 00 00 00
0
00 00 00 00
0
00 00 00 00
0
00 00 00 00
0
00 00 00 00
0
00 00 00 00
0
00 00 00 00
0
00 00 00 00
0
00 00 00 00
0
00 00 00 00
0
00 00 00 00
0
00 00 00 00
0
00 00 00 00
0
00 00 00 00
0
00 00 00 00
0
00 00 00 00
0
00 00 00 00
0
00 00 00 00
0
00 00 00 00
0
00 00 00 00
0
00 00 00 00
0
00 00 00 00
0
00 00 00 00
0
00 00 00 00
0
00 00 00 00
0
00 00 00 00
0
00 00 00 00
0
00 00 00 00
0
00 06 42 74
410228
00 00 00 00
0
00 03 97 BF
235455
00 00 89 F1
35313
231.192231.378231.409400.45400.709400.53631.832.7637.236000609068101893042304440525013920735075908610234900.8170.8050.7920.80649.8618433143.7368.552173.650601.3500000000000000000000000000000000000000000000000000000003720171123134301410.2280235.45535.313insert into tbl_power_info_v2(P_A_DIANYA,P_B_DIANYA,P_C_DIANYA,P_UAB_XIANDIANYA,P_UBC_XIANDIANYA,P_UCA_XIANDIANYA,P_A_DIANLIU,P_B_DIANLIU,P_C_DIANLIU,P_A_YGGL,P_B_YGGL,P_C_YGGL,P_HXYGGL,P_A_WGGL,P_B_WGGL,P_C_WGGL,P_HXWGGL,P_A_SZGL,P_B_SZGL,P_C_SZGL,P_HXSZGL,P_A_GLYS,P_B_GLYS,P_C_GLYS,P_HXGLYS,P_DWPL,P_BY_KwhZ,P_BY_KwhJ,P_BY_KwhF,P_BY_KwhP,P_BY_KwhG,P_BY_HKwhZ,P_BY_HKwhJ,P_BY_HKwhF,P_BY_HKwhP,P_BY_HKwhG, P_BY_KvarhZ,P_BY_KvarhJ,P_BY_KvarhF,P_BY_KvarhP,P_BY_KvarhG, P_BY_HKvarhZ,P_BY_HKvarhJ,P_BY_HKvarhF,P_BY_HKvarhP,P_BY_HKvarhG, P_SY_KwhZ,P_SY_KwhJ,P_SY_KwhF,P_SY_KwhP,P_SY_KwhG, P_SY_HKwhZ,P_SY_HKwhJ,P_SY_HKwhF,P_SY_HKwhP,P_SY_HKwhG, P_SY_KvarhZ,P_SY_KvarhJ,P_SY_KvarhF,P_SY_KvarhP,P_SY_KvarhG, P_SY_HKvarhZ,P_SY_HKvarhJ,P_SY_HKvarhF,P_SY_HKvarhP,P_SY_HKvarhG, P_SSY_KwhZ,P_SSY_KwhJ,P_SSY_KwhF,P_SSY_KwhP,P_SSY_KwhG, P_SSY_HKwhZ,P_SSY_HKwhJ,P_SSY_HKwhF,P_SSY_HKwhP,P_SSY_HKwhG, P_SSY_KvarhZ,P_SSY_KvarhJ,P_SSY_KvarhF,P_SSY_KvarhP,P_SSY_KvarhG, P_SSY_HKvarhZ,P_SSY_HKvarhJ,P_SSY_HKvarhF,P_SSY_HKvarhP,P_SSY_HKvarhG,P_CODE,P_TIME,P_ZXYGDN,P_FXYGDN,P_ZXWGDN,P_FXWGDN)values(231.192,231.378,231.409,400.45,400.709,400.536,31.8,32.76,37.23,6000,6090,6810,18930,4230,4440,5250,13920,7350,7590,8610,23490,0.817,0.805,0.792,0.806,49.861843,3143.7,368.55,2173.65,0,601.35,0,0,0,0,0,0,0,0,0,0,0,0,0,0,0,0,0,0,0,0,0,0,0,0,0,0,0,0,0,0,0,0,0,0,0,0,0,0,0,0,0,0,0,0,0,0,0,0,0,0,0,0,0,0,0,37,20171123134301,410.228,0,235.455,35.313)
写入成功读取完毕一个
write:26 03 00 38 00 34 C3 07
26 03 68
3843 68 72 2D 43 68 5A 5E 43 67 FA E1 43 C9 38 93 43 C9 01 27 43 C9 0C 29 41 BF 0A 3D 41 8E CC CD 41 C5 0A 3D 45 1D 80 00 44 EC 40 00 45 93 30 00 46 0E 80 00 45 96 F0 00 45 62 E0 00 45 44 E0 00 46 35 68 00 45 AD 70 00 45 81 60 00 45 B2 20 00 46 66 A0 00 3E E7 EF 9E 3E E8 F5 C3 3F 53 33 33 3F 1E 35 3F 42 48 0E 32
write:26 03 07 CF 00 78 72 74
26 03 F0
3845 38 93 33 42 20 33 33 45 07 D5 9A 00 00 00 00 44 38 E0 00 40 53 33 33 00 00 00 00 40 23 33 33 00 00 00 00 3F 19 99 9A 45 2C 98 00 40 40 00 00 45 03 79 9A 00 00 00 00 44 23 B0 00 42 84 4C CD 41 86 66 66 41 68 CC CD 00 00 00 00 42 0A 99 9A 44 90 73 33 42 5B 00 00 44 55 13 33 00 00 00 00 43 78 66 66 3F AC CC CD 00 00 00 00 3F 86 66 66 00 00 00 00 3E 19 99 9A 44 89 53 33 42 2F CC CD 44 50 FC CD 00 00 00 00 43 5A 8C CD 41 C6 00 00 40 C9 99 9A 40 A8 00 00 00 00 00 00 41 50 CC CD 42 AF 33 33 40 19 99 9A 42 77 CC CD 00 00 00 00 41 B8 CC CD 00 00 00 00 00 00 00 00 00 00 00 00 00 00 00 00 00 00 00 00 42 1D 33 33 3F C0 00 00 41 E7 99 9A 00 00 00 00 41 0B 33 33 41 01 99 9A 3E 99 99 9A 40 B6 66 66 00 00 00 00 3F F9 C2 30
write:26 03 01 0F 00 08 73 24
26 03 10
3800 02 3B 2B 00 00 00 9C 00 02 00 74 00 00 93 04
43 68 72 2D
232.446
43 68 5A 5E
232.353
43 67 FA E1
231.98
43 C9 38 93
402.442
43 C9 01 27
402.009
43 C9 0C 29
402.095
41 BF 0A 3D
23.88
41 8E CC CD
17.85
41 C5 0A 3D
24.63
45 1D 80 00
2520
44 EC 40 00
1890
45 93 30 00
4710
46 0E 80 00
9120
45 96 F0 00
4830
45 62 E0 00
3630
45 44 E0 00
3150
46 35 68 00
11610
45 AD 70 00
5550
45 81 60 00
4140
45 B2 20 00
5700
46 66 A0 00
14760
3E E7 EF 9E
0.453
3E E8 F5 C3
0.455
3F 53 33 33
0.825
3F 1E 35 3F
0.618
42 48 0E 32
50.013863
45 38 93 33
2953.2
42 20 33 33
40.05
45 07 D5 9A
2173.35
00 00 00 00
0
44 38 E0 00
739.5
40 53 33 33
3.3
00 00 00 00
0
40 23 33 33
2.55
00 00 00 00
0
3F 19 99 9A
0.6
45 2C 98 00
2761.5
40 40 00 00
3
45 03 79 9A
2103.6
00 00 00 00
0
44 23 B0 00
654.75
42 84 4C CD
66.15
41 86 66 66
16.8
41 68 CC CD
14.55
00 00 00 00
0
42 0A 99 9A
34.65
44 90 73 33
1155.6
42 5B 00 00
54.75
44 55 13 33
852.3
00 00 00 00
0
43 78 66 66
248.4
3F AC CC CD
1.35
00 00 00 00
0
3F 86 66 66
1.05
00 00 00 00
0
3E 19 99 9A
0.15
44 89 53 33
1098.6
42 2F CC CD
43.95
44 50 FC CD
835.95
00 00 00 00
0
43 5A 8C CD
218.55
41 C6 00 00
24.75
40 C9 99 9A
6.3
40 A8 00 00
5.25
00 00 00 00
0
41 50 CC CD
13.05
42 AF 33 33
87.6
40 19 99 9A
2.4
42 77 CC CD
61.95
00 00 00 00
0
41 B8 CC CD
23.1
00 00 00 00
0
00 00 00 00
0
00 00 00 00
0
00 00 00 00
0
00 00 00 00
0
42 1D 33 33
39.3
3F C0 00 00
1.5
41 E7 99 9A
28.95
00 00 00 00
0
41 0B 33 33
8.7
41 01 99 9A
8.1
3E 99 99 9A
0.3
40 B6 66 66
5.7
00 00 00 00
0
3F F9 C2 30
1.9512386
00 02 3B 2B
146219
00 00 00 9C
156
00 02 00 74
131188
00 00 93 04
37636
232.446232.353231.98402.442402.009402.09523.8817.8524.63252018904710912048303630315011610555041405700147600.4530.4550.8250.61850.0138632953.240.052173.350739.53.302.5500.62761.532103.60654.7566.1516.814.55034.651155.654.75852.30248.41.3501.0500.151098.643.95835.950218.5524.756.35.25013.0587.62.461.95023.10000039.31.528.9508.78.10.35.701.95123863820171123134410146.2190.156131.18837.636insert into tbl_power_info_v2(P_A_DIANYA,P_B_DIANYA,P_C_DIANYA,P_UAB_XIANDIANYA,P_UBC_XIANDIANYA,P_UCA_XIANDIANYA,P_A_DIANLIU,P_B_DIANLIU,P_C_DIANLIU,P_A_YGGL,P_B_YGGL,P_C_YGGL,P_HXYGGL,P_A_WGGL,P_B_WGGL,P_C_WGGL,P_HXWGGL,P_A_SZGL,P_B_SZGL,P_C_SZGL,P_HXSZGL,P_A_GLYS,P_B_GLYS,P_C_GLYS,P_HXGLYS,P_DWPL,P_BY_KwhZ,P_BY_KwhJ,P_BY_KwhF,P_BY_KwhP,P_BY_KwhG,P_BY_HKwhZ,P_BY_HKwhJ,P_BY_HKwhF,P_BY_HKwhP,P_BY_HKwhG, P_BY_KvarhZ,P_BY_KvarhJ,P_BY_KvarhF,P_BY_KvarhP,P_BY_KvarhG, P_BY_HKvarhZ,P_BY_HKvarhJ,P_BY_HKvarhF,P_BY_HKvarhP,P_BY_HKvarhG, P_SY_KwhZ,P_SY_KwhJ,P_SY_KwhF,P_SY_KwhP,P_SY_KwhG, P_SY_HKwhZ,P_SY_HKwhJ,P_SY_HKwhF,P_SY_HKwhP,P_SY_HKwhG, P_SY_KvarhZ,P_SY_KvarhJ,P_SY_KvarhF,P_SY_KvarhP,P_SY_KvarhG, P_SY_HKvarhZ,P_SY_HKvarhJ,P_SY_HKvarhF,P_SY_HKvarhP,P_SY_HKvarhG, P_SSY_KwhZ,P_SSY_KwhJ,P_SSY_KwhF,P_SSY_KwhP,P_SSY_KwhG, P_SSY_HKwhZ,P_SSY_HKwhJ,P_SSY_HKwhF,P_SSY_HKwhP,P_SSY_HKwhG, P_SSY_KvarhZ,P_SSY_KvarhJ,P_SSY_KvarhF,P_SSY_KvarhP,P_SSY_KvarhG, P_SSY_HKvarhZ,P_SSY_HKvarhJ,P_SSY_HKvarhF,P_SSY_HKvarhP,P_SSY_HKvarhG,P_CODE,P_TIME,P_ZXYGDN,P_FXYGDN,P_ZXWGDN,P_FXWGDN)values(232.446,232.353,231.98,402.442,402.009,402.095,23.88,17.85,24.63,2520,1890,4710,9120,4830,3630,3150,11610,5550,4140,5700,14760,0.453,0.455,0.825,0.618,50.013863,2953.2,40.05,2173.35,0,739.5,3.3,0,2.55,0,0.6,2761.5,3,2103.6,0,654.75,66.15,16.8,14.55,0,34.65,1155.6,54.75,852.3,0,248.4,1.35,0,1.05,0,0.15,1098.6,43.95,835.95,0,218.55,24.75,6.3,5.25,0,13.05,87.6,2.4,61.95,0,23.1,0,0,0,0,0,39.3,1.5,28.95,0,8.7,8.1,0.3,5.7,0,1.9512386,38,20171123134410,146.219,0.156,131.188,37.636)
写入成功读取完毕一个
write:27 03 00 38 00 34 C2 D6
27 03 68
3943 67 89 BA 43 67 B0 21 43 67 F5 81 43 C8 87 2B 43 C8 B3 75 43 C8 A8 73 00 00 00 00 00 00 00 00 41 06 66 66 00 00 00 00 00 00 00 00 44 EC 40 00 44 F0 00 00 00 00 00 00 00 00 00 00 00 00 00 00 42 70 00 00 00 00 00 00 00 00 00 00 44 F3 C0 00 44 F0 00 00 00 00 00 00 00 00 00 00 3F 77 CE D9 3F 80 00 00 42 48 30 AF
write:27 03 07 CF 00 78 73 A5
27 03 F0
3943 78 8C CD 41 10 00 00 43 2E C0 00 00 00 00 00 42 81 4C CD 00 00 00 00 00 00 00 00 00 00 00 00 00 00 00 00 00 00 00 00 42 F6 4C CD 00 00 00 00 42 C1 80 00 00 00 00 00 41 D3 33 33 40 AC CC CD 00 00 00 00 40 86 66 66 00 00 00 00 3F 86 66 66 43 0C 66 66 41 38 CC CD 42 A5 E6 66 00 00 00 00 42 37 99 9A 00 00 00 00 00 00 00 00 00 00 00 00 00 00 00 00 00 00 00 00 3F AC CC CD 00 00 00 00 3F 19 99 9A 00 00 00 00 3F 19 99 9A 41 08 CC CD 00 00 00 00 40 D8 00 00 00 00 00 00 3F E6 66 66 43 68 59 9A 41 38 CC CD 43 1A CC CD 00 00 00 00 42 83 B3 33 00 00 00 00 00 00 00 00 00 00 00 00 00 00 00 00 00 00 00 00 41 8A 00 00 00 00 00 00 41 77 33 33 00 00 00 00 3F D3 33 33 41 88 CC CD 3E 19 99 9A 41 53 33 33 00 00 00 00 40 66 5A 87
write:27 03 01 0F 00 08 72 F5
27 03 10
3900 01 3A 59 00 00 00 00 00 00 39 67 00 00 2F 11
43 67 89 BA
231.538
43 67 B0 21
231.688
43 67 F5 81
231.959
43 C8 87 2B
401.056
43 C8 B3 75
401.402
43 C8 A8 73
401.316
00 00 00 00
0
00 00 00 00
0
41 06 66 66
8.4
00 00 00 00
0
00 00 00 00
0
44 EC 40 00
1890
44 F0 00 00
1920
00 00 00 00
0
00 00 00 00
0
00 00 00 00
0
42 70 00 00
60
00 00 00 00
0
00 00 00 00
0
44 F3 C0 00
1950
44 F0 00 00
1920
00 00 00 00
0
00 00 00 00
0
3F 77 CE D9
0.968
3F 80 00 00
1
42 48 30 AF
50.047543
43 78 8C CD
248.55
41 10 00 00
9
43 2E C0 00
174.75
00 00 00 00
0
42 81 4C CD
64.65
00 00 00 00
0
00 00 00 00
0
00 00 00 00
0
00 00 00 00
0
00 00 00 00
0
42 F6 4C CD
123.15
00 00 00 00
0
42 C1 80 00
96.75
00 00 00 00
0
41 D3 33 33
26.4
40 AC CC CD
5.4
00 00 00 00
0
40 86 66 66
4.2
00 00 00 00
0
3F 86 66 66
1.05
43 0C 66 66
140.4
41 38 CC CD
11.55
42 A5 E6 66
82.95
00 00 00 00
0
42 37 99 9A
45.9
00 00 00 00
0
00 00 00 00
0
00 00 00 00
0
00 00 00 00
0
00 00 00 00
0
3F AC CC CD
1.35
00 00 00 00
0
3F 19 99 9A
0.6
00 00 00 00
0
3F 19 99 9A
0.6
41 08 CC CD
8.55
00 00 00 00
0
40 D8 00 00
6.75
00 00 00 00
0
3F E6 66 66
1.8
43 68 59 9A
232.35
41 38 CC CD
11.55
43 1A CC CD
154.8
00 00 00 00
0
42 83 B3 33
65.85
00 00 00 00
0
00 00 00 00
0
00 00 00 00
0
00 00 00 00
0
00 00 00 00
0
41 8A 00 00
17.25
00 00 00 00
0
41 77 33 33
15.45
00 00 00 00
0
3F D3 33 33
1.65
41 88 CC CD
17.1
3E 19 99 9A
0.15
41 53 33 33
13.2
00 00 00 00
0
40 66 5A 87
3.5992754
00 01 3A 59
80473
00 00 00 00
0
00 00 39 67
14695
00 00 2F 11
12049
231.538231.688231.959401.056401.402401.316008.40018901920000600019501920000.968150.047543248.559174.75064.6500000123.15096.75026.45.404.201.05140.411.5582.95045.9000001.3500.600.68.5506.7501.8232.3511.55154.8065.850000017.25015.4501.6517.10.1513.203.5992754392017112313451980.473014.69512.049insert into tbl_power_info_v2(P_A_DIANYA,P_B_DIANYA,P_C_DIANYA,P_UAB_XIANDIANYA,P_UBC_XIANDIANYA,P_UCA_XIANDIANYA,P_A_DIANLIU,P_B_DIANLIU,P_C_DIANLIU,P_A_YGGL,P_B_YGGL,P_C_YGGL,P_HXYGGL,P_A_WGGL,P_B_WGGL,P_C_WGGL,P_HXWGGL,P_A_SZGL,P_B_SZGL,P_C_SZGL,P_HXSZGL,P_A_GLYS,P_B_GLYS,P_C_GLYS,P_HXGLYS,P_DWPL,P_BY_KwhZ,P_BY_KwhJ,P_BY_KwhF,P_BY_KwhP,P_BY_KwhG,P_BY_HKwhZ,P_BY_HKwhJ,P_BY_HKwhF,P_BY_HKwhP,P_BY_HKwhG, P_BY_KvarhZ,P_BY_KvarhJ,P_BY_KvarhF,P_BY_KvarhP,P_BY_KvarhG, P_BY_HKvarhZ,P_BY_HKvarhJ,P_BY_HKvarhF,P_BY_HKvarhP,P_BY_HKvarhG, P_SY_KwhZ,P_SY_KwhJ,P_SY_KwhF,P_SY_KwhP,P_SY_KwhG, P_SY_HKwhZ,P_SY_HKwhJ,P_SY_HKwhF,P_SY_HKwhP,P_SY_HKwhG, P_SY_KvarhZ,P_SY_KvarhJ,P_SY_KvarhF,P_SY_KvarhP,P_SY_KvarhG, P_SY_HKvarhZ,P_SY_HKvarhJ,P_SY_HKvarhF,P_SY_HKvarhP,P_SY_HKvarhG, P_SSY_KwhZ,P_SSY_KwhJ,P_SSY_KwhF,P_SSY_KwhP,P_SSY_KwhG, P_SSY_HKwhZ,P_SSY_HKwhJ,P_SSY_HKwhF,P_SSY_HKwhP,P_SSY_HKwhG, P_SSY_KvarhZ,P_SSY_KvarhJ,P_SSY_KvarhF,P_SSY_KvarhP,P_SSY_KvarhG, P_SSY_HKvarhZ,P_SSY_HKvarhJ,P_SSY_HKvarhF,P_SSY_HKvarhP,P_SSY_HKvarhG,P_CODE,P_TIME,P_ZXYGDN,P_FXYGDN,P_ZXWGDN,P_FXWGDN)values(231.538,231.688,231.959,401.056,401.402,401.316,0,0,8.4,0,0,1890,1920,0,0,0,60,0,0,1950,1920,0,0,0.968,1,50.047543,248.55,9,174.75,0,64.65,0,0,0,0,0,123.15,0,96.75,0,26.4,5.4,0,4.2,0,1.05,140.4,11.55,82.95,0,45.9,0,0,0,0,0,1.35,0,0.6,0,0.6,8.55,0,6.75,0,1.8,232.35,11.55,154.8,0,65.85,0,0,0,0,0,17.25,0,15.45,0,1.65,17.1,0.15,13.2,0,3.5992754,39,20171123134519,80.473,0,14.695,12.049)
写入成功读取完毕一个
write:28 03 00 38 00 34 C2 29
28 03 68
4043 69 26 A8 43 69 2F DF 43 68 A8 B4 43 C9 DE D9 43 C9 A7 6D 43 C9 A7 6D 00 00 00 00 3F 38 51 EC 3F 28 F5 C3 00 00 00 00 42 F0 00 00 42 F0 00 00 43 87 00 00 00 00 00 00 42 B4 00 00 42 70 00 00 43 34 00 00 00 00 00 00 43 34 00 00 43 16 00 00 43 A5 00 00 00 00 00 00 3F 49 37 4C 3F 51 68 73 3F 57 0A 3D 42 48 2D F3
write:28 03 07 CF 00 78 73 5A
28 03 F0
4043 1A 33 33 41 01 99 9A 42 DE E6 66 00 00 00 00 42 0A 00 00 00 00 00 00 00 00 00 00 00 00 00 00 00 00 00 00 00 00 00 00 42 B0 B3 33 40 9E 66 66 42 74 CC CD 00 00 00 00 41 AF 33 33 3E E6 66 66 00 00 00 00 3E E6 66 66 00 00 00 00 00 00 00 00 43 2B C0 00 41 20 CC CD 42 D2 4C CD 00 00 00 00 42 61 99 9A 00 00 00 00 00 00 00 00 00 00 00 00 00 00 00 00 00 00 00 00 42 58 99 9A 40 E1 99 9A 41 D4 66 66 00 00 00 00 41 A3 33 33 3E 19 99 9A 00 00 00 00 3E 19 99 9A 00 00 00 00 00 00 00 00 44 49 69 9A 41 77 33 33 43 FD 59 9A 00 00 00 00 43 8D AC CD 00 00 00 00 00 00 00 00 00 00 00 00 00 00 00 00 00 00 00 00 43 67 73 33 41 1C 00 00 43 14 33 33 00 00 00 00 00 00 00 00 00 00 00 00 00 00 00 00 00 00 00 00 00 00 00 00 00 00 00 00
00 00 00
heart:00 00 00 00 42 93 00 00 3E 19 99 9A 00 00 00 00 00 00 00 00 00 00 00 00 00 00 CE CA
write:28 03 01 0F 00 08 72 0A
28 03 10
4000 01 55 E0 00 00 00 00 00 00 69 2D 00 00 A4 18
43 69 26 A8
233.151
43 69 2F DF
233.187
43 68 A8 B4
232.659
43 C9 DE D9
403.741
43 C9 A7 6D
403.308
43 C9 A7 6D
403.308
00 00 00 00
0
3F 38 51 EC
0.72
3F 28 F5 C3
0.66
00 00 00 00
0
42 F0 00 00
120
42 F0 00 00
120
43 87 00 00
270
00 00 00 00
0
42 B4 00 00
90
42 70 00 00
60
43 34 00 00
180
00 00 00 00
0
43 34 00 00
180
43 16 00 00
150
43 A5 00 00
330
00 00 00 00
0
3F 49 37 4C
0.786
3F 51 68 73
0.818
3F 57 0A 3D
0.84
42 48 2D F3
50.044872
43 1A 33 33
154.2
41 01 99 9A
8.1
42 DE E6 66
111.45
00 00 00 00
0
42 0A 00 00
34.5
00 00 00 00
0
00 00 00 00
0
00 00 00 00
0
00 00 00 00
0
00 00 00 00
0
42 B0 B3 33
88.35
40 9E 66 66
4.95
42 74 CC CD
61.2
00 00 00 00
0
41 AF 33 33
21.9
3E E6 66 66
0.45
00 00 00 00
0
3E E6 66 66
0.45
00 00 00 00
0
00 00 00 00
0
43 2B C0 00
171.75
41 20 CC CD
10.05
42 D2 4C CD
105.15
00 00 00 00
0
42 61 99 9A
56.4
00 00 00 00
0
00 00 00 00
0
00 00 00 00
0
00 00 00 00
0
00 00 00 00
0
42 58 99 9A
54.15
40 E1 99 9A
7.05
41 D4 66 66
26.55
00 00 00 00
0
41 A3 33 33
20.4
3E 19 99 9A
0.15
00 00 00 00
0
3E 19 99 9A
0.15
00 00 00 00
0
00 00 00 00
0
44 49 69 9A
805.65
41 77 33 33
15.45
43 FD 59 9A
506.7
00 00 00 00
0
43 8D AC CD
283.35
00 00 00 00
0
00 00 00 00
0
00 00 00 00
0
00 00 00 00
0
00 00 00 00
0
43 67 73 33
231.45
41 1C 00 00
9.75
43 14 33 33
148.2
00 00 00 00
0
00 00 00 00
0
00 00 00 00
0
00 00 00 00
0
00 00 00 00
0
00 00 00 00
0
00 00 00 00
0
00 01 55 E0
87520
00 00 00 00
0
00 00 69 2D
26925
00 00 A4 18
42008
233.151233.187232.659403.741403.308403.30800.720.66012012027009060180018015033000.7860.8180.8450.044872154.28.1111.45034.50000088.354.9561.2021.90.4500.4500171.7510.05105.15056.40000054.157.0526.55020.40.1500.1500805.6515.45506.70283.3500000231.459.75148.20000000402017112313462787.52026.92542.008insert into tbl_power_info_v2(P_A_DIANYA,P_B_DIANYA,P_C_DIANYA,P_UAB_XIANDIANYA,P_UBC_XIANDIANYA,P_UCA_XIANDIANYA,P_A_DIANLIU,P_B_DIANLIU,P_C_DIANLIU,P_A_YGGL,P_B_YGGL,P_C_YGGL,P_HXYGGL,P_A_WGGL,P_B_WGGL,P_C_WGGL,P_HXWGGL,P_A_SZGL,P_B_SZGL,P_C_SZGL,P_HXSZGL,P_A_GLYS,P_B_GLYS,P_C_GLYS,P_HXGLYS,P_DWPL,P_BY_KwhZ,P_BY_KwhJ,P_BY_KwhF,P_BY_KwhP,P_BY_KwhG,P_BY_HKwhZ,P_BY_HKwhJ,P_BY_HKwhF,P_BY_HKwhP,P_BY_HKwhG, P_BY_KvarhZ,P_BY_KvarhJ,P_BY_KvarhF,P_BY_KvarhP,P_BY_KvarhG, P_BY_HKvarhZ,P_BY_HKvarhJ,P_BY_HKvarhF,P_BY_HKvarhP,P_BY_HKvarhG, P_SY_KwhZ,P_SY_KwhJ,P_SY_KwhF,P_SY_KwhP,P_SY_KwhG, P_SY_HKwhZ,P_SY_HKwhJ,P_SY_HKwhF,P_SY_HKwhP,P_SY_HKwhG, P_SY_KvarhZ,P_SY_KvarhJ,P_SY_KvarhF,P_SY_KvarhP,P_SY_KvarhG, P_SY_HKvarhZ,P_SY_HKvarhJ,P_SY_HKvarhF,P_SY_HKvarhP,P_SY_HKvarhG, P_SSY_KwhZ,P_SSY_KwhJ,P_SSY_KwhF,P_SSY_KwhP,P_SSY_KwhG, P_SSY_HKwhZ,P_SSY_HKwhJ,P_SSY_HKwhF,P_SSY_HKwhP,P_SSY_HKwhG, P_SSY_KvarhZ,P_SSY_KvarhJ,P_SSY_KvarhF,P_SSY_KvarhP,P_SSY_KvarhG, P_SSY_HKvarhZ,P_SSY_HKvarhJ,P_SSY_HKvarhF,P_SSY_HKvarhP,P_SSY_HKvarhG,P_CODE,P_TIME,P_ZXYGDN,P_FXYGDN,P_ZXWGDN,P_FXWGDN)values(233.151,233.187,232.659,403.741,403.308,403.308,0,0.72,0.66,0,120,120,270,0,90,60,180,0,180,150,330,0,0.786,0.818,0.84,50.044872,154.2,8.1,111.45,0,34.5,0,0,0,0,0,88.35,4.95,61.2,0,21.9,0.45,0,0.45,0,0,171.75,10.05,105.15,0,56.4,0,0,0,0,0,54.15,7.05,26.55,0,20.4,0.15,0,0.15,0,0,805.65,15.45,506.7,0,283.35,0,0,0,0,0,231.45,9.75,148.2,0,0,0,0,0,0,0,40,20171123134627,87.52,0,26.925,42.008)
写入成功读取完毕一个
write:29 03 00 38 00 34 C3 F8
29 03 68
4143 68 A1 CB 43 68 AD 50 43 68 B8 52 43 C9 70 00 43 C9 7B 02 43 C9 7B 02 00 00 00 00 00 00 00 00 40 2C CC CD 00 00 00 00 00 00 00 00 43 D2 00 00 43 F0 00 00 00 00 00 00 00 00 00 00 43 34 00 00 43 34 00 00 00 00 00 00 42 F0 00 00 44 25 00 00 44 07 00 00 00 00 00 00 3E DE 35 3F 3F 25 1E 00 00 00 00 00 00 00 00 00
B8 3F 6D
heart:B8 3F 6D 0E 56 42 48 8B 13
write:29 03 07 CF 00 78 72 8B
29 03 F0
4144 22 99 9A 40 F9 99 9A 43 ED 99 9A 41 01 99 9A 43 1F 00 00 00 00 00 00 00 00 00 00 00 00 00 00 00 00 00 00 00 00 00 00 44 0E 20 00 00 00 00 00 43 E4 26 66 00 00 00 00 42 DF 33 33 42 AB 00 00 40 E6 66 66 42 02 CC CD 40 F9 99 9A 42 16 00 00 43 D1 D9 9A 40 90 00 00 43 A3 80 00 40 90 00 00 42 A6 33 33 00 00 00 00 00 00 00 00 00 00 00 00 00 00 00 00 00 00 00 00 00 00 00 00 00 00 00 00 00 00 00 00 00 00 00 00 00 00 00 00 00 00 00 00 00 00 00 00 00 00 00 00 00 00 00 00 00 00 00 00 00 00 00 00 00 00 00 00 00 00 00 00 00 00 00 00 00 00 00 00 00 00 00 00 00 00 00 00 00 00 00 00 00 00 00 00 00 00 00 00 00 00 00 00 00 00 00 00 00 00 00 00 00 00 00 00 00 00 00 00 00 00 00 00 00 00 00 00 00 00 00 00 00 00 00 00 00 00 00 00
00 00 00
heart:00 00 00 00 00 00 00 00 00 00 00 00 00 00 43 A4 B3 33 3E 99 99 9A 43 8E 33 33 3E 99 99 9A 42 2F 33 33 42 9F 00 00 40 F9 99 9A 41 E1 99 9A 41 01 99 9A 42 0C 66 66 43 D6 F3 33 40 06 66 66 43 9B B3 33 40 06 66 66 42 E4 00 00 00 00 00 00 00 00 00 00 00 00 00 00 00 00 00 00 00 00 00 00 43 E1 E6 66 3F 99 99 9A 43 AF F3 33 3F C0 00 00 42 C1 33 33 42 35 33 33 40 B6 66 66 41 2C CC CD 40 C0 00 00 41 B1 34 42
write:29 03 01 0F 00 08 73 DB
29 03 10
4100 00 63 D8 00 00 00 00 00 00 5B 33 00 00 68 F3
43 68 A1 CB
232.632
43 68 AD 50
232.677
43 68 B8 52
232.72
43 C9 70 00
402.875
43 C9 7B 02
402.961
43 C9 7B 02
402.961
00 00 00 00
0
00 00 00 00
0
40 2C CC CD
2.7
00 00 00 00
0
00 00 00 00
0
43 D2 00 00
420
43 F0 00 00
480
00 00 00 00
0
00 00 00 00
0
43 34 00 00
180
43 34 00 00
180
00 00 00 00
0
42 F0 00 00
120
44 25 00 00
660
44 07 00 00
540
00 00 00 00
0
3E DE 35 3F
0.434
3F 25 1E 00
0.644989
00 00 00 00
0
00 00 00 00
0
44 22 99 9A
650.4
40 F9 99 9A
7.8
43 ED 99 9A
475.2
41 01 99 9A
8.1
43 1F 00 00
159
00 00 00 00
0
00 00 00 00
0
00 00 00 00
0
00 00 00 00
0
00 00 00 00
0
44 0E 20 00
568.5
00 00 00 00
0
43 E4 26 66
456.3
00 00 00 00
0
42 DF 33 33
111.6
42 AB 00 00
85.5
40 E6 66 66
7.2
42 02 CC CD
32.7
40 F9 99 9A
7.8
42 16 00 00
37.5
43 D1 D9 9A
419.7
40 90 00 00
4.5
43 A3 80 00
327
40 90 00 00
4.5
42 A6 33 33
83.1
00 00 00 00
0
00 00 00 00
0
00 00 00 00
0
00 00 00 00
0
00 00 00 00
0
00 00 00 00
0
00 00 00 00
0
00 00 00 00
0
00 00 00 00
0
00 00 00 00
0
00 00 00 00
0
00 00 00 00
0
00 00 00 00
0
00 00 00 00
0
00 00 00 00
0
00 00 00 00
0
00 00 00 00
0
00 00 00 00
0
00 00 00 00
0
00 00 00 00
0
00 00 00 00
0
00 00 00 00
0
00 00 00 00
0
00 00 00 00
0
00 00 00 00
0
00 00 00 00
0
00 00 00 00
0
00 00 00 00
0
00 00 00 00
0
00 00 00 00
0
00 00 00 00
0
00 00 00 00
0
00 00 00 00
0
00 00 00 00
0
00 00 00 00
0
00 00 63 D8
25560
00 00 00 00
0
00 00 5B 33
23347
00 00 68 F3
26867
232.632232.677232.72402.875402.961402.961002.70042048000180180012066054000.4340.64498900650.47.8475.28.115900000568.50456.30111.685.57.232.77.837.5419.74.53274.583.100000000000000000000000000000000000412017112313473725.56023.34726.867insert into tbl_power_info_v2(P_A_DIANYA,P_B_DIANYA,P_C_DIANYA,P_UAB_XIANDIANYA,P_UBC_XIANDIANYA,P_UCA_XIANDIANYA,P_A_DIANLIU,P_B_DIANLIU,P_C_DIANLIU,P_A_YGGL,P_B_YGGL,P_C_YGGL,P_HXYGGL,P_A_WGGL,P_B_WGGL,P_C_WGGL,P_HXWGGL,P_A_SZGL,P_B_SZGL,P_C_SZGL,P_HXSZGL,P_A_GLYS,P_B_GLYS,P_C_GLYS,P_HXGLYS,P_DWPL,P_BY_KwhZ,P_BY_KwhJ,P_BY_KwhF,P_BY_KwhP,P_BY_KwhG,P_BY_HKwhZ,P_BY_HKwhJ,P_BY_HKwhF,P_BY_HKwhP,P_BY_HKwhG, P_BY_KvarhZ,P_BY_KvarhJ,P_BY_KvarhF,P_BY_KvarhP,P_BY_KvarhG, P_BY_HKvarhZ,P_BY_HKvarhJ,P_BY_HKvarhF,P_BY_HKvarhP,P_BY_HKvarhG, P_SY_KwhZ,P_SY_KwhJ,P_SY_KwhF,P_SY_KwhP,P_SY_KwhG, P_SY_HKwhZ,P_SY_HKwhJ,P_SY_HKwhF,P_SY_HKwhP,P_SY_HKwhG, P_SY_KvarhZ,P_SY_KvarhJ,P_SY_KvarhF,P_SY_KvarhP,P_SY_KvarhG, P_SY_HKvarhZ,P_SY_HKvarhJ,P_SY_HKvarhF,P_SY_HKvarhP,P_SY_HKvarhG, P_SSY_KwhZ,P_SSY_KwhJ,P_SSY_KwhF,P_SSY_KwhP,P_SSY_KwhG, P_SSY_HKwhZ,P_SSY_HKwhJ,P_SSY_HKwhF,P_SSY_HKwhP,P_SSY_HKwhG, P_SSY_KvarhZ,P_SSY_KvarhJ,P_SSY_KvarhF,P_SSY_KvarhP,P_SSY_KvarhG, P_SSY_HKvarhZ,P_SSY_HKvarhJ,P_SSY_HKvarhF,P_SSY_HKvarhP,P_SSY_HKvarhG,P_CODE,P_TIME,P_ZXYGDN,P_FXYGDN,P_ZXWGDN,P_FXWGDN)values(232.632,232.677,232.72,402.875,402.961,402.961,0,0,2.7,0,0,420,480,0,0,180,180,0,120,660,540,0,0.434,0.644989,0,0,650.4,7.8,475.2,8.1,159,0,0,0,0,0,568.5,0,456.3,0,111.6,85.5,7.2,32.7,7.8,37.5,419.7,4.5,327,4.5,83.1,0,0,0,0,0,0,0,0,0,0,0,0,0,0,0,0,0,0,0,0,0,0,0,0,0,0,0,0,0,0,0,0,0,0,0,41,20171123134737,25.56,0,23.347,26.867)
写入成功读取完毕一个
write:2A 03 00 38 00 34 C3 CB
2A 03 68
4243 69 0C 4A 43 68 DC EE 43 68 CE 14 43 C9 B2 6F 43 C9 9C 4A 43 C9 B2 6F 40 A7 AE 14 41 13 D7 0A 40 A1 47 AE 44 8E 80 00 44 E6 00 00 44 75 00 00 45 77 80 00 43 70 00 00 44 2A 00 00 43 FA 00 00 44 B1 80 00 44 98 80 00 45 05 C0 00 44 93 80 00 45 83 E0 00 3F 70 A3 D7 3F 5A 9F BE 3F 58 10 62 3F 70 E5 60 42 48 4D FA
write:2A 03 07 CF 00 78 72 B8
2A 03 F0
4245 D2 80 CD 44 83 29 9A 45 4A A0 00 00 00 00 00 45 18 CB 33 00 00 00 00 00 00 00 00 00 00 00 00 00 00 00 00 00 00 00 00 40 73 33 33 00 00 00 00 3F E6 66 66 00 00 00 00 40 00 00 00 44 2E 93 33 42 D1 00 00 43 AC F3 33 00 00 00 00 43 77 CC CD 46 02 2F 33 44 AB 10 00 45 84 08 CD 00 00 00 00 45 2B 21 9A 00 00 00 00 00 00 00 00 00 00 00 00 00 00 00 00 00 00 00 00 40 40 00 00 00 00 00 00 40 39 99 9A 00 00 00 00 00 00 00 00 44 66 F3 33 43 13 80 00 43 D3 80 00 00 00 00 00 43 B0 99 9A 46 14 A7 9A 44 C0 90 00 45 95 06 66 00 00 00 00 45 48 48 00 00 00 00 00 00 00 00 00 00 00 00 00 00 00 00 00 00 00 00 00 00 00 00 00 00 00 00 00 00 00 00 00 00 00 00 00 00 00 00 00 00 00 00 00 00 00 00 00 00 00 00 00 00 00 00 00 00 00 00 00
00 00 00
heart:00 00 00 00 00 00 00 00 00 00 00 00 00 00 00 00 00 00 00 00 00 43 B7 CC CD 42 58 00 00 43 24 99 9A 00 00 00 00 43 14 CC CD 44 1B B3 33 42 D3 00 00 43 7B E6 66 00 00 00 00 43 84 C0 21
write:2A 03 01 0F 00 08 73 E8
2A 03 10
4200 30 A9 F2 00 00 00 00 00 02 48 64 00 03 70 93
43 69 0C 4A
233.048
43 68 DC EE
232.863
43 68 CE 14
232.805
43 C9 B2 6F
403.394
43 C9 9C 4A
403.221
43 C9 B2 6F
403.394
40 A7 AE 14
5.24
41 13 D7 0A
9.24
40 A1 47 AE
5.04
44 8E 80 00
1140
44 E6 00 00
1840
44 75 00 00
980
45 77 80 00
3960
43 70 00 00
240
44 2A 00 00
680
43 FA 00 00
500
44 B1 80 00
1420
44 98 80 00
1220
45 05 C0 00
2140
44 93 80 00
1180
45 83 E0 00
4220
3F 70 A3 D7
0.94
3F 5A 9F BE
0.854
3F 58 10 62
0.844
3F 70 E5 60
0.941
42 48 4D FA
50.07615
45 D2 80 CD
6736.1
44 83 29 9A
1049.3
45 4A A0 00
3242
00 00 00 00
0
45 18 CB 33
2444.7
00 00 00 00
0
00 00 00 00
0
00 00 00 00
0
00 00 00 00
0
00 00 00 00
0
40 73 33 33
3.8
00 00 00 00
0
3F E6 66 66
1.8
00 00 00 00
0
40 00 00 00
2
44 2E 93 33
698.3
42 D1 00 00
104.5
43 AC F3 33
345.9
00 00 00 00
0
43 77 CC CD
247.8
46 02 2F 33
8331.8
44 AB 10 00
1368.5
45 84 08 CD
4225.1
00 00 00 00
0
45 2B 21 9A
2738.1
00 00 00 00
0
00 00 00 00
0
00 00 00 00
0
00 00 00 00
0
00 00 00 00
0
40 40 00 00
3
00 00 00 00
0
40 39 99 9A
2.9
00 00 00 00
0
00 00 00 00
0
44 66 F3 33
923.8
43 13 80 00
147.5
43 D3 80 00
423
00 00 00 00
0
43 B0 99 9A
353.2
46 14 A7 9A
9513.9
44 C0 90 00
1540.5
45 95 06 66
4768.8
00 00 00 00
0
45 48 48 00
3204.5
00 00 00 00
0
00 00 00 00
0
00 00 00 00
0
00 00 00 00
0
00 00 00 00
0
00 00 00 00
0
00 00 00 00
0
00 00 00 00
0
00 00 00 00
0
00 00 00 00
0
00 00 00 00
0
00 00 00 00
0
00 00 00 00
0
00 00 00 00
0
00 00 00 00
0
00 30 A9 F2
3189234
00 00 00 00
0
00 02 48 64
149604
00 03 70 93
225427
233.048232.863232.805403.394403.221403.3945.249.245.04114018409803960240680500142012202140118042200.940.8540.8440.94150.076156736.11049.3324202444.7000003.801.802698.3104.5345.90247.88331.81368.54225.102738.100000302.900923.8147.54230353.29513.91540.54768.803204.500000000000000042201711231348493189.2340149.604225.427insert into tbl_power_info_v2(P_A_DIANYA,P_B_DIANYA,P_C_DIANYA,P_UAB_XIANDIANYA,P_UBC_XIANDIANYA,P_UCA_XIANDIANYA,P_A_DIANLIU,P_B_DIANLIU,P_C_DIANLIU,P_A_YGGL,P_B_YGGL,P_C_YGGL,P_HXYGGL,P_A_WGGL,P_B_WGGL,P_C_WGGL,P_HXWGGL,P_A_SZGL,P_B_SZGL,P_C_SZGL,P_HXSZGL,P_A_GLYS,P_B_GLYS,P_C_GLYS,P_HXGLYS,P_DWPL,P_BY_KwhZ,P_BY_KwhJ,P_BY_KwhF,P_BY_KwhP,P_BY_KwhG,P_BY_HKwhZ,P_BY_HKwhJ,P_BY_HKwhF,P_BY_HKwhP,P_BY_HKwhG, P_BY_KvarhZ,P_BY_KvarhJ,P_BY_KvarhF,P_BY_KvarhP,P_BY_KvarhG, P_BY_HKvarhZ,P_BY_HKvarhJ,P_BY_HKvarhF,P_BY_HKvarhP,P_BY_HKvarhG, P_SY_KwhZ,P_SY_KwhJ,P_SY_KwhF,P_SY_KwhP,P_SY_KwhG, P_SY_HKwhZ,P_SY_HKwhJ,P_SY_HKwhF,P_SY_HKwhP,P_SY_HKwhG, P_SY_KvarhZ,P_SY_KvarhJ,P_SY_KvarhF,P_SY_KvarhP,P_SY_KvarhG, P_SY_HKvarhZ,P_SY_HKvarhJ,P_SY_HKvarhF,P_SY_HKvarhP,P_SY_HKvarhG, P_SSY_KwhZ,P_SSY_KwhJ,P_SSY_KwhF,P_SSY_KwhP,P_SSY_KwhG, P_SSY_HKwhZ,P_SSY_HKwhJ,P_SSY_HKwhF,P_SSY_HKwhP,P_SSY_HKwhG, P_SSY_KvarhZ,P_SSY_KvarhJ,P_SSY_KvarhF,P_SSY_KvarhP,P_SSY_KvarhG, P_SSY_HKvarhZ,P_SSY_HKvarhJ,P_SSY_HKvarhF,P_SSY_HKvarhP,P_SSY_HKvarhG,P_CODE,P_TIME,P_ZXYGDN,P_FXYGDN,P_ZXWGDN,P_FXWGDN)values(233.048,232.863,232.805,403.394,403.221,403.394,5.24,9.24,5.04,1140,1840,980,3960,240,680,500,1420,1220,2140,1180,4220,0.94,0.854,0.844,0.941,50.07615,6736.1,1049.3,3242,0,2444.7,0,0,0,0,0,3.8,0,1.8,0,2,698.3,104.5,345.9,0,247.8,8331.8,1368.5,4225.1,0,2738.1,0,0,0,0,0,3,0,2.9,0,0,923.8,147.5,423,0,353.2,9513.9,1540.5,4768.8,0,3204.5,0,0,0,0,0,0,0,0,0,0,0,0,0,0,0,42,20171123134849,3189.234,0,149.604,225.427)
写入成功读取完毕一个
write:2B 03 00 38 00 34 C2 1A
2B 03 68
4343 69 1D B2 43 68 BA 5E 43 69 04 9C 43 C9 B2 6F 43 C9 A7 6D 43 C9 D3 B6 40 D7 0A 3D 41 67 0A 3D 40 86 66 66 44 A0 00 00 45 22 80 00 44 5C 00 00 45 94 C0 00 44 02 00 00 42 A0 00 00 43 A0 00 00 44 66 00 00 44 C3 00 00 45 52 00 00 44 70 00 00 45 97 40 00 3F 4F 1A A0 3F 46 66 66 3F 65 E3 54 3F 7B 22 D1 42 48 03 53
write:2B 03 07 CF 00 78 73 69
2B 03 F0
4345 C2 70 00 44 B4 60 00 45 23 2C CD 00 00 00 00 45 07 80 00 00 00 00 00 00 00 00 00 00 00 00 00 00 00 00 00 00 00 00 00 44 FB 33 33 44 17 0C CD 44 92 93 33 00 00 00 00 43 68 CC CD 42 9C CC CD 40 E0 00 00 40 86 66 66 00 00 00 00 42 86 00 00 45 AB 83 33 44 C5 D3 33 44 EA 46 66 00 00 00 00 44 FD F3 33 00 00 00 00 00 00 00 00 00 00 00 00 00 00 00 00 00 00 00 00 44 C3 93 33 44 12 66 66 44 3F F3 33 00 00 00 00 43 53 33 33 43 40 CC CD 42 07 33 33 41 C1 99 9A 00 00 00 00 43 06 99 9A 45 53 13 33 00 00 00 00 00 00 00 00 00 00 00 00 00 00 00 00 00 00 00 00 00 00 00 00 00 00 00 00 00 00 00 00 00 00 00 00 00 00 00 00 00 00 00 00 00 00 00 00 00 00 00 00 00 00 00 00 00 00 00 00 00 00 00 00 00 00 00 00 00 00 00 00 00 00 00 00
44 5A 99
heart:44 5A 99 9A 44 F5 06 66 00 00 00 00 44 07 99 9A 00 00 00 00 00 00 00 00 00 00 00 00 00 00 00 00 00 00 00 00 44 53 40 00 43 AE 99 9A 43 E0 19 9A 00 00 00 00 42 3D 99 9A 42 09 99 9A 40 D9 99 9A 41 00 00 00 00 00 00 00 41 9C AF 9F
write:2B 03 01 0F 00 08 72 39
2B 03 10
4300 06 66 0A 00 00 00 00 00 01 E2 95 00 00 4F 45
43 69 1D B2
233.116
43 68 BA 5E
232.728
43 69 04 9C
233.018
43 C9 B2 6F
403.394
43 C9 A7 6D
403.308
43 C9 D3 B6
403.654
40 D7 0A 3D
6.72
41 67 0A 3D
14.44
40 86 66 66
4.2
44 A0 00 00
1280
45 22 80 00
2600
44 5C 00 00
880
45 94 C0 00
4760
44 02 00 00
520
42 A0 00 00
80
43 A0 00 00
320
44 66 00 00
920
44 C3 00 00
1560
45 52 00 00
3360
44 70 00 00
960
45 97 40 00
4840
3F 4F 1A A0
0.809
3F 46 66 66
0.775
3F 65 E3 54
0.898
3F 7B 22 D1
0.981
42 48 03 53
50.003246
45 C2 70 00
6222
44 B4 60 00
1443
45 23 2C CD
2610.8
00 00 00 00
0
45 07 80 00
2168
00 00 00 00
0
00 00 00 00
0
00 00 00 00
0
00 00 00 00
0
00 00 00 00
0
44 FB 33 33
2009.6
44 17 0C CD
604.2
44 92 93 33
1172.6
00 00 00 00
0
43 68 CC CD
232.8
42 9C CC CD
78.4
40 E0 00 00
7
40 86 66 66
4.2
00 00 00 00
0
42 86 00 00
67
45 AB 83 33
5488.4
44 C5 D3 33
1582.6
44 EA 46 66
1874.2
00 00 00 00
0
44 FD F3 33
2031.6
00 00 00 00
0
00 00 00 00
0
00 00 00 00
0
00 00 00 00
0
00 00 00 00
0
44 C3 93 33
1564.6
44 12 66 66
585.6
44 3F F3 33
767.8
00 00 00 00
0
43 53 33 33
211.2
43 40 CC CD
192.8
42 07 33 33
33.8
41 C1 99 9A
24.2
00 00 00 00
0
43 06 99 9A
134.6
45 53 13 33
3377.2
00 00 00 00
0
00 00 00 00
0
00 00 00 00
0
00 00 00 00
0
00 00 00 00
0
00 00 00 00
0
00 00 00 00
0
00 00 00 00
0
00 00 00 00
0
00 00 00 00
0
00 00 00 00
0
00 00 00 00
0
00 00 00 00
0
00 00 00 00
0
00 00 00 00
0
00 00 00 00
0
00 00 00 00
0
00 00 00 00
0
00 00 00 00
0
00 06 66 0A
419338
00 00 00 00
0
00 01 E2 95
123541
00 00 4F 45
20293
233.116232.728233.018403.394403.308403.6546.7214.444.2128026008804760520803209201560336096048400.8090.7750.8980.98150.003246622214432610.802168000002009.6604.21172.60232.878.474.20675488.41582.61874.202031.6000001564.6585.6767.80211.2192.833.824.20134.63377.200000000000000000004320171123134955419.3380123.54120.293insert into tbl_power_info_v2(P_A_DIANYA,P_B_DIANYA,P_C_DIANYA,P_UAB_XIANDIANYA,P_UBC_XIANDIANYA,P_UCA_XIANDIANYA,P_A_DIANLIU,P_B_DIANLIU,P_C_DIANLIU,P_A_YGGL,P_B_YGGL,P_C_YGGL,P_HXYGGL,P_A_WGGL,P_B_WGGL,P_C_WGGL,P_HXWGGL,P_A_SZGL,P_B_SZGL,P_C_SZGL,P_HXSZGL,P_A_GLYS,P_B_GLYS,P_C_GLYS,P_HXGLYS,P_DWPL,P_BY_KwhZ,P_BY_KwhJ,P_BY_KwhF,P_BY_KwhP,P_BY_KwhG,P_BY_HKwhZ,P_BY_HKwhJ,P_BY_HKwhF,P_BY_HKwhP,P_BY_HKwhG, P_BY_KvarhZ,P_BY_KvarhJ,P_BY_KvarhF,P_BY_KvarhP,P_BY_KvarhG, P_BY_HKvarhZ,P_BY_HKvarhJ,P_BY_HKvarhF,P_BY_HKvarhP,P_BY_HKvarhG, P_SY_KwhZ,P_SY_KwhJ,P_SY_KwhF,P_SY_KwhP,P_SY_KwhG, P_SY_HKwhZ,P_SY_HKwhJ,P_SY_HKwhF,P_SY_HKwhP,P_SY_HKwhG, P_SY_KvarhZ,P_SY_KvarhJ,P_SY_KvarhF,P_SY_KvarhP,P_SY_KvarhG, P_SY_HKvarhZ,P_SY_HKvarhJ,P_SY_HKvarhF,P_SY_HKvarhP,P_SY_HKvarhG, P_SSY_KwhZ,P_SSY_KwhJ,P_SSY_KwhF,P_SSY_KwhP,P_SSY_KwhG, P_SSY_HKwhZ,P_SSY_HKwhJ,P_SSY_HKwhF,P_SSY_HKwhP,P_SSY_HKwhG, P_SSY_KvarhZ,P_SSY_KvarhJ,P_SSY_KvarhF,P_SSY_KvarhP,P_SSY_KvarhG, P_SSY_HKvarhZ,P_SSY_HKvarhJ,P_SSY_HKvarhF,P_SSY_HKvarhP,P_SSY_HKvarhG,P_CODE,P_TIME,P_ZXYGDN,P_FXYGDN,P_ZXWGDN,P_FXWGDN)values(233.116,232.728,233.018,403.394,403.308,403.654,6.72,14.44,4.2,1280,2600,880,4760,520,80,320,920,1560,3360,960,4840,0.809,0.775,0.898,0.981,50.003246,6222,1443,2610.8,0,2168,0,0,0,0,0,2009.6,604.2,1172.6,0,232.8,78.4,7,4.2,0,67,5488.4,1582.6,1874.2,0,2031.6,0,0,0,0,0,1564.6,585.6,767.8,0,211.2,192.8,33.8,24.2,0,134.6,3377.2,0,0,0,0,0,0,0,0,0,0,0,0,0,0,0,0,0,0,0,43,20171123134955,419.338,0,123.541,20.293)
写入成功读取完毕一个
write:2C 03 00 38 00 34 C3 AD
2C 03 68
4443 68 48 B4 43 68 1D 71 43 68 1A A0 43 C9 0C 29 43 C9 01 27 43 C9 0C 29 40 6B 85 1F 40 E7 AE 14 3F BD 70 A4 44 2A 00 00 44 9B 00 00 43 70 00 00 45 09 80 00 42 F0 00 00 44 70 00 00 00 00 00 00 44 48 00 00 44 52 00 00 44 D2 00 00 43 B4 00 00 45 11 00 00 3F 4E D9 17 3F 3F 3B 64 3F 32 6E 98 3F 70 A3 D7 42 48 FF C0
write:2C 03 07 CF 00 78 72 DE
2C 03 F0
4445 33 26 66 44 09 B3 33 44 ED 06 66 00 00 00 00 43 D1 80 00 00 00 00 00 00 00 00 00 00 00 00 00 00 00 00 00 00 00 00 00 44 B1 06 66 43 8F CC CD 44 70 33 33 00 00 00 00 43 27 66 66 42 7A 66 66 41 46 66 66 42 0F 33 33 00 00 00 00 41 63 33 33 45 5D 1C CD 44 48 F3 33 45 05 66 66 00 00 00 00 44 15 E6 66 00 00 00 00 00 00 00 00 00 00 00 00 00 00 00 00 00 00 00 00 44 8B 99 9A 43 18 00 00 44 48 D9 9A 00 00 00 00 43 21 33 33 43 27 99 9A 42 5C 00 00 42 98 66 66 00 00 00 00 42 10 00 00 45 29 09 9A 44 2A 99 9A 44 BC F9 9A 00 00 00 00 43 FF 19 9A 00 00 00 00 00 00 00 00 00 00 00 00 00 00 00 00 00 00 00 00 43 B2 19 9A 42 69 99 9A 43 6E 33 33 00 00 00 00 42 6D 99 9A 43 51 99 9A 42 63 33 33 42 DC CC CD 00 00 00 00 00 00 00 00
00 42 28
heart:00 42 28 51 D4
write:2C 03 01 0F 00 08 73 8E
2C 03 10
4400 04 D8 63 00 00 00 00 00 01 49 20 00 00 B7 C5
43 68 48 B4
232.284
43 68 1D 71
232.115
43 68 1A A0
232.104
43 C9 0C 29
402.095
43 C9 01 27
402.009
43 C9 0C 29
402.095
40 6B 85 1F
3.68
40 E7 AE 14
7.24
3F BD 70 A4
1.48
44 2A 00 00
680
44 9B 00 00
1240
43 70 00 00
240
45 09 80 00
2200
42 F0 00 00
120
44 70 00 00
960
00 00 00 00
0
44 48 00 00
800
44 52 00 00
840
44 D2 00 00
1680
43 B4 00 00
360
45 11 00 00
2320
3F 4E D9 17
0.808
3F 3F 3B 64
0.747
3F 32 6E 98
0.697
3F 70 A3 D7
0.94
42 48 FF C0
50.249756
45 33 26 66
2866.4
44 09 B3 33
550.8
44 ED 06 66
1896.2
00 00 00 00
0
43 D1 80 00
419
00 00 00 00
0
00 00 00 00
0
00 00 00 00
0
00 00 00 00
0
00 00 00 00
0
44 B1 06 66
1416.2
43 8F CC CD
287.6
44 70 33 33
960.8
00 00 00 00
0
43 27 66 66
167.4
42 7A 66 66
62.6
41 46 66 66
12.4
42 0F 33 33
35.8
00 00 00 00
0
41 63 33 33
14.2
45 5D 1C CD
3537.8
44 48 F3 33
803.8
45 05 66 66
2134.4
00 00 00 00
0
44 15 E6 66
599.6
00 00 00 00
0
00 00 00 00
0
00 00 00 00
0
00 00 00 00
0
00 00 00 00
0
44 8B 99 9A
1116.8
43 18 00 00
152
44 48 D9 9A
803.4
00 00 00 00
0
43 21 33 33
161.2
43 27 99 9A
167.6
42 5C 00 00
55
42 98 66 66
76.2
00 00 00 00
0
42 10 00 00
36
45 29 09 9A
2704.6
44 2A 99 9A
682.4
44 BC F9 9A
1511.8
00 00 00 00
0
43 FF 19 9A
510.2
00 00 00 00
0
00 00 00 00
0
00 00 00 00
0
00 00 00 00
0
00 00 00 00
0
43 B2 19 9A
356.2
42 69 99 9A
58.4
43 6E 33 33
238.2
00 00 00 00
0
42 6D 99 9A
59.4
43 51 99 9A
209.6
42 63 33 33
56.8
42 DC CC CD
110.4
00 00 00 00
0
00 00 00 00
0
00 04 D8 63
317539
00 00 00 00
0
00 01 49 20
84256
00 00 B7 C5
47045
232.284232.115232.104402.095402.009402.0953.687.241.48680124024022001209600800840168036023200.8080.7470.6970.9450.2497562866.4550.81896.20419000001416.2287.6960.80167.462.612.435.8014.23537.8803.82134.40599.6000001116.8152803.40161.2167.65576.20362704.6682.41511.80510.200000356.258.4238.2059.4209.656.8110.4004420171123135105317.539084.25647.045insert into tbl_power_info_v2(P_A_DIANYA,P_B_DIANYA,P_C_DIANYA,P_UAB_XIANDIANYA,P_UBC_XIANDIANYA,P_UCA_XIANDIANYA,P_A_DIANLIU,P_B_DIANLIU,P_C_DIANLIU,P_A_YGGL,P_B_YGGL,P_C_YGGL,P_HXYGGL,P_A_WGGL,P_B_WGGL,P_C_WGGL,P_HXWGGL,P_A_SZGL,P_B_SZGL,P_C_SZGL,P_HXSZGL,P_A_GLYS,P_B_GLYS,P_C_GLYS,P_HXGLYS,P_DWPL,P_BY_KwhZ,P_BY_KwhJ,P_BY_KwhF,P_BY_KwhP,P_BY_KwhG,P_BY_HKwhZ,P_BY_HKwhJ,P_BY_HKwhF,P_BY_HKwhP,P_BY_HKwhG, P_BY_KvarhZ,P_BY_KvarhJ,P_BY_KvarhF,P_BY_KvarhP,P_BY_KvarhG, P_BY_HKvarhZ,P_BY_HKvarhJ,P_BY_HKvarhF,P_BY_HKvarhP,P_BY_HKvarhG, P_SY_KwhZ,P_SY_KwhJ,P_SY_KwhF,P_SY_KwhP,P_SY_KwhG, P_SY_HKwhZ,P_SY_HKwhJ,P_SY_HKwhF,P_SY_HKwhP,P_SY_HKwhG, P_SY_KvarhZ,P_SY_KvarhJ,P_SY_KvarhF,P_SY_KvarhP,P_SY_KvarhG, P_SY_HKvarhZ,P_SY_HKvarhJ,P_SY_HKvarhF,P_SY_HKvarhP,P_SY_HKvarhG, P_SSY_KwhZ,P_SSY_KwhJ,P_SSY_KwhF,P_SSY_KwhP,P_SSY_KwhG, P_SSY_HKwhZ,P_SSY_HKwhJ,P_SSY_HKwhF,P_SSY_HKwhP,P_SSY_HKwhG, P_SSY_KvarhZ,P_SSY_KvarhJ,P_SSY_KvarhF,P_SSY_KvarhP,P_SSY_KvarhG, P_SSY_HKvarhZ,P_SSY_HKvarhJ,P_SSY_HKvarhF,P_SSY_HKvarhP,P_SSY_HKvarhG,P_CODE,P_TIME,P_ZXYGDN,P_FXYGDN,P_ZXWGDN,P_FXWGDN)values(232.284,232.115,232.104,402.095,402.009,402.095,3.68,7.24,1.48,680,1240,240,2200,120,960,0,800,840,1680,360,2320,0.808,0.747,0.697,0.94,50.249756,2866.4,550.8,1896.2,0,419,0,0,0,0,0,1416.2,287.6,960.8,0,167.4,62.6,12.4,35.8,0,14.2,3537.8,803.8,2134.4,0,599.6,0,0,0,0,0,1116.8,152,803.4,0,161.2,167.6,55,76.2,0,36,2704.6,682.4,1511.8,0,510.2,0,0,0,0,0,356.2,58.4,238.2,0,59.4,209.6,56.8,110.4,0,0,44,20171123135105,317.539,0,84.256,47.045)
写入成功读取完毕一个
write:2D 03 00 38 00 34 C2 7C
2D 03 68
4543 68 0F DF 43 68 00 42 43 68 07 F0 43 C8 EA E1 43 C8 EA E1 43 C8 EA E1 41 92 8F 5C 40 BE B8 52 41 8B 33 33 45 6B 00 00 44 7A 00 00 45 2F 00 00 45 EC 40 00 43 B4 00 00 43 8C 00 00 43 A0 00 00 44 70 00 00 45 84 80 00 44 AA 00 00 45 7C 80 00 45 ED 80 00 3F 61 06 25 3F 3C 6A 7F 3F 31 26 E9 3F 7D F3 B6 42 48 79 48
write:2D 03 07 CF 00 78 73 0F
2D 03 F0
4545 4C 13 33 43 E8 66 66 45 0C 83 33 00 00 00 00 44 0A 00 00 00 00 00 00 00 00 00 00 00 00 00 00 00 00 00 00 00 00 00 00 40 F9 99 9A 3F 19 99 9A 40 D3 33 33 00 00 00 00 3E 4C CC CD 44 4E C0 00 43 0A 99 9A 43 BB 33 33 00 00 00 00 43 9D 00 00 45 59 E9 9A 44 17 99 9A 45 0A CC CD 00 00 00 00 44 24 CC CD 00 00 00 00 00 00 00 00 00 00 00 00 00 00 00 00 00 00 00 00 3F B3 33 33 3E 4C CC CD 3F 80 00 00 00 00 00 00 00 00 00 00 44 A2 A6 00 00 00 00 00 00 00 00 00 00 00 00 00 00 00 00 00 00 00 00 00 00 00 00 00 00 00 00 00 00 00 00 00 00 00 00 00 00 00 00 00 00 00 00 00 00 00 00 00 00 00 00 00 00 00 00 00 00 00 00 00 00 00 00 00 00 00 00 00 00 00 00 00 00 00 00 00 00 00 00 00 00 00 00 00 00 00 00 00 00 00 00 00 00 00 00 00
66 43 6C
heart:66 43 6C CC CD 44 1D F3 33 00 00 00 00 43 D8 33 33 45 38 96 66 43 C5 00 00 44 F1 8C CD 00 00 00 00 44 1C B3 33 00 00 00 00 00 00 00 00 00 00 00 00 00 00 00 00 00 00 00 00 3E CC CC CD 00 00 00 00 3E 4C CC CD 00 00 00 00 00 00 00 00 44 8E C0 00 43 45 66 66 44 05 E6 66 00 00 00 00 43 CC 11 E1
write:2D 03 01 0F 00 08 72 5F
2D 03 10
4500 10 58 99 00 00 00 00 00 00 27 73 00 03 0B B0
43 68 0F DF
232.062
43 68 00 42
232.001
43 68 07 F0
232.031
43 C8 EA E1
401.835
43 C8 EA E1
401.835
43 C8 EA E1
401.835
41 92 8F 5C
18.32
40 BE B8 52
5.96
41 8B 33 33
17.4
45 6B 00 00
3760
44 7A 00 00
1000
45 2F 00 00
2800
45 EC 40 00
7560
43 B4 00 00
360
43 8C 00 00
280
43 A0 00 00
320
44 70 00 00
960
45 84 80 00
4240
44 AA 00 00
1360
45 7C 80 00
4040
45 ED 80 00
7600
3F 61 06 25
0.879
3F 3C 6A 7F
0.736
3F 31 26 E9
0.692
3F 7D F3 B6
0.992
42 48 79 48
50.11844
45 4C 13 33
3265.2
43 E8 66 66
464.8
45 0C 83 33
2248.2
00 00 00 00
0
44 0A 00 00
552
00 00 00 00
0
00 00 00 00
0
00 00 00 00
0
00 00 00 00
0
00 00 00 00
0
40 F9 99 9A
7.8
3F 19 99 9A
0.6
40 D3 33 33
6.6
00 00 00 00
0
3E 4C CC CD
0.2
44 4E C0 00
827
43 0A 99 9A
138.6
43 BB 33 33
374.4
00 00 00 00
0
43 9D 00 00
314
45 59 E9 9A
3486.6
44 17 99 9A
606.4
45 0A CC CD
2220.8
00 00 00 00
0
44 24 CC CD
659.2
00 00 00 00
0
00 00 00 00
0
00 00 00 00
0
00 00 00 00
0
00 00 00 00
0
3F B3 33 33
1.4
3E 4C CC CD
0.2
3F 80 00 00
1
00 00 00 00
0
00 00 00 00
0
44 A2 A6 00
1301.1875
00 00 00 00
0
00 00 00 00
0
00 00 00 00
0
00 00 00 00
0
00 00 00 00
0
00 00 00 00
0
00 00 00 00
0
00 00 00 00
0
00 00 00 00
0
00 00 00 00
0
00 00 00 00
0
00 00 00 00
0
00 00 00 00
0
00 00 00 00
0
00 00 00 00
0
00 00 00 00
0
00 00 00 00
0
00 00 00 00
0
00 00 00 00
0
00 00 00 00
0
00 00 00 00
0
00 00 00 00
0
00 00 00 00
0
00 00 00 00
0
00 10 58 99
1071257
00 00 00 00
0
00 00 27 73
10099
00 03 0B B0
199600
232.062232.001232.031401.835401.835401.83518.325.9617.4376010002800756036028032096042401360404076000.8790.7360.6920.99250.118443265.2464.82248.20552000007.80.66.600.2827138.6374.403143486.6606.42220.80659.2000001.40.21001301.187500000000000000000000000045201711231352151071.257010.099199.6insert into tbl_power_info_v2(P_A_DIANYA,P_B_DIANYA,P_C_DIANYA,P_UAB_XIANDIANYA,P_UBC_XIANDIANYA,P_UCA_XIANDIANYA,P_A_DIANLIU,P_B_DIANLIU,P_C_DIANLIU,P_A_YGGL,P_B_YGGL,P_C_YGGL,P_HXYGGL,P_A_WGGL,P_B_WGGL,P_C_WGGL,P_HXWGGL,P_A_SZGL,P_B_SZGL,P_C_SZGL,P_HXSZGL,P_A_GLYS,P_B_GLYS,P_C_GLYS,P_HXGLYS,P_DWPL,P_BY_KwhZ,P_BY_KwhJ,P_BY_KwhF,P_BY_KwhP,P_BY_KwhG,P_BY_HKwhZ,P_BY_HKwhJ,P_BY_HKwhF,P_BY_HKwhP,P_BY_HKwhG, P_BY_KvarhZ,P_BY_KvarhJ,P_BY_KvarhF,P_BY_KvarhP,P_BY_KvarhG, P_BY_HKvarhZ,P_BY_HKvarhJ,P_BY_HKvarhF,P_BY_HKvarhP,P_BY_HKvarhG, P_SY_KwhZ,P_SY_KwhJ,P_SY_KwhF,P_SY_KwhP,P_SY_KwhG, P_SY_HKwhZ,P_SY_HKwhJ,P_SY_HKwhF,P_SY_HKwhP,P_SY_HKwhG, P_SY_KvarhZ,P_SY_KvarhJ,P_SY_KvarhF,P_SY_KvarhP,P_SY_KvarhG, P_SY_HKvarhZ,P_SY_HKvarhJ,P_SY_HKvarhF,P_SY_HKvarhP,P_SY_HKvarhG, P_SSY_KwhZ,P_SSY_KwhJ,P_SSY_KwhF,P_SSY_KwhP,P_SSY_KwhG, P_SSY_HKwhZ,P_SSY_HKwhJ,P_SSY_HKwhF,P_SSY_HKwhP,P_SSY_HKwhG, P_SSY_KvarhZ,P_SSY_KvarhJ,P_SSY_KvarhF,P_SSY_KvarhP,P_SSY_KvarhG, P_SSY_HKvarhZ,P_SSY_HKvarhJ,P_SSY_HKvarhF,P_SSY_HKvarhP,P_SSY_HKvarhG,P_CODE,P_TIME,P_ZXYGDN,P_FXYGDN,P_ZXWGDN,P_FXWGDN)values(232.062,232.001,232.031,401.835,401.835,401.835,18.32,5.96,17.4,3760,1000,2800,7560,360,280,320,960,4240,1360,4040,7600,0.879,0.736,0.692,0.992,50.11844,3265.2,464.8,2248.2,0,552,0,0,0,0,0,7.8,0.6,6.6,0,0.2,827,138.6,374.4,0,314,3486.6,606.4,2220.8,0,659.2,0,0,0,0,0,1.4,0.2,1,0,0,1301.1875,0,0,0,0,0,0,0,0,0,0,0,0,0,0,0,0,0,0,0,0,0,0,0,0,45,20171123135215,1071.257,0,10.099,199.6)
写入成功读取完毕一个
write:2E 03 00 38 00 34 C2 4F
2E 03 68
4643 68 0E 14 43 67 E3 96 43 68 2E 56 43 C8 D4 BC 43 C8 DF DF 43 C8 F6 04 42 92 CC CD 42 40 00 00 42 5D C2 8F 46 82 50 00 46 2B E0 00 46 43 00 00 47 1C E0 00 44 8C 00 00 44 D7 00 00 45 3B 80 00 43 20 00 00 46 85 20 00 46 2D C0 00 46 49 40 00 47 1C E0 00 3F 7A 5E 35 3F 7C ED 91 3F 77 CE D9 3F 80 00 00 42 48 B8 11
write:2E 03 07 CF 00 78 73 3C
2E 03 F0
4645 8C AE 66 44 42 0C CD 45 39 03 33 00 00 00 00 44 3F 4C CD 00 00 00 00 00 00 00 00 00 00 00 00 00 00 00 00 00 00 00 00 40 4C CC CD 3E 4C CC CD 40 0C CC CD 00 00 00 00 3F 19 99 9A 44 2A CC CD 42 E4 CC CD 43 9D 00 00 00 00 00 00 43 7E 99 9A 46 38 B4 CD 45 18 13 33 45 F1 63 33 00 00 00 00 44 CF EC CD 00 00 00 00 00 00 00 00 00 00 00 00 00 00 00 00 00 00 00 00 40 40 00 00 00 00 00 00 40 26 66 66 00 00 00 00 3E 4C CC CD 44 6D 4C CD 43 24 33 33 43 DE B3 33 00 00 00 00 00 00 00 00 00 00 00 00 00 00 00 00 00 00 00 00 00 00 00 00 00 00 00 00 00 00 00 00 00 00 00 00 00 00 00 00 00 00 00 00 00 00 00 00 00 00 00 00 00 00 00 00 00 00 00 00 00 00 00 00 00 00 00 00 00 00 00 00 00 00 00 00 00 00 00 00 00 00 00 00 00 00 00 00
43 A9 CC
heart:43 A9 CC CD 46 61 63 33 45 17 7C CD 46 1D 2A 66 00 00 00 00 44 F2 C0 00 00 00 00 00 00 00 00 00 00 00 00 00 00 00 00 00 00 00 00 00 42 1E 66 66 40 AC CC CD 41 F0 00 00 00 00 00 00 40 80 00 00 44 24 26 66 42 CA CC CD 43 93 99 9A 00 00 00 00 43 82 CA A9
write:2E 03 01 0F 00 08 72 6C
2E 03 10
4600 25 DC 3F 00 00 00 00 00 00 31 6E 00 02 B8 B4
43 68 0E 14
232.055
43 67 E3 96
231.889
43 68 2E 56
232.181
43 C8 D4 BC
401.662
43 C8 DF DF
401.749
43 C8 F6 04
401.922
42 92 CC CD
73.4
42 40 00 00
48
42 5D C2 8F
55.44
46 82 50 00
16680
46 2B E0 00
11000
46 43 00 00
12480
47 1C E0 00
40160
44 8C 00 00
1120
44 D7 00 00
1720
45 3B 80 00
3000
43 20 00 00
160
46 85 20 00
17040
46 2D C0 00
11120
46 49 40 00
12880
47 1C E0 00
40160
3F 7A 5E 35
0.978
3F 7C ED 91
0.988
3F 77 CE D9
0.968
3F 80 00 00
1
42 48 B8 11
50.179752
45 8C AE 66
4501.8
44 42 0C CD
776.2
45 39 03 33
2960.2
00 00 00 00
0
44 3F 4C CD
765.2
00 00 00 00
0
00 00 00 00
0
00 00 00 00
0
00 00 00 00
0
00 00 00 00
0
40 4C CC CD
3.2
3E 4C CC CD
0.2
40 0C CC CD
2.2
00 00 00 00
0
3F 19 99 9A
0.6
44 2A CC CD
683.2
42 E4 CC CD
114.4
43 9D 00 00
314
00 00 00 00
0
43 7E 99 9A
254.6
46 38 B4 CD
11821.2
45 18 13 33
2433.2
45 F1 63 33
7724.4
00 00 00 00
0
44 CF EC CD
1663.4
00 00 00 00
0
00 00 00 00
0
00 00 00 00
0
00 00 00 00
0
00 00 00 00
0
40 40 00 00
3
00 00 00 00
0
40 26 66 66
2.6
00 00 00 00
0
3E 4C CC CD
0.2
44 6D 4C CD
949.2
43 24 33 33
164.2
43 DE B3 33
445.4
00 00 00 00
0
00 00 00 00
0
00 00 00 00
0
00 00 00 00
0
00 00 00 00
0
00 00 00 00
0
00 00 00 00
0
00 00 00 00
0
00 00 00 00
0
00 00 00 00
0
00 00 00 00
0
00 00 00 00
0
00 00 00 00
0
00 00 00 00
0
00 00 00 00
0
00 00 00 00
0
00 00 00 00
0
00 00 00 00
0
00 00 00 00
0
00 00 00 00
0
00 00 00 00
0
00 00 00 00
0
00 25 DC 3F
2481215
00 00 00 00
0
00 00 31 6E
12654
00 02 B8 B4
178356
232.055231.889232.181401.662401.749401.92273.44855.4416680110001248040160112017203000160170401112012880401600.9780.9880.968150.1797524501.8776.22960.20765.2000003.20.22.200.6683.2114.43140254.611821.22433.27724.401663.400000302.600.2949.2164.2445.4000000000000000000000046201711231353222481.215012.654178.356insert into tbl_power_info_v2(P_A_DIANYA,P_B_DIANYA,P_C_DIANYA,P_UAB_XIANDIANYA,P_UBC_XIANDIANYA,P_UCA_XIANDIANYA,P_A_DIANLIU,P_B_DIANLIU,P_C_DIANLIU,P_A_YGGL,P_B_YGGL,P_C_YGGL,P_HXYGGL,P_A_WGGL,P_B_WGGL,P_C_WGGL,P_HXWGGL,P_A_SZGL,P_B_SZGL,P_C_SZGL,P_HXSZGL,P_A_GLYS,P_B_GLYS,P_C_GLYS,P_HXGLYS,P_DWPL,P_BY_KwhZ,P_BY_KwhJ,P_BY_KwhF,P_BY_KwhP,P_BY_KwhG,P_BY_HKwhZ,P_BY_HKwhJ,P_BY_HKwhF,P_BY_HKwhP,P_BY_HKwhG, P_BY_KvarhZ,P_BY_KvarhJ,P_BY_KvarhF,P_BY_KvarhP,P_BY_KvarhG, P_BY_HKvarhZ,P_BY_HKvarhJ,P_BY_HKvarhF,P_BY_HKvarhP,P_BY_HKvarhG, P_SY_KwhZ,P_SY_KwhJ,P_SY_KwhF,P_SY_KwhP,P_SY_KwhG, P_SY_HKwhZ,P_SY_HKwhJ,P_SY_HKwhF,P_SY_HKwhP,P_SY_HKwhG, P_SY_KvarhZ,P_SY_KvarhJ,P_SY_KvarhF,P_SY_KvarhP,P_SY_KvarhG, P_SY_HKvarhZ,P_SY_HKvarhJ,P_SY_HKvarhF,P_SY_HKvarhP,P_SY_HKvarhG, P_SSY_KwhZ,P_SSY_KwhJ,P_SSY_KwhF,P_SSY_KwhP,P_SSY_KwhG, P_SSY_HKwhZ,P_SSY_HKwhJ,P_SSY_HKwhF,P_SSY_HKwhP,P_SSY_HKwhG, P_SSY_KvarhZ,P_SSY_KvarhJ,P_SSY_KvarhF,P_SSY_KvarhP,P_SSY_KvarhG, P_SSY_HKvarhZ,P_SSY_HKvarhJ,P_SSY_HKvarhF,P_SSY_HKvarhP,P_SSY_HKvarhG,P_CODE,P_TIME,P_ZXYGDN,P_FXYGDN,P_ZXWGDN,P_FXWGDN)values(232.055,231.889,232.181,401.662,401.749,401.922,73.4,48,55.44,16680,11000,12480,40160,1120,1720,3000,160,17040,11120,12880,40160,0.978,0.988,0.968,1,50.179752,4501.8,776.2,2960.2,0,765.2,0,0,0,0,0,3.2,0.2,2.2,0,0.6,683.2,114.4,314,0,254.6,11821.2,2433.2,7724.4,0,1663.4,0,0,0,0,0,3,0,2.6,0,0.2,949.2,164.2,445.4,0,0,0,0,0,0,0,0,0,0,0,0,0,0,0,0,0,0,0,0,0,0,46,20171123135322,2481.215,0,12.654,178.356)
写入成功读取完毕一个
write:2F 03 00 38 00 34 C3 9E
2F 03 68
4743 68 2A 3D 43 68 15 C3 43 68 15 81 43 C8 F6 04 43 C8 EA E1 43 C8 F6 04 00 00 00 00 00 00 00 00 3E E6 66 66 00 00 00 00 00 00 00 00 42 70 00 00 42 70 00 00 00 00 00 00 00 00 00 00 42 70 00 00 42 70 00 00 00 00 00 00 00 00 00 00 42 F0 00 00 42 B4 00 00 00 00 00 00 00 00 00 00 3F 0B 85 1F 3F 41 CA C1 42 48 25 84
write:2F 03 07 CF 00 78 72 ED
2F 03 F0
4744 B3 0B 33 40 49 99 9A 44 92 28 00 00 00 00 00 43 81 E6 66 00 00 00 00 00 00 00 00 00 00 00 00 00 00 00 00 00 00 00 00 42 D2 4C CD 00 00 00 00 42 C1 80 00 00 00 00 00 41 04 00 00 41 01 99 9A 3F 19 99 9A 40 BB 33 33 00 00 00 00 3F C0 00 00 44 D7 83 33 40 53 33 33 44 A5 2B 33 00 00 00 00 43 C7 A6 66 00 00 00 00 00 00 00 00 00 00 00 00 00 00 00 00 00 00 00 00 00 00 00 00 00 00 00 00 00 00 00 00 00 00 00 00 00 00 00 00 00 00 00 00 00 00 00 00 00 00 00 00 00 00 00 00 00 00 00 00 00 00 00 00 00 00 00 00 00 00 00 00 00 00 00 00 00 00 00 00 00 00 00 00 00 00 00 00 00 00 00 00 00 00 00 00 00 00 00 00 00 00 00 00 00 00 00 00 00 00 00 00 00 00 00 00 00 00 00 00 00 00 00 00 00 00 00 00 00 00 00 00 00 00 00 00 00 00 00 00
00 00 00
heart:00 00 00 00 00 00 00 00 00 00 00 00 41 CD 33 33 00 00 00 00 41 B6 66 66 00 00 00 00 40 36 66 66 41 23 33 33 3F 66 66 66 40 E1 99 9A 00 00 00 00 40 06 66 66 44 FF 48 00 3F 86 66 66 44 CF 34 CD 00 00 00 00 43 BF B3 33 00 00 00 00 00 00 00 00 00 00 00 00 00 00 00 00 00 00 00 00 42 52 99 9A 00 00 00 00 42 3A 99 9A 00 00 00 00 40 BB 33 33 41 23 33 33 3E E6 66 66 40 DC CC CD 00 00 00 00 40 2C E1 1E
write:2F 03 01 0F 00 08 73 BD
2F 03 10
4700 04 74 77 00 00 00 00 00 00 25 A9 00 00 D0 DA
43 68 2A 3D
232.165
43 68 15 C3
232.085
43 68 15 81
232.084
43 C8 F6 04
401.922
43 C8 EA E1
401.835
43 C8 F6 04
401.922
00 00 00 00
0
00 00 00 00
0
3E E6 66 66
0.45
00 00 00 00
0
00 00 00 00
0
42 70 00 00
60
42 70 00 00
60
00 00 00 00
0
00 00 00 00
0
42 70 00 00
60
42 70 00 00
60
00 00 00 00
0
00 00 00 00
0
42 F0 00 00
120
42 B4 00 00
90
00 00 00 00
0
00 00 00 00
0
3F 0B 85 1F
0.545
3F 41 CA C1
0.757
42 48 25 84
50.036636
44 B3 0B 33
1432.35
40 49 99 9A
3.15
44 92 28 00
1169.25
00 00 00 00
0
43 81 E6 66
259.8
00 00 00 00
0
00 00 00 00
0
00 00 00 00
0
00 00 00 00
0
00 00 00 00
0
42 D2 4C CD
105.15
00 00 00 00
0
42 C1 80 00
96.75
00 00 00 00
0
41 04 00 00
8.25
41 01 99 9A
8.1
3F 19 99 9A
0.6
40 BB 33 33
5.85
00 00 00 00
0
3F C0 00 00
1.5
44 D7 83 33
1724.1
40 53 33 33
3.3
44 A5 2B 33
1321.35
00 00 00 00
0
43 C7 A6 66
399.3
00 00 00 00
0
00 00 00 00
0
00 00 00 00
0
00 00 00 00
0
00 00 00 00
0
00 00 00 00
0
00 00 00 00
0
00 00 00 00
0
00 00 00 00
0
00 00 00 00
0
00 00 00 00
0
00 00 00 00
0
00 00 00 00
0
00 00 00 00
0
00 00 00 00
0
00 00 00 00
0
00 00 00 00
0
00 00 00 00
0
00 00 00 00
0
00 00 00 00
0
00 00 00 00
0
00 00 00 00
0
00 00 00 00
0
00 00 00 00
0
00 00 00 00
0
00 00 00 00
0
00 00 00 00
0
00 00 00 00
0
00 00 00 00
0
00 00 00 00
0
00 00 00 00
0
00 00 00 00
0
00 00 00 00
0
00 00 00 00
0
00 00 00 00
0
00 04 74 77
291959
00 00 00 00
0
00 00 25 A9
9641
00 00 D0 DA
53466
232.165232.085232.084401.922401.835401.922000.450060600060600012090000.5450.75750.0366361432.353.151169.250259.800000105.15096.7508.258.10.65.8501.51724.13.31321.350399.3000000000000000000000000000000000004720171123135436291.95909.64153.466insert into tbl_power_info_v2(P_A_DIANYA,P_B_DIANYA,P_C_DIANYA,P_UAB_XIANDIANYA,P_UBC_XIANDIANYA,P_UCA_XIANDIANYA,P_A_DIANLIU,P_B_DIANLIU,P_C_DIANLIU,P_A_YGGL,P_B_YGGL,P_C_YGGL,P_HXYGGL,P_A_WGGL,P_B_WGGL,P_C_WGGL,P_HXWGGL,P_A_SZGL,P_B_SZGL,P_C_SZGL,P_HXSZGL,P_A_GLYS,P_B_GLYS,P_C_GLYS,P_HXGLYS,P_DWPL,P_BY_KwhZ,P_BY_KwhJ,P_BY_KwhF,P_BY_KwhP,P_BY_KwhG,P_BY_HKwhZ,P_BY_HKwhJ,P_BY_HKwhF,P_BY_HKwhP,P_BY_HKwhG, P_BY_KvarhZ,P_BY_KvarhJ,P_BY_KvarhF,P_BY_KvarhP,P_BY_KvarhG, P_BY_HKvarhZ,P_BY_HKvarhJ,P_BY_HKvarhF,P_BY_HKvarhP,P_BY_HKvarhG, P_SY_KwhZ,P_SY_KwhJ,P_SY_KwhF,P_SY_KwhP,P_SY_KwhG, P_SY_HKwhZ,P_SY_HKwhJ,P_SY_HKwhF,P_SY_HKwhP,P_SY_HKwhG, P_SY_KvarhZ,P_SY_KvarhJ,P_SY_KvarhF,P_SY_KvarhP,P_SY_KvarhG, P_SY_HKvarhZ,P_SY_HKvarhJ,P_SY_HKvarhF,P_SY_HKvarhP,P_SY_HKvarhG, P_SSY_KwhZ,P_SSY_KwhJ,P_SSY_KwhF,P_SSY_KwhP,P_SSY_KwhG, P_SSY_HKwhZ,P_SSY_HKwhJ,P_SSY_HKwhF,P_SSY_HKwhP,P_SSY_HKwhG, P_SSY_KvarhZ,P_SSY_KvarhJ,P_SSY_KvarhF,P_SSY_KvarhP,P_SSY_KvarhG, P_SSY_HKvarhZ,P_SSY_HKvarhJ,P_SSY_HKvarhF,P_SSY_HKvarhP,P_SSY_HKvarhG,P_CODE,P_TIME,P_ZXYGDN,P_FXYGDN,P_ZXWGDN,P_FXWGDN)values(232.165,232.085,232.084,401.922,401.835,401.922,0,0,0.45,0,0,60,60,0,0,60,60,0,0,120,90,0,0,0.545,0.757,50.036636,1432.35,3.15,1169.25,0,259.8,0,0,0,0,0,105.15,0,96.75,0,8.25,8.1,0.6,5.85,0,1.5,1724.1,3.3,1321.35,0,399.3,0,0,0,0,0,0,0,0,0,0,0,0,0,0,0,0,0,0,0,0,0,0,0,0,0,0,0,0,0,0,0,0,0,0,0,47,20171123135436,291.959,0,9.641,53.466)
写入成功读取完毕一个
write:30 03 00 38 00 34 C1 F1
30 03 68
4843 68 96 87 43 68 78 93 43 68 6F DF 43 C9 4E B8 43 C9 43 96 43 C9 4E B8 00 00 00 00 00 00 00 00 00 00 00 00 00 00 00 00 00 00 00 00 00 00 00 00 00 00 00 00 00 00 00 00 00 00 00 00 00 00 00 00 00 00 00 00 00 00 00 00 00 00 00 00 00 00 00 00 00 00 00 00 00 00 00 00 00 00 00 00 00 00 00 00 00 00 00 00 42 48 B4 5F
write:30 03 07 CF 00 78 70 82
30 03 F0
4844 1E 40 00 41 C1 33 33 43 B3 66 66 00 00 00 00 43 00 00 00 00 00 00 00 00 00 00 00 00 00 00 00 00 00 00 00 00 00 00 00 00 00 00 00 00 00 00 00 00 00 00 00 00 00 00 00 00 00 00 00 00 00 00 00 00 00 00 00 00 00 00 00 00 00 00 00 00 00 00 00 00 00 00 00 00 00 00 00 00 00 00 00 00 00 00 00 00 00 00 00 00 00 00 00 00 00 00 00 00 00 00 00 00 00 00 00 00 00 00 00 00 00 00 00 00 00 00 00 00 00 00 00 00 00 00 00 00 00 00 00 00 00 00 00 00 00 00 00 00 00 00 00 00 00 00 00 00 00 00 00 00 00 00 00 00 00 00 00 00 00 00 00 00 00 00 00 00 00 00 00 00 00 00 00 00 00 00 00 00 00 00 00 00 00 00 00 00 00 00 00 00 00 00 00 00 00 00 00 00 00 00 00 00 00 00 00 00 00 00 00 00 00 00 00 00 00 00 00 00 00 00 00 00 00 00 00 00 00 00 00
79 E6 66
heart:79 E6 66 00 00 00 00 00 00 00 00 00 00 00 00 00 00 00 00 00 00 00 00 44 27 23 33 41 FA CC CD 43 B6 79 9A 00 00 00 00 43 88 20 00 40 10 00 00 00 00 00 00 3F 86 66 66 00 00 00 00 3F 86 66 66 44 9C F4 CD 42 90 4C CD 44 39 96 66 00 00 00 00 43 DC 93 33 00 00 00 00 00 00 00 00 00 00 00 00 00 00 00 00 00 00 00 00 44 A1 3B 33 42 B2 33 33 44 37 43 33 00 00 00 00 43 E9 C6 66 40 E1 99 9A 00 00 00 00 40 A3 33 33 00 00 00 00 3F F9 99 9A 43 56 59 9A 40 10 00 00 43 15 B3 33 00 00 00 00 42 79 00 00 00 00 00 00 00 00 00 00 00 00 00 00 00 00 00 00 00 00 00 00 43 24 66 66 40 53 33 33 42 DC CC CD 00 00 00 00 42 4A CC CD 40 8B 33 33 00 00 00 00 40 49 99 9A 00 00 00 00 3F 86 B6 3A
write:30 03 01 0F 00 08 71 D2
30 03 10
4800 01 13 82 00 00 00 00 00 01 15 74 00 00 8A 77
43 68 96 87
232.588
43 68 78 93
232.471
43 68 6F DF
232.437
43 C9 4E B8
402.615
43 C9 43 96
402.528
43 C9 4E B8
402.615
00 00 00 00
0
00 00 00 00
0
00 00 00 00
0
00 00 00 00
0
00 00 00 00
0
00 00 00 00
0
00 00 00 00
0
00 00 00 00
0
00 00 00 00
0
00 00 00 00
0
00 00 00 00
0
00 00 00 00
0
00 00 00 00
0
00 00 00 00
0
00 00 00 00
0
00 00 00 00
0
00 00 00 00
0
00 00 00 00
0
00 00 00 00
0
42 48 B4 5F
50.176144
44 1E 40 00
633
41 C1 33 33
24.15
43 B3 66 66
358.8
00 00 00 00
0
43 00 00 00
128
00 00 00 00
0
00 00 00 00
0
00 00 00 00
0
00 00 00 00
0
00 00 00 00
0
00 00 00 00
0
00 00 00 00
0
00 00 00 00
0
00 00 00 00
0
00 00 00 00
0
00 00 00 00
0
00 00 00 00
0
00 00 00 00
0
00 00 00 00
0
00 00 00 00
0
00 00 00 00
0
00 00 00 00
0
00 00 00 00
0
00 00 00 00
0
00 00 00 00
0
00 00 00 00
0
00 00 00 00
0
00 00 00 00
0
00 00 00 00
0
00 00 00 00
0
00 00 00 00
0
00 00 00 00
0
00 00 00 00
0
00 00 00 00
0
00 00 00 00
0
00 00 00 00
0
00 00 00 00
0
00 00 00 00
0
00 00 00 00
0
00 00 00 00
0
00 00 00 00
0
00 00 00 00
0
00 00 00 00
0
00 00 00 00
0
00 00 00 00
0
00 00 00 00
0
00 00 00 00
0
00 00 00 00
0
00 00 00 00
0
00 00 00 00
0
00 00 00 00
0
00 00 00 00
0
00 00 00 00
0
00 00 00 00
0
00 00 00 00
0
00 00 00 00
0
00 00 00 00
0
00 00 00 00
0
00 00 00 00
0
00 00 00 00
0
00 01 13 82
70530
00 00 00 00
0
00 01 15 74
71028
00 00 8A 77
35447
232.588232.471232.437402.615402.528402.615000000000000000000050.17614463324.15358.801280000000000000000000000000000000000000000000000000000000482017112313554170.53071.02835.447insert into tbl_power_info_v2(P_A_DIANYA,P_B_DIANYA,P_C_DIANYA,P_UAB_XIANDIANYA,P_UBC_XIANDIANYA,P_UCA_XIANDIANYA,P_A_DIANLIU,P_B_DIANLIU,P_C_DIANLIU,P_A_YGGL,P_B_YGGL,P_C_YGGL,P_HXYGGL,P_A_WGGL,P_B_WGGL,P_C_WGGL,P_HXWGGL,P_A_SZGL,P_B_SZGL,P_C_SZGL,P_HXSZGL,P_A_GLYS,P_B_GLYS,P_C_GLYS,P_HXGLYS,P_DWPL,P_BY_KwhZ,P_BY_KwhJ,P_BY_KwhF,P_BY_KwhP,P_BY_KwhG,P_BY_HKwhZ,P_BY_HKwhJ,P_BY_HKwhF,P_BY_HKwhP,P_BY_HKwhG, P_BY_KvarhZ,P_BY_KvarhJ,P_BY_KvarhF,P_BY_KvarhP,P_BY_KvarhG, P_BY_HKvarhZ,P_BY_HKvarhJ,P_BY_HKvarhF,P_BY_HKvarhP,P_BY_HKvarhG, P_SY_KwhZ,P_SY_KwhJ,P_SY_KwhF,P_SY_KwhP,P_SY_KwhG, P_SY_HKwhZ,P_SY_HKwhJ,P_SY_HKwhF,P_SY_HKwhP,P_SY_HKwhG, P_SY_KvarhZ,P_SY_KvarhJ,P_SY_KvarhF,P_SY_KvarhP,P_SY_KvarhG, P_SY_HKvarhZ,P_SY_HKvarhJ,P_SY_HKvarhF,P_SY_HKvarhP,P_SY_HKvarhG, P_SSY_KwhZ,P_SSY_KwhJ,P_SSY_KwhF,P_SSY_KwhP,P_SSY_KwhG, P_SSY_HKwhZ,P_SSY_HKwhJ,P_SSY_HKwhF,P_SSY_HKwhP,P_SSY_HKwhG, P_SSY_KvarhZ,P_SSY_KvarhJ,P_SSY_KvarhF,P_SSY_KvarhP,P_SSY_KvarhG, P_SSY_HKvarhZ,P_SSY_HKvarhJ,P_SSY_HKvarhF,P_SSY_HKvarhP,P_SSY_HKvarhG,P_CODE,P_TIME,P_ZXYGDN,P_FXYGDN,P_ZXWGDN,P_FXWGDN)values(232.588,232.471,232.437,402.615,402.528,402.615,0,0,0,0,0,0,0,0,0,0,0,0,0,0,0,0,0,0,0,50.176144,633,24.15,358.8,0,128,0,0,0,0,0,0,0,0,0,0,0,0,0,0,0,0,0,0,0,0,0,0,0,0,0,0,0,0,0,0,0,0,0,0,0,0,0,0,0,0,0,0,0,0,0,0,0,0,0,0,0,0,0,0,0,48,20171123135541,70.53,0,71.028,35.447)
写入成功读取完毕一个
write:31 03 00 38 00 34 C0 20
31 03 68
4943 67 E8 B4 43 67 A8 F6 43 67 F2 F2 43 C8 B3 75 43 C8 B3 75 43 C8 D4 BC 00 00 00 00 00 00 00 00 00 00 00 00 00 00 00 00 00 00 00 00 00 00 00 00 00 00 00 00 00 00 00 00 00 00 00 00 00 00 00 00 00 00 00 00 00 00 00 00 00 00 00 00 00 00 00 00 00 00 00 00 00 00 00 00 00 00 00 00 00 00 00 00 00 00 00 00 42 48 61 7F
write:31 03 07 CF 00 78 71 53
31 03 F0
4942 16 66 66 41 73 33 33 41 8B 33 33 00 00 00 00 40 A0 00 00 00 00 00 00 00 00 00 00 00 00 00 00 00 00 00 00 00 00 00 00 42 10 CC CD 41 A4 CC CD 41 76 66 66 00 00 00 00 00 00 00 00 3F B3 33 33 00 00 00 00 3F 80 00 00 00 00 00 00 3E CC CC CD 43 88 CC CD 42 1E 66 66 43 04 00 00 00 00 00 00 42 CB 99 9A 00 00 00 00 00 00 00 00 00 00 00 00 00 00 00 00 00 00 00 00 43 B2 33 33 42 68 CC CD 43 1E 33 33 00 00 00 00 43 0B 99 9A 40 00 00 00 00 00 00 00 00 00 00 00 00 00 00 00 00 00 00 00 00 00 00 00 00 00 00 00 00 00 00 00 00 00 00 00 00 00 00 00 00 00 00 00 00 00 00 00 00 00 00 00 00 00 00 00 00 00 00 00 00 00 00 00 00 00 00 00 00 00 00 00 00 00 00 00 00 00 00 00 00 00 00 00 00 00 00 00 00 00 00 00 00 00 00 00 00 00 00 00
0C CC CD
heart:0C CC CD 00 00 00 00 3F CC CC CD 00 00 00 00 3F 19 99 9A 42 9A CC CD 42 73 33 33 41 7C CC CD 00 00 00 00 3E CC CC CD 00 00 00 00 00 00 00 00 00 00 00 00 00 00 00 00 00 00 00 00 42 E3 33 33 42 B6 CC CD 41 B0 00 00 00 00 00 00 00 00 00 00 00 00 00 00 00 00 00 00 00 00 00 00 00 00 00 00 00 00 ED D7
write:31 03 01 0F 00 08 70 03
31 03 10
4900 00 30 C1 00 00 00 00 00 00 41 22 00 00 A7 D4
43 67 E8 B4
231.909
43 67 A8 F6
231.66
43 67 F2 F2
231.949
43 C8 B3 75
401.402
43 C8 B3 75
401.402
43 C8 D4 BC
401.662
00 00 00 00
0
00 00 00 00
0
00 00 00 00
0
00 00 00 00
0
00 00 00 00
0
00 00 00 00
0
00 00 00 00
0
00 00 00 00
0
00 00 00 00
0
00 00 00 00
0
00 00 00 00
0
00 00 00 00
0
00 00 00 00
0
00 00 00 00
0
00 00 00 00
0
00 00 00 00
0
00 00 00 00
0
00 00 00 00
0
00 00 00 00
0
42 48 61 7F
50.09521
42 16 66 66
37.6
41 73 33 33
15.2
41 8B 33 33
17.4
00 00 00 00
0
40 A0 00 00
5
00 00 00 00
0
00 00 00 00
0
00 00 00 00
0
00 00 00 00
0
00 00 00 00
0
42 10 CC CD
36.2
41 A4 CC CD
20.6
41 76 66 66
15.4
00 00 00 00
0
00 00 00 00
0
3F B3 33 33
1.4
00 00 00 00
0
3F 80 00 00
1
00 00 00 00
0
3E CC CC CD
0.4
43 88 CC CD
273.6
42 1E 66 66
39.6
43 04 00 00
132
00 00 00 00
0
42 CB 99 9A
101.8
00 00 00 00
0
00 00 00 00
0
00 00 00 00
0
00 00 00 00
0
00 00 00 00
0
43 B2 33 33
356.4
42 68 CC CD
58.2
43 1E 33 33
158.2
00 00 00 00
0
43 0B 99 9A
139.6
40 00 00 00
2
00 00 00 00
0
00 00 00 00
0
00 00 00 00
0
00 00 00 00
0
00 00 00 00
0
00 00 00 00
0
00 00 00 00
0
00 00 00 00
0
00 00 00 00
0
00 00 00 00
0
00 00 00 00
0
00 00 00 00
0
00 00 00 00
0
00 00 00 00
0
00 00 00 00
0
00 00 00 00
0
00 00 00 00
0
00 00 00 00
0
00 00 00 00
0
00 00 00 00
0
00 00 00 00
0
00 00 00 00
0
00 00 00 00
0
00 00 00 00
0
00 00 30 C1
12481
00 00 00 00
0
00 00 41 22
16674
00 00 A7 D4
42964
231.909231.66231.949401.402401.402401.662000000000000000000050.0952137.615.217.4050000036.220.615.4001.40100.4273.639.61320101.800000356.458.2158.20139.62000000000000000000000000492017112313564912.481016.67442.964insert into tbl_power_info_v2(P_A_DIANYA,P_B_DIANYA,P_C_DIANYA,P_UAB_XIANDIANYA,P_UBC_XIANDIANYA,P_UCA_XIANDIANYA,P_A_DIANLIU,P_B_DIANLIU,P_C_DIANLIU,P_A_YGGL,P_B_YGGL,P_C_YGGL,P_HXYGGL,P_A_WGGL,P_B_WGGL,P_C_WGGL,P_HXWGGL,P_A_SZGL,P_B_SZGL,P_C_SZGL,P_HXSZGL,P_A_GLYS,P_B_GLYS,P_C_GLYS,P_HXGLYS,P_DWPL,P_BY_KwhZ,P_BY_KwhJ,P_BY_KwhF,P_BY_KwhP,P_BY_KwhG,P_BY_HKwhZ,P_BY_HKwhJ,P_BY_HKwhF,P_BY_HKwhP,P_BY_HKwhG, P_BY_KvarhZ,P_BY_KvarhJ,P_BY_KvarhF,P_BY_KvarhP,P_BY_KvarhG, P_BY_HKvarhZ,P_BY_HKvarhJ,P_BY_HKvarhF,P_BY_HKvarhP,P_BY_HKvarhG, P_SY_KwhZ,P_SY_KwhJ,P_SY_KwhF,P_SY_KwhP,P_SY_KwhG, P_SY_HKwhZ,P_SY_HKwhJ,P_SY_HKwhF,P_SY_HKwhP,P_SY_HKwhG, P_SY_KvarhZ,P_SY_KvarhJ,P_SY_KvarhF,P_SY_KvarhP,P_SY_KvarhG, P_SY_HKvarhZ,P_SY_HKvarhJ,P_SY_HKvarhF,P_SY_HKvarhP,P_SY_HKvarhG, P_SSY_KwhZ,P_SSY_KwhJ,P_SSY_KwhF,P_SSY_KwhP,P_SSY_KwhG, P_SSY_HKwhZ,P_SSY_HKwhJ,P_SSY_HKwhF,P_SSY_HKwhP,P_SSY_HKwhG, P_SSY_KvarhZ,P_SSY_KvarhJ,P_SSY_KvarhF,P_SSY_KvarhP,P_SSY_KvarhG, P_SSY_HKvarhZ,P_SSY_HKvarhJ,P_SSY_HKvarhF,P_SSY_HKvarhP,P_SSY_HKvarhG,P_CODE,P_TIME,P_ZXYGDN,P_FXYGDN,P_ZXWGDN,P_FXWGDN)values(231.909,231.66,231.949,401.402,401.402,401.662,0,0,0,0,0,0,0,0,0,0,0,0,0,0,0,0,0,0,0,50.09521,37.6,15.2,17.4,0,5,0,0,0,0,0,36.2,20.6,15.4,0,0,1.4,0,1,0,0.4,273.6,39.6,132,0,101.8,0,0,0,0,0,356.4,58.2,158.2,0,139.6,2,0,0,0,0,0,0,0,0,0,0,0,0,0,0,0,0,0,0,0,0,0,0,0,0,49,20171123135649,12.481,0,16.674,42.964)
写入成功读取完毕一个
write:32 03 00 38 00 34 C0 13
32 03 68
5043 8A 65 E3 43 3E 38 10 43 74 CC 08 43 CB 53 96 43 BC CF 1B 43 E1 00 00 00 00 00 00 00 00 00 00 00 00 00 00 00 00 00 00 00 00 00 00 00 00 00 00 00 00 00 00 00 00 00 00 00 00 00 00 00 00 00 00 00 00 00 00 00 00 00 00 00 00 00 00 00 00 00 00 00 00 00 00 00 00 00 00 00 00 00 00 00 00 00 00 00 00 00 00 00 00 00 00
EA 1D 41
heart:EA 1D 41 11 EB 85 41 73 33 33 41 23 33 33 44 B9 00 00 45 0C 00 00 45 0C 00 00 45 BA 40 00 43 C8 00 00 44 87 00 00 43 48 00 00 44 9B 00 00 45 1D 80 00 45 34 00 00 45 1D 80 00 45 BE 00 00 3F 18 51 EC 3F 45 1E B8 3F 65 1E B8 3F 7A 9F BE 42 48 01 48
write:32 03 07 CF 00 78 71 60
32 03 F0
5045 19 F3 33 44 0D 99 9A 44 A7 13 33 00 00 00 00 44 0C 0C CD 00 00 00 00 00 00 00 00 00 00 00 00 00 00 00 00 00 00 00 00 00 00 00 00 00 00 00 00 00 00 00 00 00 00 00 00 00 00 00 00 44 20 4C CD 42 F4 66 66 43 9F CC CD 00 00 00 00 43 47 33 33 45 27 30 00 44 24 E6 66 44 AE 66 66 00 00 00 00 44 1B 00 00 00 00 00 00 00 00 00 00 00 00 00 00 00 00 00 00 00 00 00 00 00 00 00 00 00 00 00 00 00 00 00 00 00 00 00 00 00 00 00 00 00 00 00 00 00 00 00 00 00 00 00 00 00 00 00 00 00 00 00 00 00 00 00 00 00 00 00 00 00 00 00 00 00 00 00 00 00 00 00 00 00 00 00 00 00 00 00 00 00 00 00 00 00 00 00 00 00 00 00 00 00 00 00 00 00 00 00 00 00 00 00 00 00 00 00 00 00 00 00 00 00 00 00 00 00 00 00 00 00 00 00 00 00 00 00 00 00 00 00 00
00 44 51
heart:00 44 51 8C CD 43 29 66 66 43 CE 19 9A 00 00 00 00 43 80 4C CD 45 1C 83 33 44 0D B3 33 44 9C 99 9A 00 00 00 00 44 2B 19 9A 00 00 00 00 00 00 00 00 00 00 00 00 00 00 00 00 00 00 00 00 42 23 33 33 41 23 33 33 41 E4 CC CD 00 00 00 00 3F E6 66 66 44 3B 4C CD 43 11 CC CD 43 AE 33 33 00 00 00 00 43 7E BD F7
write:32 03 01 0F 00 08 70 30
32 03 10
5000 08 21 05 00 00 00 00 00 00 F0 57 00 01 DE F1
43 8A 65 E3
276.796
43 3E 38 10
190.219
43 74 CC 08
244.797
43 CB 53 96
406.653
43 BC CF 1B
377.618
43 E1 00 00
450
00 00 00 00
0
00 00 00 00
0
00 00 00 00
0
00 00 00 00
0
00 00 00 00
0
00 00 00 00
0
00 00 00 00
0
00 00 00 00
0
00 00 00 00
0
00 00 00 00
0
00 00 00 00
0
00 00 00 00
0
00 00 00 00
0
00 00 00 00
0
00 00 00 00
0
00 00 00 00
0
00 00 00 00
0
00 00 00 00
0
00 00 00 00
0
00 00 00 00
0
45 19 F3 33
2463.2
44 0D 99 9A
566.4
44 A7 13 33
1336.6
00 00 00 00
0
44 0C 0C CD
560.2
00 00 00 00
0
00 00 00 00
0
00 00 00 00
0
00 00 00 00
0
00 00 00 00
0
00 00 00 00
0
00 00 00 00
0
00 00 00 00
0
00 00 00 00
0
00 00 00 00
0
44 20 4C CD
641.2
42 F4 66 66
122.2
43 9F CC CD
319.6
00 00 00 00
0
43 47 33 33
199.2
45 27 30 00
2675
44 24 E6 66
659.6
44 AE 66 66
1395.2
00 00 00 00
0
44 1B 00 00
620
00 00 00 00
0
00 00 00 00
0
00 00 00 00
0
00 00 00 00
0
00 00 00 00
0
00 00 00 00
0
00 00 00 00
0
00 00 00 00
0
00 00 00 00
0
00 00 00 00
0
00 00 00 00
0
00 00 00 00
0
00 00 00 00
0
00 00 00 00
0
00 00 00 00
0
00 00 00 00
0
00 00 00 00
0
00 00 00 00
0
00 00 00 00
0
00 00 00 00
0
00 00 00 00
0
00 00 00 00
0
00 00 00 00
0
00 00 00 00
0
00 00 00 00
0
00 00 00 00
0
00 00 00 00
0
00 00 00 00
0
00 00 00 00
0
00 00 00 00
0
00 00 00 00
0
00 00 00 00
0
00 00 00 00
0
00 00 00 00
0
00 00 00 00
0
00 08 21 05
532741
00 00 00 00
0
00 00 F0 57
61527
00 01 DE F1
122609
276.796190.219244.797406.653377.618450000000000000000000002463.2566.41336.60560.20000000000641.2122.2319.60199.22675659.61395.20620000000000000000000000000000000000005020171123135758532.741061.527122.609insert into tbl_power_info_v2(P_A_DIANYA,P_B_DIANYA,P_C_DIANYA,P_UAB_XIANDIANYA,P_UBC_XIANDIANYA,P_UCA_XIANDIANYA,P_A_DIANLIU,P_B_DIANLIU,P_C_DIANLIU,P_A_YGGL,P_B_YGGL,P_C_YGGL,P_HXYGGL,P_A_WGGL,P_B_WGGL,P_C_WGGL,P_HXWGGL,P_A_SZGL,P_B_SZGL,P_C_SZGL,P_HXSZGL,P_A_GLYS,P_B_GLYS,P_C_GLYS,P_HXGLYS,P_DWPL,P_BY_KwhZ,P_BY_KwhJ,P_BY_KwhF,P_BY_KwhP,P_BY_KwhG,P_BY_HKwhZ,P_BY_HKwhJ,P_BY_HKwhF,P_BY_HKwhP,P_BY_HKwhG, P_BY_KvarhZ,P_BY_KvarhJ,P_BY_KvarhF,P_BY_KvarhP,P_BY_KvarhG, P_BY_HKvarhZ,P_BY_HKvarhJ,P_BY_HKvarhF,P_BY_HKvarhP,P_BY_HKvarhG, P_SY_KwhZ,P_SY_KwhJ,P_SY_KwhF,P_SY_KwhP,P_SY_KwhG, P_SY_HKwhZ,P_SY_HKwhJ,P_SY_HKwhF,P_SY_HKwhP,P_SY_HKwhG, P_SY_KvarhZ,P_SY_KvarhJ,P_SY_KvarhF,P_SY_KvarhP,P_SY_KvarhG, P_SY_HKvarhZ,P_SY_HKvarhJ,P_SY_HKvarhF,P_SY_HKvarhP,P_SY_HKvarhG, P_SSY_KwhZ,P_SSY_KwhJ,P_SSY_KwhF,P_SSY_KwhP,P_SSY_KwhG, P_SSY_HKwhZ,P_SSY_HKwhJ,P_SSY_HKwhF,P_SSY_HKwhP,P_SSY_HKwhG, P_SSY_KvarhZ,P_SSY_KvarhJ,P_SSY_KvarhF,P_SSY_KvarhP,P_SSY_KvarhG, P_SSY_HKvarhZ,P_SSY_HKvarhJ,P_SSY_HKvarhF,P_SSY_HKvarhP,P_SSY_HKvarhG,P_CODE,P_TIME,P_ZXYGDN,P_FXYGDN,P_ZXWGDN,P_FXWGDN)values(276.796,190.219,244.797,406.653,377.618,450,0,0,0,0,0,0,0,0,0,0,0,0,0,0,0,0,0,0,0,0,2463.2,566.4,1336.6,0,560.2,0,0,0,0,0,0,0,0,0,0,641.2,122.2,319.6,0,199.2,2675,659.6,1395.2,0,620,0,0,0,0,0,0,0,0,0,0,0,0,0,0,0,0,0,0,0,0,0,0,0,0,0,0,0,0,0,0,0,0,0,0,0,50,20171123135758,532.741,0,61.527,122.609)
写入成功读取完毕一个
write:21 03 00 38 00 34 C2 B0
write:21 03 07 CF 00 78 73 C3
write:21 03 01 0F 00 08 72 93
write:22 03 00 38 00 34 C2 83
34 30 32
heart:34 30 32 37 32 32 35 36 30 34 38 32
22 03 68
3443 68 24 9C 43 68 0E 56 43 68 1E B8 43 C8 F6 04 43 C8 F6 04 43 C9 01 27 42 B6 F0 A4 42 B8 9E B8 42 B9 75 C3 46 70 00 00 46 77 08 00 46 6E 98 00 47 35 68 00 46 5D B8 00 46 59 80 00 46 65 B0 00 47 27 3A 00 46 A5 F0 00 46 A7 58 00 46 A8 48 00 47 76 AE 00 3F 39 16 87 3F 3D 2F 1B 3F 35 C2 8F 3F 3C 28 F6 42 48 7D FA
write:22 03 07 CF 00 78 73 F0
write:22 03 01 0F 00 08 72 A0
22 03 F0
3446 6F 0D 00 45 74 11 9A 46 13 BC 66 00 00 00 00 44 F2 61 9A 00 00 00 00 00 00 00 00 00 00 00 00 00 00 00 00 00 00 00 00 46 2F 69 33 45 2E 97 33 45 D9 92 00 00 00 00 00 44 B7 D3 33 40 C9 99 9A 00 00 00 00 3F 40 00 00 00 00 00 00 40 AC CC CD 46 A2 7B E6 45 AB C7 33 46 39 CA 9A 00 00 00 00 45 55 24 00 00 00 00 00 00 00 00 00 00 00 00 00 00 00 00 00 00 00 00 00 46 67 37 33 45 6B CC CD 46 06 3E 33 00 00 00 00 45 18 14 CD 41 28 00 00 3E E6 66 66 3F F9 99 9A 00 00 00 00 40 FE 66 66 46 28 7C CD 44 CD 5E 66 45 D8 06 00 00 00 00 00 45 0B 35 9A 00 00 00 00 00 00 00 00 00 00 00 00 00 00 00 00 00 00 00 00 46 14 0F 33 44 A5 86 66 45 BE D0 66 00 00 00 00 44 FF AC CD 40 53 33 33 00 00 00 00 3E 19 99 9A 00 00 00 00 40 40 86 F8
22 03 10
3400 1C 22 1E 00 00 00 00 00 15 F3 B5 00 00 33 B7
43 68 24 9C
232.143
43 68 0E 56
232.056
43 68 1E B8
232.12
43 C8 F6 04
401.922
43 C8 F6 04
401.922
43 C9 01 27
402.009
42 B6 F0 A4
91.47
42 B8 9E B8
92.31
42 B9 75 C3
92.73
46 70 00 00
15360
46 77 08 00
15810
46 6E 98 00
15270
47 35 68 00
46440
46 5D B8 00
14190
46 59 80 00
13920
46 65 B0 00
14700
47 27 3A 00
42810
46 A5 F0 00
21240
46 A7 58 00
21420
46 A8 48 00
21540
47 76 AE 00
63150
3F 39 16 87
0.723
3F 3D 2F 1B
0.739
3F 35 C2 8F
0.71
3F 3C 28 F6
0.735
42 48 7D FA
50.123024
46 6F 0D 00
15299.25
45 74 11 9A
3905.1
46 13 BC 66
9455.1
00 00 00 00
0
44 F2 61 9A
1939.05
00 00 00 00
0
00 00 00 00
0
00 00 00 00
0
00 00 00 00
0
00 00 00 00
0
46 2F 69 33
11226.3
45 2E 97 33
2793.45
45 D9 92 00
6962.25
00 00 00 00
0
44 B7 D3 33
1470.6
40 C9 99 9A
6.3
00 00 00 00
0
3F 40 00 00
0.75
00 00 00 00
0
40 AC CC CD
5.4
46 A2 7B E6
20797.95
45 AB C7 33
5496.9
46 39 CA 9A
11890.65
00 00 00 00
0
45 55 24 00
3410.25
00 00 00 00
0
00 00 00 00
0
00 00 00 00
0
00 00 00 00
0
00 00 00 00
0
46 67 37 33
14797.8
45 6B CC CD
3772.8
46 06 3E 33
8591.55
00 00 00 00
0
45 18 14 CD
2433.3
41 28 00 00
10.5
3E E6 66 66
0.45
3F F9 99 9A
1.95
00 00 00 00
0
40 FE 66 66
7.95
46 28 7C CD
10783.2
44 CD 5E 66
1642.95
45 D8 06 00
6912.75
00 00 00 00
0
45 0B 35 9A
2227.35
00 00 00 00
0
00 00 00 00
0
00 00 00 00
0
00 00 00 00
0
00 00 00 00
0
46 14 0F 33
9475.8
44 A5 86 66
1324.2
45 BE D0 66
6106.05
00 00 00 00
0
44 FF AC CD
2045.4
40 53 33 33
3.3
00 00 00 00
0
3E 19 99 9A
0.15
00 00 00 00
0
40 40 86 F8
3.0082378
00 1C 22 1E
1843742
00 00 00 00
0
00 15 F3 B5
1438645
00 00 33 B7
13239
232.143232.056232.12401.922401.922402.00991.4792.3192.731536015810152704644014190139201470042810212402142021540631500.7230.7390.710.73550.12302415299.253905.19455.101939.050000011226.32793.456962.2501470.66.300.7505.420797.955496.911890.6503410.250000014797.83772.88591.5502433.310.50.451.9507.9510783.21642.956912.7502227.35000009475.81324.26106.0502045.43.300.1503.008237834201711231400241843.74201438.64513.239insert into tbl_power_info_v2(P_A_DIANYA,P_B_DIANYA,P_C_DIANYA,P_UAB_XIANDIANYA,P_UBC_XIANDIANYA,P_UCA_XIANDIANYA,P_A_DIANLIU,P_B_DIANLIU,P_C_DIANLIU,P_A_YGGL,P_B_YGGL,P_C_YGGL,P_HXYGGL,P_A_WGGL,P_B_WGGL,P_C_WGGL,P_HXWGGL,P_A_SZGL,P_B_SZGL,P_C_SZGL,P_HXSZGL,P_A_GLYS,P_B_GLYS,P_C_GLYS,P_HXGLYS,P_DWPL,P_BY_KwhZ,P_BY_KwhJ,P_BY_KwhF,P_BY_KwhP,P_BY_KwhG,P_BY_HKwhZ,P_BY_HKwhJ,P_BY_HKwhF,P_BY_HKwhP,P_BY_HKwhG, P_BY_KvarhZ,P_BY_KvarhJ,P_BY_KvarhF,P_BY_KvarhP,P_BY_KvarhG, P_BY_HKvarhZ,P_BY_HKvarhJ,P_BY_HKvarhF,P_BY_HKvarhP,P_BY_HKvarhG, P_SY_KwhZ,P_SY_KwhJ,P_SY_KwhF,P_SY_KwhP,P_SY_KwhG, P_SY_HKwhZ,P_SY_HKwhJ,P_SY_HKwhF,P_SY_HKwhP,P_SY_HKwhG, P_SY_KvarhZ,P_SY_KvarhJ,P_SY_KvarhF,P_SY_KvarhP,P_SY_KvarhG, P_SY_HKvarhZ,P_SY_HKvarhJ,P_SY_HKvarhF,P_SY_HKvarhP,P_SY_HKvarhG, P_SSY_KwhZ,P_SSY_KwhJ,P_SSY_KwhF,P_SSY_KwhP,P_SSY_KwhG, P_SSY_HKwhZ,P_SSY_HKwhJ,P_SSY_HKwhF,P_SSY_HKwhP,P_SSY_HKwhG, P_SSY_KvarhZ,P_SSY_KvarhJ,P_SSY_KvarhF,P_SSY_KvarhP,P_SSY_KvarhG, P_SSY_HKvarhZ,P_SSY_HKvarhJ,P_SSY_HKvarhF,P_SSY_HKvarhP,P_SSY_HKvarhG,P_CODE,P_TIME,P_ZXYGDN,P_FXYGDN,P_ZXWGDN,P_FXWGDN)values(232.143,232.056,232.12,401.922,401.922,402.009,91.47,92.31,92.73,15360,15810,15270,46440,14190,13920,14700,42810,21240,21420,21540,63150,0.723,0.739,0.71,0.735,50.123024,15299.25,3905.1,9455.1,0,1939.05,0,0,0,0,0,11226.3,2793.45,6962.25,0,1470.6,6.3,0,0.75,0,5.4,20797.95,5496.9,11890.65,0,3410.25,0,0,0,0,0,14797.8,3772.8,8591.55,0,2433.3,10.5,0.45,1.95,0,7.95,10783.2,1642.95,6912.75,0,2227.35,0,0,0,0,0,9475.8,1324.2,6106.05,0,2045.4,3.3,0,0.15,0,3.0082378,34,20171123140024,1843.742,0,1438.645,13.239)
写入成功读取完毕一个
write:23 03 00 38 00 34 C3 52
write:23 03 07 CF 00 78 72 21
write:23 03 01 0F 00 08 73 71
write:24 03 00 38 00 34 C2 E5
24 03 68
3643 68 27 F0 43 67 F0 21 43 68 20 83 43 C8 EA E1 43 C8 EA E1 43 C9 01 27 41 69 47 AE 41 6B AE 14 41 4B 0A 3D 44 CA 80 00 44 E8 80 00 44 99 C0 00 45 93 30 00 45 37 C0 00 45 2C 80 00 45 25 00 00 46 01 D8 00 45 53 E0 00 45 55 C0 00 45 37 C0 00 46 15 88 00 3E F5 C2 8F 3F 0B 85 1F 3E D7 0A 3D 3E FC ED 91 42 48 78 4E
write:24 03 07 CF 00 78 73 96
24 03 F0
3644 BF 83 33 42 6B 33 33 44 97 46 66 00 00 00 00 43 83 79 9A 00 00 00 00 00 00 00 00 00 00 00 00 00 00 00 00 00 00 00 00 44 BD 99 9A 41 8C 66 66 44 A2 B1 9A 00 00 00 00 43 45 B3 33 40 23 33 33 3E 99 99 9A 3E E6 66 66 00 00 00 00 3F C0 00 00 44 FE DE 66 42 D6 CC CD 44 C8 0B 33 00 00 00 00 43 A5 99 9A 00 00 00 00 00 00 00 00 00 00 00 00 00 00 00 00 00 00 00 00 44 FD F8 00 42 43 00 00 44 D9 B0 00 00 00 00 00 43 71 80 00 40 A3 33 33 3E 99 99 9A 3F D3 33 33 00 00 00 00 40 40 00 00 44 FE E3 33 42 4A 33 33 44 CD C3 33 00 00 00 00 00 00 00 00 00 00 00 00 00 00 00 00 00 00 00 00 00 00 00 00 00 00 00 00 00 00 00 00 00 00 00 00 00 00 00 00 00 00 00 00 00 00 00 00 00 00 00 00 00 00 00 00 00 00 00 00 00 00 00 00 00 00 00 00
write:24 03 01 0F 00 08 72 C6
00 00 00
heart:00 00 00 00 43 AB 26 66 00 00 00 00 00 00 00 00 00 00 00 00 00 00 00 00 00 00 00 00 45 00 B3 33 41 23 33 33 44 E2 4B 33 00 00 00 00 43 6E 80 00 40 A8 00 00 3F 66 66 66 40 06 66 66 00 00 00 00 40 10 14 2D
24 03 10
3600 08 EE 09 00 00 00 00 00 08 C4 F3 00 00 D5 6D
43 68 27 F0
232.156
43 67 F0 21
231.938
43 68 20 83
232.127
43 C8 EA E1
401.835
43 C8 EA E1
401.835
43 C9 01 27
402.009
41 69 47 AE
14.58
41 6B AE 14
14.73
41 4B 0A 3D
12.69
44 CA 80 00
1620
44 E8 80 00
1860
44 99 C0 00
1230
45 93 30 00
4710
45 37 C0 00
2940
45 2C 80 00
2760
45 25 00 00
2640
46 01 D8 00
8310
45 53 E0 00
3390
45 55 C0 00
3420
45 37 C0 00
2940
46 15 88 00
9570
3E F5 C2 8F
0.48
3F 0B 85 1F
0.545
3E D7 0A 3D
0.42
3E FC ED 91
0.494
42 48 78 4E
50.117485
44 BF 83 33
1532.1
42 6B 33 33
58.8
44 97 46 66
1210.2
00 00 00 00
0
43 83 79 9A
262.95
00 00 00 00
0
00 00 00 00
0
00 00 00 00
0
00 00 00 00
0
00 00 00 00
0
44 BD 99 9A
1516.8
41 8C 66 66
17.55
44 A2 B1 9A
1301.55
00 00 00 00
0
43 45 B3 33
197.7
40 23 33 33
2.55
3E 99 99 9A
0.3
3E E6 66 66
0.45
00 00 00 00
0
3F C0 00 00
1.5
44 FE DE 66
2038.95
42 D6 CC CD
107.4
44 C8 0B 33
1600.35
00 00 00 00
0
43 A5 99 9A
331.2
00 00 00 00
0
00 00 00 00
0
00 00 00 00
0
00 00 00 00
0
00 00 00 00
0
44 FD F8 00
2031.75
42 43 00 00
48.75
44 D9 B0 00
1741.5
00 00 00 00
0
43 71 80 00
241.5
40 A3 33 33
5.1
3E 99 99 9A
0.3
3F D3 33 33
1.65
00 00 00 00
0
40 40 00 00
3
44 FE E3 33
2039.1
42 4A 33 33
50.55
44 CD C3 33
1646.1
00 00 00 00
0
00 00 00 00
0
00 00 00 00
0
00 00 00 00
0
00 00 00 00
0
00 00 00 00
0
00 00 00 00
0
00 00 00 00
0
00 00 00 00
0
00 00 00 00
0
00 00 00 00
0
00 00 00 00
0
00 00 00 00
0
00 00 00 00
0
00 00 00 00
0
00 00 00 00
0
00 00 00 00
0
00 08 EE 09
585225
00 00 00 00
0
00 08 C4 F3
574707
00 00 D5 6D
54637
232.156231.938232.127401.835401.835402.00914.5814.7312.691620186012304710294027602640831033903420294095700.480.5450.420.49450.1174851532.158.81210.20262.95000001516.817.551301.550197.72.550.30.4501.52038.95107.41600.350331.2000002031.7548.751741.50241.55.10.31.65032039.150.551646.1000000000000000003620171123140243585.2250574.70754.637insert into tbl_power_info_v2(P_A_DIANYA,P_B_DIANYA,P_C_DIANYA,P_UAB_XIANDIANYA,P_UBC_XIANDIANYA,P_UCA_XIANDIANYA,P_A_DIANLIU,P_B_DIANLIU,P_C_DIANLIU,P_A_YGGL,P_B_YGGL,P_C_YGGL,P_HXYGGL,P_A_WGGL,P_B_WGGL,P_C_WGGL,P_HXWGGL,P_A_SZGL,P_B_SZGL,P_C_SZGL,P_HXSZGL,P_A_GLYS,P_B_GLYS,P_C_GLYS,P_HXGLYS,P_DWPL,P_BY_KwhZ,P_BY_KwhJ,P_BY_KwhF,P_BY_KwhP,P_BY_KwhG,P_BY_HKwhZ,P_BY_HKwhJ,P_BY_HKwhF,P_BY_HKwhP,P_BY_HKwhG, P_BY_KvarhZ,P_BY_KvarhJ,P_BY_KvarhF,P_BY_KvarhP,P_BY_KvarhG, P_BY_HKvarhZ,P_BY_HKvarhJ,P_BY_HKvarhF,P_BY_HKvarhP,P_BY_HKvarhG, P_SY_KwhZ,P_SY_KwhJ,P_SY_KwhF,P_SY_KwhP,P_SY_KwhG, P_SY_HKwhZ,P_SY_HKwhJ,P_SY_HKwhF,P_SY_HKwhP,P_SY_HKwhG, P_SY_KvarhZ,P_SY_KvarhJ,P_SY_KvarhF,P_SY_KvarhP,P_SY_KvarhG, P_SY_HKvarhZ,P_SY_HKvarhJ,P_SY_HKvarhF,P_SY_HKvarhP,P_SY_HKvarhG, P_SSY_KwhZ,P_SSY_KwhJ,P_SSY_KwhF,P_SSY_KwhP,P_SSY_KwhG, P_SSY_HKwhZ,P_SSY_HKwhJ,P_SSY_HKwhF,P_SSY_HKwhP,P_SSY_HKwhG, P_SSY_KvarhZ,P_SSY_KvarhJ,P_SSY_KvarhF,P_SSY_KvarhP,P_SSY_KvarhG, P_SSY_HKvarhZ,P_SSY_HKvarhJ,P_SSY_HKvarhF,P_SSY_HKvarhP,P_SSY_HKvarhG,P_CODE,P_TIME,P_ZXYGDN,P_FXYGDN,P_ZXWGDN,P_FXWGDN)values(232.156,231.938,232.127,401.835,401.835,402.009,14.58,14.73,12.69,1620,1860,1230,4710,2940,2760,2640,8310,3390,3420,2940,9570,0.48,0.545,0.42,0.494,50.117485,1532.1,58.8,1210.2,0,262.95,0,0,0,0,0,1516.8,17.55,1301.55,0,197.7,2.55,0.3,0.45,0,1.5,2038.95,107.4,1600.35,0,331.2,0,0,0,0,0,2031.75,48.75,1741.5,0,241.5,5.1,0.3,1.65,0,3,2039.1,50.55,1646.1,0,0,0,0,0,0,0,0,0,0,0,0,0,0,0,0,0,36,20171123140243,585.225,0,574.707,54.637)
写入成功读取完毕一个
write:25 03 00 38 00 34 C3 34
25 03 68
3743 67 F8 D5 43 67 90 21 43 68 12 F2 43 C8 A8 73 43 C8 B3 75 43 C8 DF DF 42 80 66 66 42 84 3D 71 42 8B 9E B8 46 27 D0 00 46 2C F8 00 46 37 C0 00 47 03 22 00 46 20 50 00 46 24 88 00 46 2D E8 00 46 F9 60 00 46 68 80 00 46 6F 10 00 46 7D 20 00 00 00 00 00 00 00 00 00 00 00 00 00 00 00 00 00 00 00 00 00 00 00 00 00
47 39 28
heart:47 39 28 00 3F 3B A5 E3 3F 3C ED 91 3F 3B 22 D1 3F 3C 6A 7F 42 47 03 A0
write:25 03 07 CF 00 78 72 47
25 03 F0
3745 45 17 33 43 B8 46 66 45 08 76 66 00 00 00 00 44 16 56 66 00 00 00 00 00 00 00 00 00 00 00 00 00 00 00 00 00 00 00 00 44 A2 78 00 43 43 00 00 44 63 A9 9A 00 00 00 00 43 41 F3 33 3F F9 99 9A 3E 99 99 9A 3E 19 99 9A 00 00 00 00 3F AC CC CD 45 5E 62 66 43 A5 E6 66 45 25 D8 00 00 00 00 00 44 0F 2C CD 00 00 00 00 00 00 00 00 00 00 00 00 00 00 00 00 00 00 00 00 45 0E 46 66 43 77 F3 33 44 D2 51 9A 00 00 00 00 43 AC E0 00 40 10 00 00 00 00 00 00 00 00 00 00 00 00 00 00 00 00 00 00 00 00 00 00 00 00 00 00 00 00 00 00 00 00 00 00 00 00 00 00 00 00 00 00 00 00 00 00 00 00 00 00 00 00 00 00 00 00 00 00 00 00 00 00 00 00 00 00 00 00 00 00 00 00 00 00 00 00 00 00 00 00 00 00 00 00 00 00 00 00 00 00 00 00 00 00 00 00 00 00
00 00 3E
heart:00 00 3E 99 99 9A 3F 19 99 9A 00 00 00 00 3F 99 99 9A 45 22 37 33 43 83 EC CD 44 F1 46 66 00 00 00 00 43 C8 A0 00 00 00 00 00 00 00 00 00 00 00 00 00 00 00 00 00 00 00 00 00 44 DC 50 00 43 48 19 9A 44 A5 5B 33 00 00 00 00 43 6F 66 66 40 E1 99 9A 40 66 66 66 40 10 00 00 00 00 00 00 3F 99 28 DE
write:25 03 01 0F 00 08 73 17
25 03 10
3700 06 43 BD 00 00 00 00 00 03 98 37 00 00 25 93
43 67 F8 D5
231.972
43 67 90 21
231.563
43 68 12 F2
232.074
43 C8 A8 73
401.316
43 C8 B3 75
401.402
43 C8 DF DF
401.749
42 80 66 66
64.2
42 84 3D 71
66.12
42 8B 9E B8
69.81
46 27 D0 00
10740
46 2C F8 00
11070
46 37 C0 00
11760
47 03 22 00
33570
46 20 50 00
10260
46 24 88 00
10530
46 2D E8 00
11130
46 F9 60 00
31920
46 68 80 00
14880
46 6F 10 00
15300
46 7D 20 00
16200
00 00 00 00
0
00 00 00 00
0
00 00 00 00
0
00 00 00 00
0
00 00 00 00
0
00 00 00 00
0
45 45 17 33
3153.45
43 B8 46 66
368.55
45 08 76 66
2183.4
00 00 00 00
0
44 16 56 66
601.35
00 00 00 00
0
00 00 00 00
0
00 00 00 00
0
00 00 00 00
0
00 00 00 00
0
44 A2 78 00
1299.75
43 43 00 00
195
44 63 A9 9A
910.65
00 00 00 00
0
43 41 F3 33
193.95
3F F9 99 9A
1.95
3E 99 99 9A
0.3
3E 19 99 9A
0.15
00 00 00 00
0
3F AC CC CD
1.35
45 5E 62 66
3558.15
43 A5 E6 66
331.8
45 25 D8 00
2653.5
00 00 00 00
0
44 0F 2C CD
572.7
00 00 00 00
0
00 00 00 00
0
00 00 00 00
0
00 00 00 00
0
00 00 00 00
0
45 0E 46 66
2276.4
43 77 F3 33
247.95
44 D2 51 9A
1682.55
00 00 00 00
0
43 AC E0 00
345.75
40 10 00 00
2.25
00 00 00 00
0
00 00 00 00
0
00 00 00 00
0
00 00 00 00
0
00 00 00 00
0
00 00 00 00
0
00 00 00 00
0
00 00 00 00
0
00 00 00 00
0
00 00 00 00
0
00 00 00 00
0
00 00 00 00
0
00 00 00 00
0
00 00 00 00
0
00 00 00 00
0
00 00 00 00
0
00 00 00 00
0
00 00 00 00
0
00 00 00 00
0
00 00 00 00
0
00 00 00 00
0
00 00 00 00
0
00 00 00 00
0
00 00 00 00
0
00 06 43 BD
410557
00 00 00 00
0
00 03 98 37
235575
00 00 25 93
9619
231.972231.563232.074401.316401.402401.74964.266.1269.8110740110701176033570102601053011130319201488015300162000000003153.45368.552183.40601.35000001299.75195910.650193.951.950.30.1501.353558.15331.82653.50572.7000002276.4247.951682.550345.752.250000000000000000000000003720171123140348410.5570235.5759.619insert into tbl_power_info_v2(P_A_DIANYA,P_B_DIANYA,P_C_DIANYA,P_UAB_XIANDIANYA,P_UBC_XIANDIANYA,P_UCA_XIANDIANYA,P_A_DIANLIU,P_B_DIANLIU,P_C_DIANLIU,P_A_YGGL,P_B_YGGL,P_C_YGGL,P_HXYGGL,P_A_WGGL,P_B_WGGL,P_C_WGGL,P_HXWGGL,P_A_SZGL,P_B_SZGL,P_C_SZGL,P_HXSZGL,P_A_GLYS,P_B_GLYS,P_C_GLYS,P_HXGLYS,P_DWPL,P_BY_KwhZ,P_BY_KwhJ,P_BY_KwhF,P_BY_KwhP,P_BY_KwhG,P_BY_HKwhZ,P_BY_HKwhJ,P_BY_HKwhF,P_BY_HKwhP,P_BY_HKwhG, P_BY_KvarhZ,P_BY_KvarhJ,P_BY_KvarhF,P_BY_KvarhP,P_BY_KvarhG, P_BY_HKvarhZ,P_BY_HKvarhJ,P_BY_HKvarhF,P_BY_HKvarhP,P_BY_HKvarhG, P_SY_KwhZ,P_SY_KwhJ,P_SY_KwhF,P_SY_KwhP,P_SY_KwhG, P_SY_HKwhZ,P_SY_HKwhJ,P_SY_HKwhF,P_SY_HKwhP,P_SY_HKwhG, P_SY_KvarhZ,P_SY_KvarhJ,P_SY_KvarhF,P_SY_KvarhP,P_SY_KvarhG, P_SY_HKvarhZ,P_SY_HKvarhJ,P_SY_HKvarhF,P_SY_HKvarhP,P_SY_HKvarhG, P_SSY_KwhZ,P_SSY_KwhJ,P_SSY_KwhF,P_SSY_KwhP,P_SSY_KwhG, P_SSY_HKwhZ,P_SSY_HKwhJ,P_SSY_HKwhF,P_SSY_HKwhP,P_SSY_HKwhG, P_SSY_KvarhZ,P_SSY_KvarhJ,P_SSY_KvarhF,P_SSY_KvarhP,P_SSY_KvarhG, P_SSY_HKvarhZ,P_SSY_HKvarhJ,P_SSY_HKvarhF,P_SSY_HKvarhP,P_SSY_HKvarhG,P_CODE,P_TIME,P_ZXYGDN,P_FXYGDN,P_ZXWGDN,P_FXWGDN)values(231.972,231.563,232.074,401.316,401.402,401.749,64.2,66.12,69.81,10740,11070,11760,33570,10260,10530,11130,31920,14880,15300,16200,0,0,0,0,0,0,3153.45,368.55,2183.4,0,601.35,0,0,0,0,0,1299.75,195,910.65,0,193.95,1.95,0.3,0.15,0,1.35,3558.15,331.8,2653.5,0,572.7,0,0,0,0,0,2276.4,247.95,1682.55,0,345.75,2.25,0,0,0,0,0,0,0,0,0,0,0,0,0,0,0,0,0,0,0,0,0,0,0,0,37,20171123140348,410.557,0,235.575,9.619)
写入成功读取完毕一个
write:26 03 00 38 00 34 C3 07
26 03 68
3843 68 23 12 43 68 4E 98 43 68 9A 5E 43 C9 17 4C 43 C9 4E B8 43 C9 38 93 41 F7 70 A4 41 B3 C2 8F 41 C6 F5 C3 45 73 C0 00 45 37 C0 00 45 86 10 00 46 2D E8 00 45 B6 D0 00 45 82 50 00 45 6C 40 00 46 57 A0 00 45 E0 10 00 45 A3 20 00 45 B4 F0 00 46 8A 84 00 3F 0B 02 0C 3F 0F DF 3B 3F 3D B2 2D 3F 20 83 12 42 48 1A 53
write:26 03 07 CF 00 78 72 74
write:26 03 01 0F 00 08 73 24
26 03 F0
3845 38 E4 CD 42 20 33 33 45 08 29 9A 00 00 00 00 44 38 E0 00 40 53 33 33 00 00 00 00 40 23 33 33 00 00 00 00 3F 19 99 9A 45 2C E2 66 40 40 00 00 45 03 C1 9A 00 00 00 00 44 23 B0 00 42 84 4C CD 41 86 66 66 41 68 CC CD 00 00 00 00 42 0A 99 9A 44 90 73 33 42 5B 00 00 44 55 13 33 00 00 00 00 43 78 66 66 3F AC CC CD 00 00 00 00 3F 86 66 66 00 00 00 00 3E 19 99 9A 44 89 53 33 42 2F CC CD 44 50 FC CD 00 00 00 00 43 5A 8C CD 41 C6 00 00 40 C9 99 9A 40 A8 00 00 00 00 00 00 41 50 CC CD 42 AF 33 33 40 19 99 9A 42 77 CC CD 00 00 00 00 41 B8 CC CD 00 00 00 00 00 00 00 00 00 00 00 00 00 00 00 00 00 00 00 00 42 1D 33 33 3F C0 00 00 41 E7 99 9A 00 00 00 00 41 0B 33 33 41 01 99 9A 3E 99 99 9A 40 B6 66 66 00 00 00 00 3F F9 BE 0E
26 03 10
3800 02 3B D7 00 00 00 00 00 00 00 00 00 00 00 00
43 68 23 12
232.137
43 68 4E 98
232.307
43 68 9A 5E
232.603
43 C9 17 4C
402.182
43 C9 4E B8
402.615
43 C9 38 93
402.442
41 F7 70 A4
30.93
41 B3 C2 8F
22.47
41 C6 F5 C3
24.87
45 73 C0 00
3900
45 37 C0 00
2940
45 86 10 00
4290
46 2D E8 00
11130
45 B6 D0 00
5850
45 82 50 00
4170
45 6C 40 00
3780
46 57 A0 00
13800
45 E0 10 00
7170
45 A3 20 00
5220
45 B4 F0 00
5790
46 8A 84 00
17730
3F 0B 02 0C
0.543
3F 0F DF 3B
0.562
3F 3D B2 2D
0.741
3F 20 83 12
0.627
42 48 1A 53
50.025707
45 38 E4 CD
2958.3
42 20 33 33
40.05
45 08 29 9A
2178.6
00 00 00 00
0
44 38 E0 00
739.5
40 53 33 33
3.3
00 00 00 00
0
40 23 33 33
2.55
00 00 00 00
0
3F 19 99 9A
0.6
45 2C E2 66
2766.15
40 40 00 00
3
45 03 C1 9A
2108.1
00 00 00 00
0
44 23 B0 00
654.75
42 84 4C CD
66.15
41 86 66 66
16.8
41 68 CC CD
14.55
00 00 00 00
0
42 0A 99 9A
34.65
44 90 73 33
1155.6
42 5B 00 00
54.75
44 55 13 33
852.3
00 00 00 00
0
43 78 66 66
248.4
3F AC CC CD
1.35
00 00 00 00
0
3F 86 66 66
1.05
00 00 00 00
0
3E 19 99 9A
0.15
44 89 53 33
1098.6
42 2F CC CD
43.95
44 50 FC CD
835.95
00 00 00 00
0
43 5A 8C CD
218.55
41 C6 00 00
24.75
40 C9 99 9A
6.3
40 A8 00 00
5.25
00 00 00 00
0
41 50 CC CD
13.05
42 AF 33 33
87.6
40 19 99 9A
2.4
42 77 CC CD
61.95
00 00 00 00
0
41 B8 CC CD
23.1
00 00 00 00
0
00 00 00 00
0
00 00 00 00
0
00 00 00 00
0
00 00 00 00
0
42 1D 33 33
39.3
3F C0 00 00
1.5
41 E7 99 9A
28.95
00 00 00 00
0
41 0B 33 33
8.7
41 01 99 9A
8.1
3E 99 99 9A
0.3
40 B6 66 66
5.7
00 00 00 00
0
3F F9 BE 0E
1.9511125
00 02 3B D7
146391
00 00 00 00
0
00 00 00 00
0
00 00 00 00
0
232.137232.307232.603402.182402.615402.44230.9322.4724.873900294042901113058504170378013800717052205790177300.5430.5620.7410.62750.0257072958.340.052178.60739.53.302.5500.62766.1532108.10654.7566.1516.814.55034.651155.654.75852.30248.41.3501.0500.151098.643.95835.950218.5524.756.35.25013.0587.62.461.95023.10000039.31.528.9508.78.10.35.701.95111253820171123140458146.391000insert into tbl_power_info_v2(P_A_DIANYA,P_B_DIANYA,P_C_DIANYA,P_UAB_XIANDIANYA,P_UBC_XIANDIANYA,P_UCA_XIANDIANYA,P_A_DIANLIU,P_B_DIANLIU,P_C_DIANLIU,P_A_YGGL,P_B_YGGL,P_C_YGGL,P_HXYGGL,P_A_WGGL,P_B_WGGL,P_C_WGGL,P_HXWGGL,P_A_SZGL,P_B_SZGL,P_C_SZGL,P_HXSZGL,P_A_GLYS,P_B_GLYS,P_C_GLYS,P_HXGLYS,P_DWPL,P_BY_KwhZ,P_BY_KwhJ,P_BY_KwhF,P_BY_KwhP,P_BY_KwhG,P_BY_HKwhZ,P_BY_HKwhJ,P_BY_HKwhF,P_BY_HKwhP,P_BY_HKwhG, P_BY_KvarhZ,P_BY_KvarhJ,P_BY_KvarhF,P_BY_KvarhP,P_BY_KvarhG, P_BY_HKvarhZ,P_BY_HKvarhJ,P_BY_HKvarhF,P_BY_HKvarhP,P_BY_HKvarhG, P_SY_KwhZ,P_SY_KwhJ,P_SY_KwhF,P_SY_KwhP,P_SY_KwhG, P_SY_HKwhZ,P_SY_HKwhJ,P_SY_HKwhF,P_SY_HKwhP,P_SY_HKwhG, P_SY_KvarhZ,P_SY_KvarhJ,P_SY_KvarhF,P_SY_KvarhP,P_SY_KvarhG, P_SY_HKvarhZ,P_SY_HKvarhJ,P_SY_HKvarhF,P_SY_HKvarhP,P_SY_HKvarhG, P_SSY_KwhZ,P_SSY_KwhJ,P_SSY_KwhF,P_SSY_KwhP,P_SSY_KwhG, P_SSY_HKwhZ,P_SSY_HKwhJ,P_SSY_HKwhF,P_SSY_HKwhP,P_SSY_HKwhG, P_SSY_KvarhZ,P_SSY_KvarhJ,P_SSY_KvarhF,P_SSY_KvarhP,P_SSY_KvarhG, P_SSY_HKvarhZ,P_SSY_HKvarhJ,P_SSY_HKvarhF,P_SSY_HKvarhP,P_SSY_HKvarhG,P_CODE,P_TIME,P_ZXYGDN,P_FXYGDN,P_ZXWGDN,P_FXWGDN)values(232.137,232.307,232.603,402.182,402.615,402.442,30.93,22.47,24.87,3900,2940,4290,11130,5850,4170,3780,13800,7170,5220,5790,17730,0.543,0.562,0.741,0.627,50.025707,2958.3,40.05,2178.6,0,739.5,3.3,0,2.55,0,0.6,2766.15,3,2108.1,0,654.75,66.15,16.8,14.55,0,34.65,1155.6,54.75,852.3,0,248.4,1.35,0,1.05,0,0.15,1098.6,43.95,835.95,0,218.55,24.75,6.3,5.25,0,13.05,87.6,2.4,61.95,0,23.1,0,0,0,0,0,39.3,1.5,28.95,0,8.7,8.1,0.3,5.7,0,1.9511125,38,20171123140458,146.391,0,0,0)
写入成功读取完毕一个
00 9D 00
heart:00 9D 00 02 01 0E 00 00 9F B2
write:27 03 00 38 00 34 C2 D6
27 03 68
3943 68 9D 71 43 68 57 CF 43 68 59 17 43 C9 4E B8 43 C9 2D 71 43 C9 4E B8 00 00 00 00 00 00 00 00 41 93 1E B8 00 00 00 00 00 00 00 00 45 84 30 00 45 85 20 00 00 00 00 00 00 00 00 00 42 B4 00 00 43 16 00 00 00 00 00 00 00 00 00 00 45 85 20 00 45 85 20 00 00 00 00 00 00 00 00 00 3F 7C ED 91 3F 7F BE 77 42 48 2F 87
write:27 03 07 CF 00 78 73 A5
27 03 F0
3943 79 73 33 41 10 00 00 43 2F 80 00 00 00 00 00 42 81 4C CD 00 00 00 00 00 00 00 00 00 00 00 00 00 00 00 00 00 00 00 00 42 F6 4C CD 00 00 00 00 42 C1 80 00 00 00 00 00 41 D3 33 33 40 AC CC CD 00 00 00 00 40 86 66 66 00 00 00 00 3F 86 66 66 43 0C 66 66 41 38 CC CD 42 A5 E6 66 00 00 00 00 42 37 99 9A 00 00 00 00 00 00 00 00 00 00 00 00 00 00 00 00 00 00 00 00 3F AC CC CD 00 00 00 00 3F 19 99 9A 00 00 00 00 3F 19 99 9A 41 08 CC CD 00 00 00 00 40 D8 00 00 00 00 00 00 3F E6 66 66 43 68 59 9A 41 38 CC CD 43 1A CC CD 00 00 00 00 42 83 B3 33 00 00 00 00 00 00 00 00 00 00 00 00 00 00 00 00 00 00 00 00 00 00 00 00 00 00 00 00 00 00 00 00 00 00 00 00 00 00 00 00 00 00 00 00 00 00 00 00 00 00 00 00 00 00 00 00 00 00 00 00
00 00 00
heart:00 00 00 00 00 00 41 8A 00 00 00 00 00 00 41 77 33 33 00 00 00 00 3F D3 33 33 41 88 CC CD 3E 19 99 9A 41 53 33 33 00 00 00 00 40 66 FD 7F
write:27 03 01 0F 00 08 72 F5
27 03 10
3900 01 3A 74 00 00 00 00 00 00 39 67 00 00 BF 7D
43 68 9D 71
232.615
43 68 57 CF
232.343
43 68 59 17
232.348
43 C9 4E B8
402.615
43 C9 2D 71
402.355
43 C9 4E B8
402.615
00 00 00 00
0
00 00 00 00
0
41 93 1E B8
18.39
00 00 00 00
0
00 00 00 00
0
45 84 30 00
4230
45 85 20 00
4260
00 00 00 00
0
00 00 00 00
0
42 B4 00 00
90
43 16 00 00
150
00 00 00 00
0
00 00 00 00
0
45 85 20 00
4260
45 85 20 00
4260
00 00 00 00
0
00 00 00 00
0
3F 7C ED 91
0.988
3F 7F BE 77
0.999
42 48 2F 87
50.046413
43 79 73 33
249.45
41 10 00 00
9
43 2F 80 00
175.5
00 00 00 00
0
42 81 4C CD
64.65
00 00 00 00
0
00 00 00 00
0
00 00 00 00
0
00 00 00 00
0
00 00 00 00
0
42 F6 4C CD
123.15
00 00 00 00
0
42 C1 80 00
96.75
00 00 00 00
0
41 D3 33 33
26.4
40 AC CC CD
5.4
00 00 00 00
0
40 86 66 66
4.2
00 00 00 00
0
3F 86 66 66
1.05
43 0C 66 66
140.4
41 38 CC CD
11.55
42 A5 E6 66
82.95
00 00 00 00
0
42 37 99 9A
45.9
00 00 00 00
0
00 00 00 00
0
00 00 00 00
0
00 00 00 00
0
00 00 00 00
0
3F AC CC CD
1.35
00 00 00 00
0
3F 19 99 9A
0.6
00 00 00 00
0
3F 19 99 9A
0.6
41 08 CC CD
8.55
00 00 00 00
0
40 D8 00 00
6.75
00 00 00 00
0
3F E6 66 66
1.8
43 68 59 9A
232.35
41 38 CC CD
11.55
43 1A CC CD
154.8
00 00 00 00
0
42 83 B3 33
65.85
00 00 00 00
0
00 00 00 00
0
00 00 00 00
0
00 00 00 00
0
00 00 00 00
0
00 00 00 00
0
00 00 00 00
0
00 00 00 00
0
00 00 00 00
0
00 00 00 00
0
00 00 00 00
0
00 00 00 00
0
00 00 00 00
0
00 00 00 00
0
00 00 00 00
0
00 01 3A 74
80500
00 00 00 00
0
00 00 39 67
14695
00 00 BF 7D
49021
232.615232.343232.348402.615402.355402.6150018.39004230426000901500042604260000.9880.99950.046413249.459175.5064.6500000123.15096.75026.45.404.201.05140.411.5582.95045.9000001.3500.600.68.5506.7501.8232.3511.55154.8065.85000000000000000392017112314060680.5014.69549.021insert into tbl_power_info_v2(P_A_DIANYA,P_B_DIANYA,P_C_DIANYA,P_UAB_XIANDIANYA,P_UBC_XIANDIANYA,P_UCA_XIANDIANYA,P_A_DIANLIU,P_B_DIANLIU,P_C_DIANLIU,P_A_YGGL,P_B_YGGL,P_C_YGGL,P_HXYGGL,P_A_WGGL,P_B_WGGL,P_C_WGGL,P_HXWGGL,P_A_SZGL,P_B_SZGL,P_C_SZGL,P_HXSZGL,P_A_GLYS,P_B_GLYS,P_C_GLYS,P_HXGLYS,P_DWPL,P_BY_KwhZ,P_BY_KwhJ,P_BY_KwhF,P_BY_KwhP,P_BY_KwhG,P_BY_HKwhZ,P_BY_HKwhJ,P_BY_HKwhF,P_BY_HKwhP,P_BY_HKwhG, P_BY_KvarhZ,P_BY_KvarhJ,P_BY_KvarhF,P_BY_KvarhP,P_BY_KvarhG, P_BY_HKvarhZ,P_BY_HKvarhJ,P_BY_HKvarhF,P_BY_HKvarhP,P_BY_HKvarhG, P_SY_KwhZ,P_SY_KwhJ,P_SY_KwhF,P_SY_KwhP,P_SY_KwhG, P_SY_HKwhZ,P_SY_HKwhJ,P_SY_HKwhF,P_SY_HKwhP,P_SY_HKwhG, P_SY_KvarhZ,P_SY_KvarhJ,P_SY_KvarhF,P_SY_KvarhP,P_SY_KvarhG, P_SY_HKvarhZ,P_SY_HKvarhJ,P_SY_HKvarhF,P_SY_HKvarhP,P_SY_HKvarhG, P_SSY_KwhZ,P_SSY_KwhJ,P_SSY_KwhF,P_SSY_KwhP,P_SSY_KwhG, P_SSY_HKwhZ,P_SSY_HKwhJ,P_SSY_HKwhF,P_SSY_HKwhP,P_SSY_HKwhG, P_SSY_KvarhZ,P_SSY_KvarhJ,P_SSY_KvarhF,P_SSY_KvarhP,P_SSY_KvarhG, P_SSY_HKvarhZ,P_SSY_HKvarhJ,P_SSY_HKvarhF,P_SSY_HKvarhP,P_SSY_HKvarhG,P_CODE,P_TIME,P_ZXYGDN,P_FXYGDN,P_ZXWGDN,P_FXWGDN)values(232.615,232.343,232.348,402.615,402.355,402.615,0,0,18.39,0,0,4230,4260,0,0,90,150,0,0,4260,4260,0,0,0.988,0.999,50.046413,249.45,9,175.5,0,64.65,0,0,0,0,0,123.15,0,96.75,0,26.4,5.4,0,4.2,0,1.05,140.4,11.55,82.95,0,45.9,0,0,0,0,0,1.35,0,0.6,0,0.6,8.55,0,6.75,0,1.8,232.35,11.55,154.8,0,65.85,0,0,0,0,0,0,0,0,0,0,0,0,0,0,0,39,20171123140606,80.5,0,14.695,49.021)
写入成功读取完毕一个
write:28 03 00 38 00 34 C2 29
28 03 68
4043 69 38 10 43 69 03 96 43 68 FE FA 43 C9 DE D9 43 C9 BD 91 43 C9 D3 B6 40 83 85 1F 40 8F 0A 3D 40 89 47 AE 44 2C 80 00 44 4A 80 00 44 43 00 00 45 0E 80 00 00 00 00 00 42 70 00 00 00 00 00 00 42 F0 00 00 44 70 00 00 44 83 40 00 44 77 80 00 45 0E 80 00 3F 37 8D 50 3F 47 2B 02 3F 49 37 4C 3F 7F BE 77 42 48 DF D2
write:28 03 07 CF 00 78 73 5A
28 03 F0
