nohup: ignoring input
Listening on :6004
received messag ?->? 
 124.160.213.168:45472 172.16.246.153:6004
write:21 03 00 38 00 34 C2 B0
34 30 32
heart:34 30 32 37 32 32 35 36 30 34 38 32
write:21 03 07 CF 00 78 73 C3
write:21 03 01 0F 00 08 72 93
write:22 03 00 38 00 34 C2 83
22 03 68
3443 6A 11 AA 43 69 C5 A2 43 69 DD B2 43 CA 85 1F 43 CA 6E D9 43 CA 90 21 42 BC 75 C3 42 BB EB 85 42 BA F5 C3 46 6E 20 00 46 71 68 00 46 6E 20 00 47 33 6A 00 46 71 68 00 46 6C B8 00 46 6D 30 00 47 32 D4 00 46 AC 44 00 46 AB 90 00 46 AA DC 00 47 7D 5C 00 3F 30 E5 60 3F 33 F7 CF 3F 32 B0 21 3F 35 3F 7D 42 47 7A 1E
write:22 03 07 CF 00 78 73 F0
22 03 F0
3446 71 27 33 45 74 11 9A 46 15 D6 00 00 00 00 00 44 F2 61 9A 00 00 00 00 00 00 00 00 00 00 00 00 00 00 00 00 00 00 00 00 46 30 A6 9A 45 2E 97 33 45 DC 0C CD 00 00 00 00 44 B7 D3 33 40 C9 99 9A 00 00 00 00 3F 40 00 00 00 00 00 00 40 AC CC CD 46 A2 7B E6 45 AB C7 33 46 39 CA 9A 00 00 00 00 45 55 24 00 00 00 00 00 00 00 00 00 00 00 00 00 00 00 00 00 00 00 00 00 46 67 37 33 45 6B CC CD 46 06 3E 33 00 00 00 00 45 18 14 CD 41 28 00 00 3E E6 66 66 3F F9 99 9A 00 00 00 00 40 FE 66 66 46 28 7C CD 44 CD 5E 66 45 D8 06 00 00 00 00 00 45 0B 35 9A 00 00 00 00 00 00 00 00 00 00 00 00 00 00 00 00 00 00 00 00 46 14 0F 33 44 A5 86 66 45 BE D0 66 00 00 00 00 44 FF AC CD 40 53 33 33 00 00 00 00 3E 19 99 9A 00 00 00 00 40 40 8C 4A
write:22 03 01 0F 00 08 72 A0
22 03 10
3400 1C 33 9B 00 00 00 00 00 15 FE 07 00 00 15 0E
43 6A 11 AA
234.069
43 69 C5 A2
233.772
43 69 DD B2
233.866
43 CA 85 1F
405.04
43 CA 6E D9
404.866
43 CA 90 21
405.126
42 BC 75 C3
94.23
42 BB EB 85
93.96
42 BA F5 C3
93.48
46 6E 20 00
15240
46 71 68 00
15450
46 6E 20 00
15240
47 33 6A 00
45930
46 71 68 00
15450
46 6C B8 00
15150
46 6D 30 00
15180
47 32 D4 00
45780
46 AC 44 00
22050
46 AB 90 00
21960
46 AA DC 00
21870
47 7D 5C 00
64860
3F 30 E5 60
0.691
3F 33 F7 CF
0.703
3F 32 B0 21
0.698
3F 35 3F 7D
0.708
42 47 7A 1E
49.869255
46 71 27 33
15433.8
45 74 11 9A
3905.1
46 15 D6 00
9589.5
00 00 00 00
0
44 F2 61 9A
1939.05
00 00 00 00
0
00 00 00 00
0
00 00 00 00
0
00 00 00 00
0
00 00 00 00
0
46 30 A6 9A
11305.65
45 2E 97 33
2793.45
45 DC 0C CD
7041.6
00 00 00 00
0
44 B7 D3 33
1470.6
40 C9 99 9A
6.3
00 00 00 00
0
3F 40 00 00
0.75
00 00 00 00
0
40 AC CC CD
5.4
46 A2 7B E6
20797.95
45 AB C7 33
5496.9
46 39 CA 9A
11890.65
00 00 00 00
0
45 55 24 00
3410.25
00 00 00 00
0
00 00 00 00
0
00 00 00 00
0
00 00 00 00
0
00 00 00 00
0
46 67 37 33
14797.8
45 6B CC CD
3772.8
46 06 3E 33
8591.55
00 00 00 00
0
45 18 14 CD
2433.3
41 28 00 00
10.5
3E E6 66 66
0.45
3F F9 99 9A
1.95
00 00 00 00
0
40 FE 66 66
7.95
46 28 7C CD
10783.2
44 CD 5E 66
1642.95
45 D8 06 00
6912.75
00 00 00 00
0
45 0B 35 9A
2227.35
00 00 00 00
0
00 00 00 00
0
00 00 00 00
0
00 00 00 00
0
00 00 00 00
0
46 14 0F 33
9475.8
44 A5 86 66
1324.2
45 BE D0 66
6106.05
00 00 00 00
0
44 FF AC CD
2045.4
40 53 33 33
3.3
00 00 00 00
0
3E 19 99 9A
0.15
00 00 00 00
0
40 40 8C 4A
3.0085626
00 1C 33 9B
1848219
00 00 00 00
0
00 15 FE 07
1441287
00 00 15 0E
5390
234.069233.772233.866405.04404.866405.12694.2393.9693.481524015450152404593015450151501518045780220502196021870648600.6910.7030.6980.70849.86925515433.83905.19589.501939.050000011305.652793.457041.601470.66.300.7505.420797.955496.911890.6503410.250000014797.83772.88591.5502433.310.50.451.9507.9510783.21642.956912.7502227.35000009475.81324.26106.0502045.43.300.1503.008562634201711231556241848.21901441.2875.39insert into tbl_power_info_v2(P_A_DIANYA,P_B_DIANYA,P_C_DIANYA,P_UAB_XIANDIANYA,P_UBC_XIANDIANYA,P_UCA_XIANDIANYA,P_A_DIANLIU,P_B_DIANLIU,P_C_DIANLIU,P_A_YGGL,P_B_YGGL,P_C_YGGL,P_HXYGGL,P_A_WGGL,P_B_WGGL,P_C_WGGL,P_HXWGGL,P_A_SZGL,P_B_SZGL,P_C_SZGL,P_HXSZGL,P_A_GLYS,P_B_GLYS,P_C_GLYS,P_HXGLYS,P_DWPL,P_BY_KwhZ,P_BY_KwhJ,P_BY_KwhF,P_BY_KwhP,P_BY_KwhG,P_BY_HKwhZ,P_BY_HKwhJ,P_BY_HKwhF,P_BY_HKwhP,P_BY_HKwhG, P_BY_KvarhZ,P_BY_KvarhJ,P_BY_KvarhF,P_BY_KvarhP,P_BY_KvarhG, P_BY_HKvarhZ,P_BY_HKvarhJ,P_BY_HKvarhF,P_BY_HKvarhP,P_BY_HKvarhG, P_SY_KwhZ,P_SY_KwhJ,P_SY_KwhF,P_SY_KwhP,P_SY_KwhG, P_SY_HKwhZ,P_SY_HKwhJ,P_SY_HKwhF,P_SY_HKwhP,P_SY_HKwhG, P_SY_KvarhZ,P_SY_KvarhJ,P_SY_KvarhF,P_SY_KvarhP,P_SY_KvarhG, P_SY_HKvarhZ,P_SY_HKvarhJ,P_SY_HKvarhF,P_SY_HKvarhP,P_SY_HKvarhG, P_SSY_KwhZ,P_SSY_KwhJ,P_SSY_KwhF,P_SSY_KwhP,P_SSY_KwhG, P_SSY_HKwhZ,P_SSY_HKwhJ,P_SSY_HKwhF,P_SSY_HKwhP,P_SSY_HKwhG, P_SSY_KvarhZ,P_SSY_KvarhJ,P_SSY_KvarhF,P_SSY_KvarhP,P_SSY_KvarhG, P_SSY_HKvarhZ,P_SSY_HKvarhJ,P_SSY_HKvarhF,P_SSY_HKvarhP,P_SSY_HKvarhG,P_CODE,P_TIME,P_ZXYGDN,P_FXYGDN,P_ZXWGDN,P_FXWGDN)values(234.069,233.772,233.866,405.04,404.866,405.126,94.23,93.96,93.48,15240,15450,15240,45930,15450,15150,15180,45780,22050,21960,21870,64860,0.691,0.703,0.698,0.708,49.869255,15433.8,3905.1,9589.5,0,1939.05,0,0,0,0,0,11305.65,2793.45,7041.6,0,1470.6,6.3,0,0.75,0,5.4,20797.95,5496.9,11890.65,0,3410.25,0,0,0,0,0,14797.8,3772.8,8591.55,0,2433.3,10.5,0.45,1.95,0,7.95,10783.2,1642.95,6912.75,0,2227.35,0,0,0,0,0,9475.8,1324.2,6106.05,0,2045.4,3.3,0,0.15,0,3.0085626,34,20171123155624,1848.219,0,1441.287,5.39)
写入成功读取完毕一个
write:23 03 00 38 00 34 C3 52
write:23 03 07 CF 00 78 72 21
write:23 03 01 0F 00 08 73 71
write:24 03 00 38 00 34 C2 E5
34 30 32
heart:34 30 32 37 32 32 35 36 30 34 38 32
write:24 03 07 CF 00 78 73 96
F9 7C 7B
heart:F9 7C 7B C6 F4 6A 85 A2 43 6A 25 60 43 6A 5D 71 43 CA E8 D5 43 CA D2 B0 43 CA FE FA 40 CE 66 66 40 C1 EB 85 41 21 47 AE 44 25 00 00 44 96 00 00 45 10 60 00 45 82 50 00 42 F0 00 00 00 00 00 00 42 70 00 00 42 F0 00 00 44 BB 80 00 44 B0 40 00 45 14 20 00 45 8C A0 00 3F 25 1E B8 3F 56 87 2B 3F 7B 64 5A 3F 80 00 00 42 47 36 4A
write:24 03 01 0F 00 08 72 C6
write:25 03 00 38 00 34 C3 34
write:25 03 07 CF 00 78 72 47
F9 CF D7
heart:F9 CF D7 5C 00 08 EF CF 00 00 00 00 00 08 C6 F2 00 00 9A 5D
25 03 F0
3745 48 88 00 43 B8 46 66 45 0B E4 CD 00 00 00 00 44 16 56 66 00 00 00 00 00 00 00 00 00 00 00 00 00 00 00 00 00 00 00 00 00 00 00 00 00 00 00 00 00 00 00 00 00 00 00 00 00 00 00 00 00 00 00 00 00 00 00 00 00 00 00 00 00 00 00 00 00 00 00 00 00 00 00 00 00 00 00 00 00 00 00 00 00 00 00 00 00 00 00 00 00 00 00 00 00 00 00 00 00 00 00 00 00 00 00 00 00 00 00 00 00 00 00 00 00 00 00 00 00 00 00 00 00 00 00 00 00 00 00 00 00 00 00 00 00 00 00 00 00 00 00 00 00 00 00 00 00 00 00 00 00 00 00 00 00 00 00 00 00 00 00 00 00 00 00 00 00 00 00 00 00 00 00 00 00 00 00 00 00 00 00 00 00 00 00 00 00 00 00 00 00 00 00 00 00 00 00 00 00 00 00 00 00 00 00 00 00 00 00 00 00 00 00 00 00 00 00 00 00 00 00 00 00 00 00 00 00 00 00 00
write:25 03 01 0F 00 08 73 17
00 00 00
heart:00 00 00 00 00 00 44 A5 94 CD 43 43 00 00 44 69 E3 33 00 00 00 00 43 41 F3 33 3F F9 99 9A 3E 99 99 9A 3E 19 99 9A 00 00 00 00 3F AC CC CD 45 5E 62 66 43 A5 E6 66 45 25 D8 00 00 00 00 00 44 0F 2C CD 00 00 00 00 00 00 00 00 00 00 00 00 00 00 00 00 00 00 00 00 45 0E 46 66 43 77 F3 33 44 D2 51 9A 00 00 00 00 43 AC E0 00 40 10 00 00 3E 99 99 9A 3F 19 99 9A 00 00 00 00 3F 99 99 9A 45 22 37 33 43 83 EC CD 44 F1 46 66 00 00 00 00 43 C8 A0 00 00 00 00 00 00 00 00 00 00 00 00 00 00 00 00 00 00 00 00 00 44 DC 50 00 43 48 19 9A 44 A5 5B 33 00 00 00 00 43 6F 66 66 40 E1 99 9A 40 66 66 66 40 10 00 00 00 00 00 00 3F 99 C9 DC
25 03 10
3700 06 4A DE 00 00 00 00 00 03 9B 70 00 00 78 9B
write:26 03 00 38 00 34 C3 07
26 03 68
3843 69 7A A0 43 69 6E D9 43 69 48 F6 43 CA 21 48 43 CA 0B 23 43 CA 0B 23 42 09 47 AE 41 C1 70 A4 41 F0 3D 71 45 8F 70 00 45 4C 60 00 45 AE 60 00 46 52 00 00 45 A9 B0 00 45 70 00 00 45 59 80 00 46 47 38 00 45 FA 50 00 45 B0 40 00 45 DA 70 00 46 90 D8 00 3F 12 6E 98 3F 14 7A E1 3F 4B C6 A8 3F 39 99 9A 42 47 69 C8
write:26 03 07 CF 00 78 72 74
26 03 F0
3845 3A 9C 00 42 20 33 33 45 09 DE 66 00 00 00 00 44 38 E0 00 40 53 33 33 00 00 00 00 40 23 33 33 00 00 00 00 3F 19 99 9A 45 2E 7A 66 40 40 00 00 45 05 5C 00 00 00 00 00 44 23 B0 00 42 84 4C CD 41 86 66 66 41 68 CC CD 00 00 00 00 42 0A 99 9A 44 90 73 33 42 5B 00 00 44 55 13 33 00 00 00 00 43 78 66 66 3F AC CC CD 00 00 00 00 3F 86 66 66 00 00 00 00 3E 19 99 9A 44 00 00 00 00 00 00 00 00 00 00 00 00 00 00 00 00 00 00 00 00 00 00 00 00 00 00 00 00 00 00 00 00 00 00 00 00 00 00 00 00 00 00 00 00 00 00 00 00 00 00 00 00 00 00 00 00 00 00 00 00 00 00 00 00 00 00 00 00 00 00 00 00 00 00 00 00 00 00 00 00 00 00 00 00 00 00 00 00 00 00 00 00 00 00 00 00 00 00 00 00 00 00 00 00 00 00 00 00 00 00 00 00 00 00 00 00 00 00 00
89 53 33
heart:89 53 33 42 2F CC CD 44 50 FC CD 00 00 00 00 43 5A 8C CD 41 C6 00 00 40 C9 99 9A 40 A8 00 00 00 00 00 00 41 50 CC CD 42 AF 33 33 40 19 99 9A 42 77 CC CD 00 00 00 00 41 B8 CC CD 00 00 00 00 00 00 00 00 00 00 00 00 00 00 00 00 00 00 00 00 42 1D 33 33 3F C0 00 00 41 E7 99 9A 00 00 00 00 41 0B 33 33 41 01 99 9A 3E 99 99 9A 40 B6 66 66 00 00 00 00 3F F9 58 EA
write:26 03 01 0F 00 08 73 24
26 03 10
3800 02 3F 68 00 00 00 9F 00 02 04 65 00 00 5A 7B
43 69 7A A0
233.479
43 69 6E D9
233.433
43 69 48 F6
233.285
43 CA 21 48
404.26
43 CA 0B 23
404.087
43 CA 0B 23
404.087
42 09 47 AE
34.32
41 C1 70 A4
24.18
41 F0 3D 71
30.03
45 8F 70 00
4590
45 4C 60 00
3270
45 AE 60 00
5580
46 52 00 00
13440
45 A9 B0 00
5430
45 70 00 00
3840
45 59 80 00
3480
46 47 38 00
12750
45 FA 50 00
8010
45 B0 40 00
5640
45 DA 70 00
6990
46 90 D8 00
18540
3F 12 6E 98
0.572
3F 14 7A E1
0.58
3F 4B C6 A8
0.796
3F 39 99 9A
0.725
42 47 69 C8
49.853302
45 3A 9C 00
2985.75
42 20 33 33
40.05
45 09 DE 66
2205.9
00 00 00 00
0
44 38 E0 00
739.5
40 53 33 33
3.3
00 00 00 00
0
40 23 33 33
2.55
00 00 00 00
0
3F 19 99 9A
0.6
45 2E 7A 66
2791.65
40 40 00 00
3
45 05 5C 00
2133.75
00 00 00 00
0
44 23 B0 00
654.75
42 84 4C CD
66.15
41 86 66 66
16.8
41 68 CC CD
14.55
00 00 00 00
0
42 0A 99 9A
34.65
44 90 73 33
1155.6
42 5B 00 00
54.75
44 55 13 33
852.3
00 00 00 00
0
43 78 66 66
248.4
3F AC CC CD
1.35
00 00 00 00
0
3F 86 66 66
1.05
00 00 00 00
0
3E 19 99 9A
0.15
44 00 00 00
512
00 00 00 00
0
00 00 00 00
0
00 00 00 00
0
00 00 00 00
0
00 00 00 00
0
00 00 00 00
0
00 00 00 00
0
00 00 00 00
0
00 00 00 00
0
00 00 00 00
0
00 00 00 00
0
00 00 00 00
0
00 00 00 00
0
00 00 00 00
0
00 00 00 00
0
00 00 00 00
0
00 00 00 00
0
00 00 00 00
0
00 00 00 00
0
00 00 00 00
0
00 00 00 00
0
00 00 00 00
0
00 00 00 00
0
00 00 00 00
0
00 00 00 00
0
00 00 00 00
0
00 00 00 00
0
00 00 00 00
0
00 00 00 00
0
00 02 3F 68
147304
00 00 00 9F
159
00 02 04 65
132197
00 00 5A 7B
23163
233.479233.433233.285404.26404.087404.08734.3224.1830.034590327055801344054303840348012750801056406990185400.5720.580.7960.72549.8533022985.7540.052205.90739.53.302.5500.62791.6532133.750654.7566.1516.814.55034.651155.654.75852.30248.41.3501.0500.15512000000000000000000000000000003820171123160101147.3040.159132.19723.163insert into tbl_power_info_v2(P_A_DIANYA,P_B_DIANYA,P_C_DIANYA,P_UAB_XIANDIANYA,P_UBC_XIANDIANYA,P_UCA_XIANDIANYA,P_A_DIANLIU,P_B_DIANLIU,P_C_DIANLIU,P_A_YGGL,P_B_YGGL,P_C_YGGL,P_HXYGGL,P_A_WGGL,P_B_WGGL,P_C_WGGL,P_HXWGGL,P_A_SZGL,P_B_SZGL,P_C_SZGL,P_HXSZGL,P_A_GLYS,P_B_GLYS,P_C_GLYS,P_HXGLYS,P_DWPL,P_BY_KwhZ,P_BY_KwhJ,P_BY_KwhF,P_BY_KwhP,P_BY_KwhG,P_BY_HKwhZ,P_BY_HKwhJ,P_BY_HKwhF,P_BY_HKwhP,P_BY_HKwhG, P_BY_KvarhZ,P_BY_KvarhJ,P_BY_KvarhF,P_BY_KvarhP,P_BY_KvarhG, P_BY_HKvarhZ,P_BY_HKvarhJ,P_BY_HKvarhF,P_BY_HKvarhP,P_BY_HKvarhG, P_SY_KwhZ,P_SY_KwhJ,P_SY_KwhF,P_SY_KwhP,P_SY_KwhG, P_SY_HKwhZ,P_SY_HKwhJ,P_SY_HKwhF,P_SY_HKwhP,P_SY_HKwhG, P_SY_KvarhZ,P_SY_KvarhJ,P_SY_KvarhF,P_SY_KvarhP,P_SY_KvarhG, P_SY_HKvarhZ,P_SY_HKvarhJ,P_SY_HKvarhF,P_SY_HKvarhP,P_SY_HKvarhG, P_SSY_KwhZ,P_SSY_KwhJ,P_SSY_KwhF,P_SSY_KwhP,P_SSY_KwhG, P_SSY_HKwhZ,P_SSY_HKwhJ,P_SSY_HKwhF,P_SSY_HKwhP,P_SSY_HKwhG, P_SSY_KvarhZ,P_SSY_KvarhJ,P_SSY_KvarhF,P_SSY_KvarhP,P_SSY_KvarhG, P_SSY_HKvarhZ,P_SSY_HKvarhJ,P_SSY_HKvarhF,P_SSY_HKvarhP,P_SSY_HKvarhG,P_CODE,P_TIME,P_ZXYGDN,P_FXYGDN,P_ZXWGDN,P_FXWGDN)values(233.479,233.433,233.285,404.26,404.087,404.087,34.32,24.18,30.03,4590,3270,5580,13440,5430,3840,3480,12750,8010,5640,6990,18540,0.572,0.58,0.796,0.725,49.853302,2985.75,40.05,2205.9,0,739.5,3.3,0,2.55,0,0.6,2791.65,3,2133.75,0,654.75,66.15,16.8,14.55,0,34.65,1155.6,54.75,852.3,0,248.4,1.35,0,1.05,0,0.15,512,0,0,0,0,0,0,0,0,0,0,0,0,0,0,0,0,0,0,0,0,0,0,0,0,0,0,0,0,0,38,20171123160101,147.304,0.159,132.197,23.163)
写入成功读取完毕一个
write:27 03 00 38 00 34 C2 D6
27 03 68
3943 6A 2F 5C 43 69 D9 17 43 6A 01 CB 43 CA 9B 44 43 CA 90 21 43 CA B1 68 00 00 00 00 00 00 00 00 41 06 66 66 00 00 00 00 00 00 00 00 44 EC 40 00 44 EC 40 00 00 00 00 00 00 00 00 00 42 B4 00 00 42 F0 00 00 00 00 00 00 00 00 00 00 44 F3 C0 00 44 F0 00 00 00 00 00 00 00 00 00 00 3F 75 3F 7D 3F 7F 7C EE 42 48 AE B5
write:27 03 07 CF 00 78 73 A5
27 03 F0
3943 80 C6 66 41 10 00 00 43 37 C0 00 00 00 00 00 42 81 4C CD 00 00 00 00 00 00 00 00 00 00 00 00 00 00 00 00 00 00 00 00 42 F7 80 00 00 00 00 00 42 C2 B3 33 00 00 00 00 41 D3 33 33 40 AC CC CD 00 00 00 00 40 86 66 66 00 00 00 00 3F 86 66 66 43 0C 66 66 41 38 CC CD 42 A5 E6 66 00 00 00 00 42 37 99 9A 00 00 00 00 00 00 00 00 00 00 00 00 00 00 00 00 00 00 00 00 3F AC CC CD 00 00 00 00 3F 19 99 9A 00 00 00 00 3F 19 99 9A 41 08 CC CD 00 00 00 00 40 D8 00 00 00 00 00 00 3F E6 66 66 43 68 59 9A 41 38 CC CD 43 1A CC CD 00 00 00 00 42 83 B3 33 00 00 00 00 00 00 00 00 00 00 00 00 00 00 00 00 00 00 00 00 41 8A 00 00 00 00 00 00 41 77 33 33 00 00 00 00 3F D3 33 33 41 88 CC CD 3E 19 99 9A 41 53 33 33 00 00 00 00 00 00 00 00
00 00 00
heart:00 00 00 40 66 EE FA
write:27 03 01 0F 00 08 72 F5
27 03 10
3900 01 3B 85 00 00 00 00 00 00 39 7B 00 00 84 87
43 6A 2F 5C
234.185
43 69 D9 17
233.848
43 6A 01 CB
234.007
43 CA 9B 44
405.213
43 CA 90 21
405.126
43 CA B1 68
405.386
00 00 00 00
0
00 00 00 00
0
41 06 66 66
8.4
00 00 00 00
0
00 00 00 00
0
44 EC 40 00
1890
44 EC 40 00
1890
00 00 00 00
0
00 00 00 00
0
42 B4 00 00
90
42 F0 00 00
120
00 00 00 00
0
00 00 00 00
0
44 F3 C0 00
1950
44 F0 00 00
1920
00 00 00 00
0
00 00 00 00
0
3F 75 3F 7D
0.958
3F 7F 7C EE
0.998
42 48 AE B5
50.170612
43 80 C6 66
257.55
41 10 00 00
9
43 37 C0 00
183.75
00 00 00 00
0
42 81 4C CD
64.65
00 00 00 00
0
00 00 00 00
0
00 00 00 00
0
00 00 00 00
0
00 00 00 00
0
42 F7 80 00
123.75
00 00 00 00
0
42 C2 B3 33
97.35
00 00 00 00
0
41 D3 33 33
26.4
40 AC CC CD
5.4
00 00 00 00
0
40 86 66 66
4.2
00 00 00 00
0
3F 86 66 66
1.05
43 0C 66 66
140.4
41 38 CC CD
11.55
42 A5 E6 66
82.95
00 00 00 00
0
42 37 99 9A
45.9
00 00 00 00
0
00 00 00 00
0
00 00 00 00
0
00 00 00 00
0
00 00 00 00
0
3F AC CC CD
1.35
00 00 00 00
0
3F 19 99 9A
0.6
00 00 00 00
0
3F 19 99 9A
0.6
41 08 CC CD
8.55
00 00 00 00
0
40 D8 00 00
6.75
00 00 00 00
0
3F E6 66 66
1.8
43 68 59 9A
232.35
41 38 CC CD
11.55
43 1A CC CD
154.8
00 00 00 00
0
42 83 B3 33
65.85
00 00 00 00
0
00 00 00 00
0
00 00 00 00
0
00 00 00 00
0
00 00 00 00
0
41 8A 00 00
17.25
00 00 00 00
0
41 77 33 33
15.45
00 00 00 00
0
3F D3 33 33
1.65
41 88 CC CD
17.1
3E 19 99 9A
0.15
41 53 33 33
13.2
00 00 00 00
0
00 00 00 00
0
00 01 3B 85
80773
00 00 00 00
0
00 00 39 7B
14715
00 00 84 87
33927
234.185233.848234.007405.213405.126405.386008.4001890189000901200019501920000.9580.99850.170612257.559183.75064.6500000123.75097.35026.45.404.201.05140.411.5582.95045.9000001.3500.600.68.5506.7501.8232.3511.55154.8065.850000017.25015.4501.6517.10.1513.200392017112316021080.773014.71533.927insert into tbl_power_info_v2(P_A_DIANYA,P_B_DIANYA,P_C_DIANYA,P_UAB_XIANDIANYA,P_UBC_XIANDIANYA,P_UCA_XIANDIANYA,P_A_DIANLIU,P_B_DIANLIU,P_C_DIANLIU,P_A_YGGL,P_B_YGGL,P_C_YGGL,P_HXYGGL,P_A_WGGL,P_B_WGGL,P_C_WGGL,P_HXWGGL,P_A_SZGL,P_B_SZGL,P_C_SZGL,P_HXSZGL,P_A_GLYS,P_B_GLYS,P_C_GLYS,P_HXGLYS,P_DWPL,P_BY_KwhZ,P_BY_KwhJ,P_BY_KwhF,P_BY_KwhP,P_BY_KwhG,P_BY_HKwhZ,P_BY_HKwhJ,P_BY_HKwhF,P_BY_HKwhP,P_BY_HKwhG, P_BY_KvarhZ,P_BY_KvarhJ,P_BY_KvarhF,P_BY_KvarhP,P_BY_KvarhG, P_BY_HKvarhZ,P_BY_HKvarhJ,P_BY_HKvarhF,P_BY_HKvarhP,P_BY_HKvarhG, P_SY_KwhZ,P_SY_KwhJ,P_SY_KwhF,P_SY_KwhP,P_SY_KwhG, P_SY_HKwhZ,P_SY_HKwhJ,P_SY_HKwhF,P_SY_HKwhP,P_SY_HKwhG, P_SY_KvarhZ,P_SY_KvarhJ,P_SY_KvarhF,P_SY_KvarhP,P_SY_KvarhG, P_SY_HKvarhZ,P_SY_HKvarhJ,P_SY_HKvarhF,P_SY_HKvarhP,P_SY_HKvarhG, P_SSY_KwhZ,P_SSY_KwhJ,P_SSY_KwhF,P_SSY_KwhP,P_SSY_KwhG, P_SSY_HKwhZ,P_SSY_HKwhJ,P_SSY_HKwhF,P_SSY_HKwhP,P_SSY_HKwhG, P_SSY_KvarhZ,P_SSY_KvarhJ,P_SSY_KvarhF,P_SSY_KvarhP,P_SSY_KvarhG, P_SSY_HKvarhZ,P_SSY_HKvarhJ,P_SSY_HKvarhF,P_SSY_HKvarhP,P_SSY_HKvarhG,P_CODE,P_TIME,P_ZXYGDN,P_FXYGDN,P_ZXWGDN,P_FXWGDN)values(234.185,233.848,234.007,405.213,405.126,405.386,0,0,8.4,0,0,1890,1890,0,0,90,120,0,0,1950,1920,0,0,0.958,0.998,50.170612,257.55,9,183.75,0,64.65,0,0,0,0,0,123.75,0,97.35,0,26.4,5.4,0,4.2,0,1.05,140.4,11.55,82.95,0,45.9,0,0,0,0,0,1.35,0,0.6,0,0.6,8.55,0,6.75,0,1.8,232.35,11.55,154.8,0,65.85,0,0,0,0,0,17.25,0,15.45,0,1.65,17.1,0.15,13.2,0,0,39,20171123160210,80.773,0,14.715,33.927)
写入成功读取完毕一个
write:28 03 00 38 00 34 C2 29
28 03 68
4043 69 63 54 43 69 51 68 43 69 73 75 43 CA 0B 23 43 CA 16 46 43 CA 16 46 00 00 00 00 00 00 00 00 00 00 00 00 00 00 00 00 00 00 00 00 00 00 00 00 42 70 00 00 00 00 00 00 00 00 00 00 00 00 00 00 00 00 00 00 00 00 00 00 42 70 00 00 00 00 00 00 42 70 00 00 00 00 00 00 3F 30 A3 D7 00 00 00 00 3F 79 58 10 42 48 6E 54
write:28 03 07 CF 00 78 73 5A
write:28 03 01 0F 00 08 72 0A
write:29 03 00 38 00 34 C3 F8
EB FD FF
heart:EB FD FF EF EB 43 1C 4C CD 41 01 99 9A 42 E3 19 9A 00 00 00 00 42 0A 00 00 00 00 00 00 00 00 00 00 00 00 00 00 00 00 00 00 00 00 00 00 42 B1 99 9A 40 9E 66 66 42 76 99 9A 00 00 00 00 41 AF 33 33 3E E6 66 66 00 00 00 00 3E E6 66 66 00 00 00 00 00 00 00 00 43 2B C0 00 41 20 CC CD 42 D2 4C CD 00 00 00 00 42 61 99 9A 00 00 00 00 00 00 00 00 00 00 00 00 00 00 00 00 00 00 00 00 42 58 99 9A 40 E1 99 9A 41 D4 66 66 00 00 00 00 41 A3 33 33 3E 19 99 9A 00 00 00 00 3E 19 99 9A 00 00 00 00 00 00 00 00 44 49 69 9A 41 77 33 33 43 FD 59 9A 00 00 00 00 43 8D AC CD 00 00 00 00 00 00 00 00 00 00 00 00 00 00 00 00 00 00 00 00 43 67 73 33 41 1C 00 00 43 14 33 33 00 00 00 00 42 93 00 00 3E 19 99 9A 00 00 00 00 00 00 00 00 00 00 00 00 00 00 C7 79
write:29 03 07 CF 00 78 72 8B
29 03 68
4143 6A 01 48 43 69 EF 5C 43 69 DC 29 43 CA 9B 44 43 CA 85 1F 43 CA 90 21 00 00 00 00 40 88 51 EC 40 3C 28 F6 00 00 00 00 44 7F 00 00 43 D2 00 00 44 B4 00 00 00 00 00 00 00 00 00 00 42 F0 00 00 43 34 00 00 00 00 00 00 44 7F 00 00 44 34 00 00 44 BB 80 00 00 00 00 00 3F 7E F9 DB 3F 24 5A 1D 3F 7D 70 A4 42 48 8B D7
write:29 03 01 0F 00 08 73 DB
write:2A 03 00 38 00 34 C3 CB
FB 7F FF
heart:FB 7F FF EF 4A 44 23 A6 66 40 F9 99 9A 43 EF B3 33 41 01 99 9A 43 1F 00 00 00 00 00 00 00 00 00 00 00 00 00 00 00 00 00 00 00 00 00 00 44 0E 20 00 00 00 00 00 43 E4 26 66 00 00 00 00 42 DF 33 33 42 AB 99 9A 40 E6 66 66 42 04 00 00 40 F9 99 9A 42 16 00 00 43 D1 D9 9A 40 90 00 00 43 A3 80 00 40 90 00 00 42 A6 33 33 00 00 00 00 00 00 00 00 00 00 00 00 00 00 00 00 00 00 00 00 43 A4 B3 33 3E 99 99 9A 43 8E
33 33 3E
heart:33 33 3E 99 99 9A 42 2F 33 33 42 9F 00 00 40 F9 99 9A 41 E1 99 9A 41 01 99 9A 42 0C 66 66 43 D6 F3 33 40 06 66 66 43 9B B3 33 40 06 66 66 42 E4 00 00 00 00 00 00 00 00 00 00 00 00 00 00 00 00 00 00 00 00 00 00 43 E1 E6 66 3F 99 99 9A 43 AF F3 33 3F C0 00 00 42 C1 33 33 42 35 33 33 40 B6 66 66 41 2C CC CD 40 C0 00 00 41 B1 D4 9D
write:2A 03 07 CF 00 78 72 B8
2A 03 68
4243 69 87 2B 43 69 0A C1 43 69 1E B8 43 CA 00 00 43 C9 D3 B6 43 CA 0B 23 41 BD C2 8F 42 30 A3 D7 41 B6 B8 52 45 AC 80 00 46 1E C0 00 45 A5 00 00 46 A3 C0 00 43 8C 00 00 44 93 80 00 44 11 00 00 44 FF 00 00 45 AD 20 00 46 20 A0 00 45 A6 40 00 46 A4 88 00 3F 7F 3B 64 3F 7C ED 91 3F 7D F3 B6 3F 7E B8 52 42 47 3A 64
2A 03 F0
4245 D3 3F 33 44 83 29 9A 45 4C 1C CD 00 00 00 00 45 18 CB 33 00 00 00 00 00 00 00 00 00 00 00 00 00 00 00 00 00 00 00 00 40 73 33 33 00 00 00 00 3F E6 66 66 00 00 00 00 40 00 00 00 44 2F 73 33 42 D1 00 00 43 AE B3 33 00 00 00 00 43 77 CC CD 46 02 2F 33 44 AB 10 00 45 84 08 CD 00 00 00 00 45 2B 21 9A 00 00 00 00 00 00 00 00 00 00 00 00 00 00 00 00 00 00 00 00 40 40 00 00 00 00 00 00 40 39 99 9A 00 00 00 00 00 00 00 00 44 66 F3 33 43 13 80 00 43 D3 80 00 00 00 00 00 43 B0 99 9A 46 14 A7 9A 44 C0 90 00 45 95 06 66 00 00 00 00 45 48 48 00 00 00 00 00 00 00 00 00 00 00 00 00 00 00 00 00 00 00 00 00 43 B7 CC CD 42 58 00 00 43 24 99 9A 00 00 00 00 43 14 CC CD 44 1B B3 33 42 D3 00 00 43 7B E6 66 00 00 00 00 43 84 1C 90
write:2A 03 01 0F 00 08 73 E8
2A 03 10
4200 30 AE 9B 00 00 00 00 00 02 48 64 00 03 55 C5
43 69 87 2B
233.528
43 69 0A C1
233.042
43 69 1E B8
233.12
43 CA 00 00
404
43 C9 D3 B6
403.654
43 CA 0B 23
404.087
41 BD C2 8F
23.72
42 30 A3 D7
44.16
41 B6 B8 52
22.84
45 AC 80 00
5520
46 1E C0 00
10160
45 A5 00 00
5280
46 A3 C0 00
20960
43 8C 00 00
280
44 93 80 00
1180
44 11 00 00
580
44 FF 00 00
2040
45 AD 20 00
5540
46 20 A0 00
10280
45 A6 40 00
5320
46 A4 88 00
21060
3F 7F 3B 64
0.997
3F 7C ED 91
0.988
3F 7D F3 B6
0.992
3F 7E B8 52
0.995
42 47 3A 64
49.807022
45 D3 3F 33
6759.9
44 83 29 9A
1049.3
45 4C 1C CD
3265.8
00 00 00 00
0
45 18 CB 33
2444.7
00 00 00 00
0
00 00 00 00
0
00 00 00 00
0
00 00 00 00
0
00 00 00 00
0
40 73 33 33
3.8
00 00 00 00
0
3F E6 66 66
1.8
00 00 00 00
0
40 00 00 00
2
44 2F 73 33
701.8
42 D1 00 00
104.5
43 AE B3 33
349.4
00 00 00 00
0
43 77 CC CD
247.8
46 02 2F 33
8331.8
44 AB 10 00
1368.5
45 84 08 CD
4225.1
00 00 00 00
0
45 2B 21 9A
2738.1
00 00 00 00
0
00 00 00 00
0
00 00 00 00
0
00 00 00 00
0
00 00 00 00
0
40 40 00 00
3
00 00 00 00
0
40 39 99 9A
2.9
00 00 00 00
0
00 00 00 00
0
44 66 F3 33
923.8
43 13 80 00
147.5
43 D3 80 00
423
00 00 00 00
0
43 B0 99 9A
353.2
46 14 A7 9A
9513.9
44 C0 90 00
1540.5
45 95 06 66
4768.8
00 00 00 00
0
45 48 48 00
3204.5
00 00 00 00
0
00 00 00 00
0
00 00 00 00
0
00 00 00 00
0
00 00 00 00
0
43 B7 CC CD
367.6
42 58 00 00
54
43 24 99 9A
164.6
00 00 00 00
0
43 14 CC CD
148.8
44 1B B3 33
622.8
42 D3 00 00
105.5
43 7B E6 66
251.9
00 00 00 00
0
43 84 1C 90
264.22314
00 30 AE 9B
3190427
00 00 00 00
0
00 02 48 64
149604
00 03 55 C5
218565
233.528233.042233.12404403.654404.08723.7244.1622.84552010160528020960280118058020405540102805320210600.9970.9880.9920.99549.8070226759.91049.33265.802444.7000003.801.802701.8104.5349.40247.88331.81368.54225.102738.100000302.900923.8147.54230353.29513.91540.54768.803204.500000367.654164.60148.8622.8105.5251.90264.2231442201711231605363190.4270149.604218.565insert into tbl_power_info_v2(P_A_DIANYA,P_B_DIANYA,P_C_DIANYA,P_UAB_XIANDIANYA,P_UBC_XIANDIANYA,P_UCA_XIANDIANYA,P_A_DIANLIU,P_B_DIANLIU,P_C_DIANLIU,P_A_YGGL,P_B_YGGL,P_C_YGGL,P_HXYGGL,P_A_WGGL,P_B_WGGL,P_C_WGGL,P_HXWGGL,P_A_SZGL,P_B_SZGL,P_C_SZGL,P_HXSZGL,P_A_GLYS,P_B_GLYS,P_C_GLYS,P_HXGLYS,P_DWPL,P_BY_KwhZ,P_BY_KwhJ,P_BY_KwhF,P_BY_KwhP,P_BY_KwhG,P_BY_HKwhZ,P_BY_HKwhJ,P_BY_HKwhF,P_BY_HKwhP,P_BY_HKwhG, P_BY_KvarhZ,P_BY_KvarhJ,P_BY_KvarhF,P_BY_KvarhP,P_BY_KvarhG, P_BY_HKvarhZ,P_BY_HKvarhJ,P_BY_HKvarhF,P_BY_HKvarhP,P_BY_HKvarhG, P_SY_KwhZ,P_SY_KwhJ,P_SY_KwhF,P_SY_KwhP,P_SY_KwhG, P_SY_HKwhZ,P_SY_HKwhJ,P_SY_HKwhF,P_SY_HKwhP,P_SY_HKwhG, P_SY_KvarhZ,P_SY_KvarhJ,P_SY_KvarhF,P_SY_KvarhP,P_SY_KvarhG, P_SY_HKvarhZ,P_SY_HKvarhJ,P_SY_HKvarhF,P_SY_HKvarhP,P_SY_HKvarhG, P_SSY_KwhZ,P_SSY_KwhJ,P_SSY_KwhF,P_SSY_KwhP,P_SSY_KwhG, P_SSY_HKwhZ,P_SSY_HKwhJ,P_SSY_HKwhF,P_SSY_HKwhP,P_SSY_HKwhG, P_SSY_KvarhZ,P_SSY_KvarhJ,P_SSY_KvarhF,P_SSY_KvarhP,P_SSY_KvarhG, P_SSY_HKvarhZ,P_SSY_HKvarhJ,P_SSY_HKvarhF,P_SSY_HKvarhP,P_SSY_HKvarhG,P_CODE,P_TIME,P_ZXYGDN,P_FXYGDN,P_ZXWGDN,P_FXWGDN)values(233.528,233.042,233.12,404,403.654,404.087,23.72,44.16,22.84,5520,10160,5280,20960,280,1180,580,2040,5540,10280,5320,21060,0.997,0.988,0.992,0.995,49.807022,6759.9,1049.3,3265.8,0,2444.7,0,0,0,0,0,3.8,0,1.8,0,2,701.8,104.5,349.4,0,247.8,8331.8,1368.5,4225.1,0,2738.1,0,0,0,0,0,3,0,2.9,0,0,923.8,147.5,423,0,353.2,9513.9,1540.5,4768.8,0,3204.5,0,0,0,0,0,367.6,54,164.6,0,148.8,622.8,105.5,251.9,0,264.22314,42,20171123160536,3190.427,0,149.604,218.565)
写入成功读取完毕一个
write:2B 03 00 38 00 34 C2 1A
write:2B 03 07 CF 00 78 73 69
write:2B 03 01 0F 00 08 72 39
write:2C 03 00 38 00 34 C3 AD
2B 03 68
4343 68 CE 56 43 68 C6 E9 43 68 C3 54 43 C9 91 27 43 C9 86 25 43 C9 91 27 41 0C CC CD 40 D9 99 9A 40 82 8F 5C 44 E1 00 00 44 A0 00 00 44 52 00 00 45 75 00 00 43 C8 00 00 43 48 00 00 43 A0 00 00 44 66 00 00 44 FF 00 00 44 C8 00 00 44 70 00 00 45 7C 80 00 3F 64 5A 1D 3F 4C 8B 44 3F 64 18 93 3F 79 16 87 42 48 DE FE
2B 03 F0
4345 C2 C3 33 44 B4 60 00 45 23 D6 66 00 00 00 00 45 07 80 00 00 00 00 00 00 00 00 00 00 00 00 00 00 00 00 00 00 00 00 00 44 FB 79 9A 44 17 0C CD 44 92 D3 33 00 00 00 00 43 68 CC CD 42 9C CC CD 40 E0 00 00 40 8C CC CD 00 00 00 00 42 86 00 00 45 AB 83 33 44 C5 D3 33 44 EA 46 66 00 00 00 00 44 FD F3 33 00 00 00 00 00 00 00 00 00 00 00 00 00 00 00 00 00 00 00 00 44 C3 93 33 44 12 66 66 44 3F F3 33 00 00 00 00 43 53 33 33 43 40 CC CD 42 07 33 33 41 C1 99 9A 00 00 00 00 43 06 99 9A 45 53 13 33 44 5A 99 9A 44 F5 06 66 00 00 00 00 44 07 99 9A 00 00 00 00 00 00 00 00 00 00 00 00 00 00 00 00 00 00 00 00 00 00 00 00 00 00 00 00 00 00 00 00 00 00 00 00 00 00 00 00 00 00 00 00 00 00 00 00 00 00 00 00 00 00 00 00 00 00 00 00
00 00 00
heart:00 00 00 00 00 00 00 00 00 00 00 00 00 44 53 40 00 43 AE 99 9A 43 E0 19 9A 00 00 00 00 42 3D 99 9A 42 09 99 9A 40 D9 99 9A 41 00 00 00 00 00 00 00 41 9C E7 DF EB FF EF F7 94 00 06 67 0E 00 00 00 00 00 01 E2 C9 00 00 67 A4
write:2C 03 07 CF 00 78 72 DE
2C 03 F0
4445 33 D6 66 44 09 B3 33 44 EE 66 66 00 00 00 00 43 D1 80 00 00 00 00 00 00 00 00 00 00 00 00 00 00 00 00 00 00 00 00 00 00 00 00 00 00 00 00 00 00 00 00 00 00 00 00 00 00 00 00 00 00 00 00 00 00 00 00 00 00 00 00 00 00 00 00 00 00 00 00 00 00 00 00 00 00 00 00 00 00 00 00 00 00 00 00 00 00 00 00 00 00 00 00 00 00 00 00 00 00 00 00 00 00 00 00 00 00 00 00 00 00 00 00 00 00 00 00 00 00 00 00 00 00 00 00 00 00 00 00 00 00 00 00 00 00 00 00 00 00 00 00 00 00 00 00 00 00 00 00 00 00 00 00 00 00 00 00 00 00 00 00 00 00 00 00 00 00 00 00 00 00 00 00 00 00 00 00 00 00 00 00 00 00 00 00 00 00 00 00 00 00 00 00 00 00 00 00 00 00 00 00 00 00 00 00 00 00 00 00 00 00 00 00 00 00 00 00 00 00 00 00 00 00 00 00 00 00 00 00 00
00 00 00
heart:00 00 00 00 00 00 00 00 00 44 B1 E0 00 43 8F CC CD 44 71 F3 33 00 00 00 00 43 27 66 66 42 7B 33 33 41 46 66 66 42 0F 33 33 00 00 00 00 41 63 33 33 45 5D 1C CD 44 48 F3 33 45 05 66 66 00 00 00 00 44 15 E6 66 00 00 00 00 00 00 00 00 00 00 00 00 00 00 00 00 00 00 00 00 44 8B 99 9A 43 18 00 00 44 48 D9 9A 00 00 00 00 43 21 33 33 43 27 99 9A 42 5C 00 00 42 98 66 66 00 00 00 00 42 10 00 00 45 29 09 9A 44 2A 99 9A 44 BC F9 9A 00 00 00 00 43 FF 19 9A 00 00 00 00 00 00 00 00 00 00 00 00 00 00 00 00 00 00 00 00 43 B2 19 9A 42 69 99 9A 43 6E 33 33 00 00 00 00 42 6D 99 9A 43 51 99 9A 42 63 33 33 42 DC CC CD 00 00 00 00 42 28 0F 11
write:2C 03 01 0F 00 08 73 8E
2C 03 10
4400 04 D9 79 00 00 00 00 00 01 49 CC 00 00 FE EB
write:2D 03 00 38 00 34 C2 7C
2D 03 68
4543 6A 77 CF 43 6A 25 60 43 69 F7 CF 43 CA DD B2 43 CA A6 46 43 CA C7 8D 41 86 B8 52 40 B7 0A 3D 41 6E 14 7B 45 59 80 00 44 70 00 00 45 07 00 00 45 CE 40 00 43 B4 00 00 43 70 00 00 44 52 00 00 44 B4 00 00 45 77 80 00 44 AA 00 00 45 59 80 00 45 D3 40 00 3F 62 8F 5C 3F 33 33 33 3F 1F BE 77 3F 7A 1C AC 42 48 DC 01
write:2D 03 07 CF 00 78 73 0F
2D 03 F0
4545 4D 83 33 43 E8 66 66 45 0D F0 00 00 00 00 00 44 0A 00 00 00 00 00 00 00 00 00 00 00 00 00 00 00 00 00 00 00 00 00 00 40 F9 99 9A 3F 19 99 9A 40 D3 33 33 00 00 00 00 3E 4C CC CD 44 4F 19 9A 43 0A 99 9A 43 BB E6 66 00 00 00 00 43 9D 00 00 45 59 E9 9A 44 17 99 9A 45 0A CC CD 00 00 00 00 44 24 CC CD 00 00 00 00 00 00 00 00 00 00 00 00 00 00 00 00 00 00 00 00 00 00 00 00 00 00 00 00 00 00 00 00 00 00 00 00 00 00 00 00 00 00 00 00 00 00 00 00 00 00 00 00 00 00 00 00 00 00 00 00 00 00 00 00 00 00 00 00 00 00 00 00 00 00 00 00 00 00 00 00 00 00 00 00 00 00 00 00 00 00 00 00 00 00 00 00 00 00 00 00 00 00 00 00 00 00 00 00 00 00 00 00 00 00 00 00 00 00 00 00 00 00 00 00 00 00 00 00 00 00 00 00 00 00 00 00 00 00 00 00
00 00 00
heart:00 00 00 00 00 00 00 00 00 00 00 00 00 00 00 00 00 3F B3 33 33 3E 4C CC CD 3F 80 00 00 00 00 00 00 00 00 00 00 44 A2 A6 66 43 6C CC CD 44 1D F3 33 00 00 00 00 43 D8 33 33 45 38 96 66 43 C5 00 00 44 F1 8C CD 00 00 00 00 44 1C B3 33 00 00 00 00 00 00 00 00 00 00 00 00 00 00 00 00 00 00 00 00 3E CC CC CD 00 00 00 00 3E 4C CC CD 00 00 00 00 00 00 00 00 44 8E C0 00 43 45 66 66 44 05 E6 66 00 00 00 00 43 CC B0 2A
signal: killed
