nohup: ignoring input
Listening on :6004
received messag ?->? 
 124.160.216.100:58358 172.16.246.153:6004
write:21 03 00 38 00 34 C2 B0
34 30 32
heart:34 30 32 37 32 32 35 36 30 34 38 32
write:21 03 07 CF 00 78 73 C3
write:21 03 01 0F 00 08 72 93
write:22 03 00 38 00 34 C2 83
write:22 03 07 CF 00 78 73 F0
34 30 32
heart:34 30 32 37 32 32 35 36 30 34 38 32
write:22 03 01 0F 00 08 72 A0
write:23 03 00 38 00 34 C3 52
write:23 03 07 CF 00 78 72 21
write:23 03 01 0F 00 08 73 71
22 34 30
heart:22 34 30 32 37 32 32 35 36 30 34 38 32
write:24 03 00 38 00 34 C2 E5
24 03 68
3643 6B 63 54 43 6B 87 6D 43 6B C8 73 43 CB DC AC 43 CC 09 17 43 CB F2 F2 41 85 AE 14 41 1D 70 A4 41 0E 14 7B 45 16 00 00 44 8E 80 00 44 34 00 00 45 85 20 00 44 F7 80 00 44 E8 80 00 44 F0 00 00 45 B4 00 00 45 73 C0 00 45 10 60 00 45 03 40 00 45 E0 10 00 3F 1D B2 2D 3E FD F3 B6 3E AC 8B 44 3F 18 51 EC 42 48 09 9C
write:24 03 07 CF 00 78 73 96
24 03 F0
write:24 03 01 0F 00 08 72 C6
write:25 03 00 38 00 34 C3 34
write:25 03 07 CF 00 78 72 47
write:25 03 01 0F 00 08 73 17
write:26 03 00 38 00 34 C3 07
write:26 03 07 CF 00 78 72 74
write:26 03 01 0F 00 08 73 24
write:27 03 00 38 00 34 C2 D6
write:27 03 07 CF 00 78 73 A5
write:27 03 01 0F 00 08 72 F5
write:28 03 00 38 00 34 C2 29
write:28 03 07 CF 00 78 73 5A
write:28 03 01 0F 00 08 72 0A
write:29 03 00 38 00 34 C3 F8
write:29 03 07 CF 00 78 72 8B
write:29 03 01 0F 00 08 73 DB
write:2A 03 00 38 00 34 C3 CB
write:2A 03 07 CF 00 78 72 B8
write:2A 03 01 0F 00 08 73 E8
write:2B 03 00 38 00 34 C2 1A
write:2B 03 07 CF 00 78 73 69
write:2B 03 01 0F 00 08 72 39
write:2C 03 00 38 00 34 C3 AD
write:2C 03 07 CF 00 78 72 DE
write:2C 03 01 0F 00 08 73 8E
write:2D 03 00 38 00 34 C2 7C
write:2D 03 07 CF 00 78 73 0F
write:2D 03 01 0F 00 08 72 5F
write:2E 03 00 38 00 34 C2 4F
write:2E 03 07 CF 00 78 73 3C
write:2E 03 01 0F 00 08 72 6C
write:2F 03 00 38 00 34 C3 9E
write:2F 03 07 CF 00 78 72 ED
write:2F 03 01 0F 00 08 73 BD
write:30 03 00 38 00 34 C1 F1
write:30 03 07 CF 00 78 70 82
write:30 03 01 0F 00 08 71 D2
write:31 03 00 38 00 34 C0 20
write:31 03 07 CF 00 78 71 53
write:31 03 01 0F 00 08 70 03
write:32 03 00 38 00 34 C0 13
write:32 03 07 CF 00 78 71 60
write:32 03 01 0F 00 08 70 30
signal: killed
