nohup: ignoring input
Listening on :6004
received messag ?->? 
 124.160.213.120:9321 172.16.246.153:6004
write:21 03 00 38 00 34 C2 B0
34 30 32
heart:34 30 32 37 32 32 35 36 30 34 38 32
write:21 03 07 CF 00 78 73 C3
write:21 03 01 0F 00 08 72 93
write:22 03 00 38 00 34 C2 83
22 03 68
3443 6B 8F 1B 43 6C 5C AC 43 6C 39 9A 43 CC 4B A6 43 CC 99 37 43 CC 40 83 43 2D 00 00 00 00 00 00 00 00 00 00 00 00 00 00 00 00 00 00 00 00 00 00 00 00 00 00 00 00 00 00 00 00 00 00 00 00 00 00 00 00 00 00 00 00 00 00 00 00 00 00 00 00 00 00 00 00 00 00 00 00 00 00 00 00 00 00 00 00 00 00 00 00 00 00 00 00 00 00
57 0A 43
heart:57 0A 43 30 C2 8F 43 2A F0 A4 47 14 02 00 47 14 7A 00 47 10 24 00 47 DC 50 00 46 77 08 00 46 82 C8 00 46 77 80 00 47 3C E8 00 47 21 5E 00 47 23 3E 00 47 1D BC 00 47 EF B5 00 3F 6A C0 83 3F 68 F5 C3 3F 69 FB E7 3F 6B 43 96 42 48 32 FA
write:22 03 07 CF 00 78 73 F0
22 03 F0
34totalsize 240
46 76 96 9A 45 7E 14 CD 46 18 C4 9A 00 00 00 00 44 F2 61 9A 00 00 00 00 00 00 00 00 00 00 00 00 00 00 00 00 00 00 00 00 46 34 3A CD 45 34 6E 66 45 E0 49 9A 00 00 00 00 44 B7 D3 33 40 C9 99 9A 00 00 00 00 3F 40 00 00 00 00 00 00 40 AC CC CD 46 A2 7B E6 45 AB C7 33 46 39 CA 9A 00 00 00 00 45 55 24 00 00 00 00 00 00 00 00 00 00 00 00 00 00 00 00 00 00 00 00 00 46 67 37 33 45 6B CC CD 46 06 3E 33 00 00 00 00 45 18 14 CD 41 28 00 00 3E E6 66 66 3F F9 99 9A 00 00 00 00 40 FE 66 66 46 28 7C CD 44 CD 5E 66 45 D8 06 00 00 00 00 00 45 0B 35 9A 00 00 00 00 00 00 00 00 00 00 00 00 00 00 00 00 00 00 00 00 46 14 0F 33 44 A5 86 66 45 BE D0 66 00 00 00 00 44 FF AC CD 40 53 33 33 00 00 00 00 3E 19 99 9A 00 00 00 00 40 40 AC A5
write:22 03 01 0F 00 08 72 A0
22 03 10
3400 1C 60 F6 00 00 00 00 00 16 1B DF 00 00 E7 50
43 6B 8F 1B
235.559
43 6C 5C AC
236.362
43 6C 39 9A
236.225
43 CC 4B A6
408.591
43 CC 99 37
409.197
43 CC 40 83
408.504
43 2D 00 00
173
00 00 00 00
0
00 00 00 00
0
00 00 00 00
0
00 00 00 00
0
00 00 00 00
0
00 00 00 00
0
00 00 00 00
0
00 00 00 00
0
00 00 00 00
0
00 00 00 00
0
00 00 00 00
0
00 00 00 00
0
00 00 00 00
0
00 00 00 00
0
00 00 00 00
0
00 00 00 00
0
00 00 00 00
0
00 00 00 00
0
00 00 00 00
0
46 76 96 9A
15781.65
45 7E 14 CD
4065.3
46 18 C4 9A
9777.15
00 00 00 00
0
44 F2 61 9A
1939.05
00 00 00 00
0
00 00 00 00
0
00 00 00 00
0
00 00 00 00
0
00 00 00 00
0
46 34 3A CD
11534.7
45 34 6E 66
2886.9
45 E0 49 9A
7177.2
00 00 00 00
0
44 B7 D3 33
1470.6
40 C9 99 9A
6.3
00 00 00 00
0
3F 40 00 00
0.75
00 00 00 00
0
40 AC CC CD
5.4
46 A2 7B E6
20797.95
45 AB C7 33
5496.9
46 39 CA 9A
11890.65
00 00 00 00
0
45 55 24 00
3410.25
00 00 00 00
0
00 00 00 00
0
00 00 00 00
0
00 00 00 00
0
00 00 00 00
0
46 67 37 33
14797.8
45 6B CC CD
3772.8
46 06 3E 33
8591.55
00 00 00 00
0
45 18 14 CD
2433.3
41 28 00 00
10.5
3E E6 66 66
0.45
3F F9 99 9A
1.95
00 00 00 00
0
40 FE 66 66
7.95
46 28 7C CD
10783.2
44 CD 5E 66
1642.95
45 D8 06 00
6912.75
00 00 00 00
0
45 0B 35 9A
2227.35
00 00 00 00
0
00 00 00 00
0
00 00 00 00
0
00 00 00 00
0
00 00 00 00
0
46 14 0F 33
9475.8
44 A5 86 66
1324.2
45 BE D0 66
6106.05
00 00 00 00
0
44 FF AC CD
2045.4
40 53 33 33
3.3
00 00 00 00
0
3E 19 99 9A
0.15
00 00 00 00
0
40 40 AC A5
3.0105374
00 1C 60 F6
1859830
00 00 00 00
0
00 16 1B DF
1448927
00 00 E7 50
59216
235.559236.362236.225408.591409.197408.504173000000000000000000015781.654065.39777.1501939.050000011534.72886.97177.201470.66.300.7505.420797.955496.911890.6503410.250000014797.83772.88591.5502433.310.50.451.9507.9510783.21642.956912.7502227.35000009475.81324.26106.0502045.43.300.1503.010537434201711232105161859.8301448.92759.216insert into tbl_power_info_v2(P_A_DIANYA,P_B_DIANYA,P_C_DIANYA,P_UAB_XIANDIANYA,P_UBC_XIANDIANYA,P_UCA_XIANDIANYA,P_A_DIANLIU,P_B_DIANLIU,P_C_DIANLIU,P_A_YGGL,P_B_YGGL,P_C_YGGL,P_HXYGGL,P_A_WGGL,P_B_WGGL,P_C_WGGL,P_HXWGGL,P_A_SZGL,P_B_SZGL,P_C_SZGL,P_HXSZGL,P_A_GLYS,P_B_GLYS,P_C_GLYS,P_HXGLYS,P_DWPL,P_BY_KwhZ,P_BY_KwhJ,P_BY_KwhF,P_BY_KwhP,P_BY_KwhG,P_BY_HKwhZ,P_BY_HKwhJ,P_BY_HKwhF,P_BY_HKwhP,P_BY_HKwhG, P_BY_KvarhZ,P_BY_KvarhJ,P_BY_KvarhF,P_BY_KvarhP,P_BY_KvarhG, P_BY_HKvarhZ,P_BY_HKvarhJ,P_BY_HKvarhF,P_BY_HKvarhP,P_BY_HKvarhG, P_SY_KwhZ,P_SY_KwhJ,P_SY_KwhF,P_SY_KwhP,P_SY_KwhG, P_SY_HKwhZ,P_SY_HKwhJ,P_SY_HKwhF,P_SY_HKwhP,P_SY_HKwhG, P_SY_KvarhZ,P_SY_KvarhJ,P_SY_KvarhF,P_SY_KvarhP,P_SY_KvarhG, P_SY_HKvarhZ,P_SY_HKvarhJ,P_SY_HKvarhF,P_SY_HKvarhP,P_SY_HKvarhG, P_SSY_KwhZ,P_SSY_KwhJ,P_SSY_KwhF,P_SSY_KwhP,P_SSY_KwhG, P_SSY_HKwhZ,P_SSY_HKwhJ,P_SSY_HKwhF,P_SSY_HKwhP,P_SSY_HKwhG, P_SSY_KvarhZ,P_SSY_KvarhJ,P_SSY_KvarhF,P_SSY_KvarhP,P_SSY_KvarhG, P_SSY_HKvarhZ,P_SSY_HKvarhJ,P_SSY_HKvarhF,P_SSY_HKvarhP,P_SSY_HKvarhG,P_CODE,P_TIME,P_ZXYGDN,P_FXYGDN,P_ZXWGDN,P_FXWGDN)values(235.559,236.362,236.225,408.591,409.197,408.504,173,0,0,0,0,0,0,0,0,0,0,0,0,0,0,0,0,0,0,0,15781.65,4065.3,9777.15,0,1939.05,0,0,0,0,0,11534.7,2886.9,7177.2,0,1470.6,6.3,0,0.75,0,5.4,20797.95,5496.9,11890.65,0,3410.25,0,0,0,0,0,14797.8,3772.8,8591.55,0,2433.3,10.5,0.45,1.95,0,7.95,10783.2,1642.95,6912.75,0,2227.35,0,0,0,0,0,9475.8,1324.2,6106.05,0,2045.4,3.3,0,0.15,0,3.0105374,34,20171123210516,1859.83,0,1448.927,59.216)
写入成功读取完毕一个
write:23 03 00 38 00 34 C3 52
write:23 03 07 CF 00 78 72 21
write:23 03 01 0F 00 08 73 71
write:24 03 00 38 00 34 C2 E5
24 03 68
3643 6B E5 1F 43 6C 4E 14 43 6C A6 66 43 CC 6C CD 43 CC C5 81 43 CC 8E 14 3F D7 0A 3D 40 96 B8 52 40 0E 14 7B 43 87 00 00 44 3B 80 00 43 96 00 00 44 A5 00 00 42 F0 00 00 00 00 00 00 42 70 00 00 43 16 00 00 43 C3 00 00 44 8A C0 00 44 07 00 00 44 A5 00 00 3F 33 B6 46 3F 29 FB E7 3F 0C 08 31 3F 7E 76 C9 42 48 41 26
write:24 03 07 CF 00 78 73 96
24 03 F0
36totalsize 240
44 C3 78 00 42 7C 99 9A 44 9A B0 00 00 00 00 00 43 83 79 9A 00 00 00 00 00 00 00 00 00 00 00 00 00 00 00 00 00 00 00 00 44 C1 08 00 41 97 33 33 44 A5 F0 00 00 00 00 00 43 45 B3 33 40 23 33 33 3E 99 99 9A 3E E6 66 66 00 00 00 00 3F C0 00 00 44 FE DE 66 42 D6 CC CD 44 C8 0B 33 00 00 00 00 43 A5 99 9A 00 00 00 00 00 00 00 00 00 00 00 00 00 00 00 00 00 00 00 00 44 FD F8 00 42 43 00 00 44 D9 B0 00 00 00 00 00 43 71 80 00 40 A3 33 33 3E 99 99 9A 3F D3 33 33 00 00 00 00 40 40 00 00 44 FE E3 33 42 4A 33 33 44 CD C3 33 00 00 00 00 43 AB 26 66 00 00 00 00 00 00 00 00 00 00 00 00 00 00 00 00 00 00 00 00 45 00 B3 33 41 23 33 33 44 E2 4B 33 00 00 00 00 43 6E 80 00 40 A8 00 00 3F 66 66 66 40 06 66 66 00 00 00 00 40 10 5C 66
write:24 03 01 0F 00 08 72 C6
24 03 10
3600 08 F2 2A 00 00 00 00 00 08 C8 83 00 00 A2 8D
43 6B E5 1F
235.895
43 6C 4E 14
236.305
43 6C A6 66
236.65
43 CC 6C CD
408.85
43 CC C5 81
409.543
43 CC 8E 14
409.11
3F D7 0A 3D
1.68
40 96 B8 52
4.71
40 0E 14 7B
2.22
43 87 00 00
270
44 3B 80 00
750
43 96 00 00
300
44 A5 00 00
1320
42 F0 00 00
120
00 00 00 00
0
42 70 00 00
60
43 16 00 00
150
43 C3 00 00
390
44 8A C0 00
1110
44 07 00 00
540
44 A5 00 00
1320
3F 33 B6 46
0.702
3F 29 FB E7
0.664
3F 0C 08 31
0.547
3F 7E 76 C9
0.994
42 48 41 26
50.06362
44 C3 78 00
1563.75
42 7C 99 9A
63.15
44 9A B0 00
1237.5
00 00 00 00
0
43 83 79 9A
262.95
00 00 00 00
0
00 00 00 00
0
00 00 00 00
0
00 00 00 00
0
00 00 00 00
0
44 C1 08 00
1544.25
41 97 33 33
18.9
44 A5 F0 00
1327.5
00 00 00 00
0
43 45 B3 33
197.7
40 23 33 33
2.55
3E 99 99 9A
0.3
3E E6 66 66
0.45
00 00 00 00
0
3F C0 00 00
1.5
44 FE DE 66
2038.95
42 D6 CC CD
107.4
44 C8 0B 33
1600.35
00 00 00 00
0
43 A5 99 9A
331.2
00 00 00 00
0
00 00 00 00
0
00 00 00 00
0
00 00 00 00
0
00 00 00 00
0
44 FD F8 00
2031.75
42 43 00 00
48.75
44 D9 B0 00
1741.5
00 00 00 00
0
43 71 80 00
241.5
40 A3 33 33
5.1
3E 99 99 9A
0.3
3F D3 33 33
1.65
00 00 00 00
0
40 40 00 00
3
44 FE E3 33
2039.1
42 4A 33 33
50.55
44 CD C3 33
1646.1
00 00 00 00
0
43 AB 26 66
342.3
00 00 00 00
0
00 00 00 00
0
00 00 00 00
0
00 00 00 00
0
00 00 00 00
0
45 00 B3 33
2059.2
41 23 33 33
10.2
44 E2 4B 33
1810.35
00 00 00 00
0
43 6E 80 00
238.5
40 A8 00 00
5.25
3F 66 66 66
0.9
40 06 66 66
2.1
00 00 00 00
0
40 10 5C 66
2.2556396
00 08 F2 2A
586282
00 00 00 00
0
00 08 C8 83
575619
00 00 A2 8D
41613
235.895236.305236.65408.85409.543409.111.684.712.222707503001320120060150390111054013200.7020.6640.5470.99450.063621563.7563.151237.50262.95000001544.2518.91327.50197.72.550.30.4501.52038.95107.41600.350331.2000002031.7548.751741.50241.55.10.31.65032039.150.551646.10342.3000002059.210.21810.350238.55.250.92.102.25563963620171123210715586.2820575.61941.613insert into tbl_power_info_v2(P_A_DIANYA,P_B_DIANYA,P_C_DIANYA,P_UAB_XIANDIANYA,P_UBC_XIANDIANYA,P_UCA_XIANDIANYA,P_A_DIANLIU,P_B_DIANLIU,P_C_DIANLIU,P_A_YGGL,P_B_YGGL,P_C_YGGL,P_HXYGGL,P_A_WGGL,P_B_WGGL,P_C_WGGL,P_HXWGGL,P_A_SZGL,P_B_SZGL,P_C_SZGL,P_HXSZGL,P_A_GLYS,P_B_GLYS,P_C_GLYS,P_HXGLYS,P_DWPL,P_BY_KwhZ,P_BY_KwhJ,P_BY_KwhF,P_BY_KwhP,P_BY_KwhG,P_BY_HKwhZ,P_BY_HKwhJ,P_BY_HKwhF,P_BY_HKwhP,P_BY_HKwhG, P_BY_KvarhZ,P_BY_KvarhJ,P_BY_KvarhF,P_BY_KvarhP,P_BY_KvarhG, P_BY_HKvarhZ,P_BY_HKvarhJ,P_BY_HKvarhF,P_BY_HKvarhP,P_BY_HKvarhG, P_SY_KwhZ,P_SY_KwhJ,P_SY_KwhF,P_SY_KwhP,P_SY_KwhG, P_SY_HKwhZ,P_SY_HKwhJ,P_SY_HKwhF,P_SY_HKwhP,P_SY_HKwhG, P_SY_KvarhZ,P_SY_KvarhJ,P_SY_KvarhF,P_SY_KvarhP,P_SY_KvarhG, P_SY_HKvarhZ,P_SY_HKvarhJ,P_SY_HKvarhF,P_SY_HKvarhP,P_SY_HKvarhG, P_SSY_KwhZ,P_SSY_KwhJ,P_SSY_KwhF,P_SSY_KwhP,P_SSY_KwhG, P_SSY_HKwhZ,P_SSY_HKwhJ,P_SSY_HKwhF,P_SSY_HKwhP,P_SSY_HKwhG, P_SSY_KvarhZ,P_SSY_KvarhJ,P_SSY_KvarhF,P_SSY_KvarhP,P_SSY_KvarhG, P_SSY_HKvarhZ,P_SSY_HKvarhJ,P_SSY_HKvarhF,P_SSY_HKvarhP,P_SSY_HKvarhG,P_CODE,P_TIME,P_ZXYGDN,P_FXYGDN,P_ZXWGDN,P_FXWGDN)values(235.895,236.305,236.65,408.85,409.543,409.11,1.68,4.71,2.22,270,750,300,1320,120,0,60,150,390,1110,540,1320,0.702,0.664,0.547,0.994,50.06362,1563.75,63.15,1237.5,0,262.95,0,0,0,0,0,1544.25,18.9,1327.5,0,197.7,2.55,0.3,0.45,0,1.5,2038.95,107.4,1600.35,0,331.2,0,0,0,0,0,2031.75,48.75,1741.5,0,241.5,5.1,0.3,1.65,0,3,2039.1,50.55,1646.1,0,342.3,0,0,0,0,0,2059.2,10.2,1810.35,0,238.5,5.25,0.9,2.1,0,2.2556396,36,20171123210715,586.282,0,575.619,41.613)
写入成功读取完毕一个
write:25 03 00 38 00 34 C3 34
25 03 68
3743 6B EE 56 43 6C 66 25 43 6C 8F 9E 43 CC 77 F0 43 CC BA 5E 43 CC 8E 14 3F 30 A3 D7 00 00 00 00 40 3A 3D 71 42 B4 00 00 00 00 00 00 44 2C 80 00 44 43 00 00 42 70 00 00 00 00 00 00 42 F0 00 00 42 B4 00 00 43 16 00 00 00 00 00 00 44 2C 80 00 44 43 00 00 3F 1D F3 B6 00 00 00 00 3F 7A 5E 35 3F 7E 76 C9 42 48 D2 F4
write:25 03 07 CF 00 78 72 47
25 03 F0
37totalsize 240
45 51 4C 00 43 D8 F9 9A 45 10 92 66 00 00 00 00 44 16 56 66 00 00 00 00 00 00 00 00 00 00 00 00 00 00 00 00 00 00 00 00 44 AB 99 9A 43 5B 4C CD 44 6F E3 33 00 00 00 00 43 41 F3 33 3F F9 99 9A 3E 99 99 9A 3E 19 99 9A 00 00 00 00 3F AC CC CD 45 5E 62 66 43 A5 E6 66 45 25 D8 00 00 00 00 00 44 0F 2C CD 00 00 00 00 00 00 00 00 00 00 00 00 00 00 00 00 00 00 00 00 45 0E 46 66 43 77 F3 33 44 D2 51 9A 00 00 00 00 43 AC E0 00 40 10 00 00 3E 99 99 9A 3F 19 99 9A 00 00 00 00 3F 99 99 9A 45 22 37 33 43 83 EC CD 44 F1 46 66 00 00 00 00 43 C8 A0 00 00 00 00 00 00 00 00 00 00 00 00 00 00 00 00 00 00 00 00 00 44 DC 50 00 43 48 19 9A 44 A5 5B 33 00 00 00 00 43 6F 66 66 40 E1 99 9A 40 66 66 66 40 10 00 00 00 00 00 00 3F 99 A5 07
write:25 03 01 0F 00 08 73 17
25 03 10
3700 06 5D 1F 00 00 00 00 00 03 A1 B7 00 00 09 75
43 6B EE 56
235.931
43 6C 66 25
236.399
43 6C 8F 9E
236.561
43 CC 77 F0
408.937
43 CC BA 5E
409.456
43 CC 8E 14
409.11
3F 30 A3 D7
0.69
00 00 00 00
0
40 3A 3D 71
2.91
42 B4 00 00
90
00 00 00 00
0
44 2C 80 00
690
44 43 00 00
780
42 70 00 00
60
00 00 00 00
0
42 F0 00 00
120
42 B4 00 00
90
43 16 00 00
150
00 00 00 00
0
44 2C 80 00
690
44 43 00 00
780
3F 1D F3 B6
0.617
00 00 00 00
0
3F 7A 5E 35
0.978
3F 7E 76 C9
0.994
42 48 D2 F4
50.20601
45 51 4C 00
3348.75
43 D8 F9 9A
433.95
45 10 92 66
2313.15
00 00 00 00
0
44 16 56 66
601.35
00 00 00 00
0
00 00 00 00
0
00 00 00 00
0
00 00 00 00
0
00 00 00 00
0
44 AB 99 9A
1372.8
43 5B 4C CD
219.3
44 6F E3 33
959.55
00 00 00 00
0
43 41 F3 33
193.95
3F F9 99 9A
1.95
3E 99 99 9A
0.3
3E 19 99 9A
0.15
00 00 00 00
0
3F AC CC CD
1.35
45 5E 62 66
3558.15
43 A5 E6 66
331.8
45 25 D8 00
2653.5
00 00 00 00
0
44 0F 2C CD
572.7
00 00 00 00
0
00 00 00 00
0
00 00 00 00
0
00 00 00 00
0
00 00 00 00
0
45 0E 46 66
2276.4
43 77 F3 33
247.95
44 D2 51 9A
1682.55
00 00 00 00
0
43 AC E0 00
345.75
40 10 00 00
2.25
3E 99 99 9A
0.3
3F 19 99 9A
0.6
00 00 00 00
0
3F 99 99 9A
1.2
45 22 37 33
2595.45
43 83 EC CD
263.85
44 F1 46 66
1930.2
00 00 00 00
0
43 C8 A0 00
401.25
00 00 00 00
0
00 00 00 00
0
00 00 00 00
0
00 00 00 00
0
00 00 00 00
0
44 DC 50 00
1762.5
43 48 19 9A
200.1
44 A5 5B 33
1322.85
00 00 00 00
0
43 6F 66 66
239.4
40 E1 99 9A
7.05
40 66 66 66
3.6
40 10 00 00
2.25
00 00 00 00
0
3F 99 A5 07
1.2003487
00 06 5D 1F
417055
00 00 00 00
0
00 03 A1 B7
238007
00 00 09 75
2421
235.931236.399236.561408.937409.456409.110.6902.919006907806001209015006907800.61700.9780.99450.206013348.75433.952313.150601.35000001372.8219.3959.550193.951.950.30.1501.353558.15331.82653.50572.7000002276.4247.951682.550345.752.250.30.601.22595.45263.851930.20401.25000001762.5200.11322.850239.47.053.62.2501.20034873720171123210814417.0550238.0072.421insert into tbl_power_info_v2(P_A_DIANYA,P_B_DIANYA,P_C_DIANYA,P_UAB_XIANDIANYA,P_UBC_XIANDIANYA,P_UCA_XIANDIANYA,P_A_DIANLIU,P_B_DIANLIU,P_C_DIANLIU,P_A_YGGL,P_B_YGGL,P_C_YGGL,P_HXYGGL,P_A_WGGL,P_B_WGGL,P_C_WGGL,P_HXWGGL,P_A_SZGL,P_B_SZGL,P_C_SZGL,P_HXSZGL,P_A_GLYS,P_B_GLYS,P_C_GLYS,P_HXGLYS,P_DWPL,P_BY_KwhZ,P_BY_KwhJ,P_BY_KwhF,P_BY_KwhP,P_BY_KwhG,P_BY_HKwhZ,P_BY_HKwhJ,P_BY_HKwhF,P_BY_HKwhP,P_BY_HKwhG, P_BY_KvarhZ,P_BY_KvarhJ,P_BY_KvarhF,P_BY_KvarhP,P_BY_KvarhG, P_BY_HKvarhZ,P_BY_HKvarhJ,P_BY_HKvarhF,P_BY_HKvarhP,P_BY_HKvarhG, P_SY_KwhZ,P_SY_KwhJ,P_SY_KwhF,P_SY_KwhP,P_SY_KwhG, P_SY_HKwhZ,P_SY_HKwhJ,P_SY_HKwhF,P_SY_HKwhP,P_SY_HKwhG, P_SY_KvarhZ,P_SY_KvarhJ,P_SY_KvarhF,P_SY_KvarhP,P_SY_KvarhG, P_SY_HKvarhZ,P_SY_HKvarhJ,P_SY_HKvarhF,P_SY_HKvarhP,P_SY_HKvarhG, P_SSY_KwhZ,P_SSY_KwhJ,P_SSY_KwhF,P_SSY_KwhP,P_SSY_KwhG, P_SSY_HKwhZ,P_SSY_HKwhJ,P_SSY_HKwhF,P_SSY_HKwhP,P_SSY_HKwhG, P_SSY_KvarhZ,P_SSY_KvarhJ,P_SSY_KvarhF,P_SSY_KvarhP,P_SSY_KvarhG, P_SSY_HKvarhZ,P_SSY_HKvarhJ,P_SSY_HKvarhF,P_SSY_HKvarhP,P_SSY_HKvarhG,P_CODE,P_TIME,P_ZXYGDN,P_FXYGDN,P_ZXWGDN,P_FXWGDN)values(235.931,236.399,236.561,408.937,409.456,409.11,0.69,0,2.91,90,0,690,780,60,0,120,90,150,0,690,780,0.617,0,0.978,0.994,50.20601,3348.75,433.95,2313.15,0,601.35,0,0,0,0,0,1372.8,219.3,959.55,0,193.95,1.95,0.3,0.15,0,1.35,3558.15,331.8,2653.5,0,572.7,0,0,0,0,0,2276.4,247.95,1682.55,0,345.75,2.25,0.3,0.6,0,1.2,2595.45,263.85,1930.2,0,401.25,0,0,0,0,0,1762.5,200.1,1322.85,0,239.4,7.05,3.6,2.25,0,1.2003487,37,20171123210814,417.055,0,238.007,2.421)
写入成功读取完毕一个
write:26 03 00 38 00 34 C3 07
26 03 68
3843 6B 6B 44 43 6C 43 96 43 6B DB 64 43 CC 35 60 43 CC 61 CB 43 CC 09 17 00 00 00 00 00 00 00 00 3F B0 A3 D7 00 00 00 00 00 00 00 00 42 F0 00 00 43 34 00 00 00 00 00 00 00 00 00 00 43 70 00 00 43 96 00 00 42 70 00 00 42 70 00 00 43 A5 00 00 43 B4 00 00 3F 20 C4 9C 3F 3C ED 91 3E B8 D4 FE 3F 06 24 DD 42 48 57 97
write:26 03 07 CF 00 78 72 74
26 03 F0
38totalsize 240
45 3B 54 CD 42 21 66 66 45 0A 94 CD 00 00 00 00 44 38 E0 00 40 53 33 33 00 00 00 00 40 2C CC CD 00 00 00 00 3F 19 99 9A 45 2F 24 CD 40 40 00 00 45 06 06 66 00 00 00 00 44 23 B0 00 42 86 66 66 41 8B 33 33 41 72 66 66 00 00 00 00 42 0A 99 9A 44 90 73 33 42 5B 00 00 44 55 13 33 00 00 00 00 43 78 66 66 3F AC CC CD 00 00 00 00 3F 86 66 66 00 00 00 00 3E 19 99 9A 44 89 53 33 42 2F CC CD 44 50 FC CD 00 00 00 00 43 5A 8C CD 41 C6 00 00 40 C9 99 9A 40 A8 00 00 00 00 00 00 41 50 CC CD 42 AF 33 33 40 19 99 9A 42 77 CC CD 00 00 00 00 41 B8 CC CD 00 00 00 00 00 00 00 00 00 00 00 00 00 00 00 00 00 00 00 00 42 1D 33 33 3F C0 00 00 41 E7 99 9A 00 00 00 00 41 0B 33 33 41 01 99 9A 3E 99 99 9A 40 B6 66 66 00 00 00 00 3F F9 02 D0
write:26 03 01 0F 00 08 73 24
26 03 10
3800 02 40 E8 00 00 00 A0 00 02 05 C4 00 00 39 CF
43 6B 6B 44
235.419
43 6C 43 96
236.264
43 6B DB 64
235.857
43 CC 35 60
408.417
43 CC 61 CB
408.764
43 CC 09 17
408.071
00 00 00 00
0
00 00 00 00
0
3F B0 A3 D7
1.38
00 00 00 00
0
00 00 00 00
0
42 F0 00 00
120
43 34 00 00
180
00 00 00 00
0
00 00 00 00
0
43 70 00 00
240
43 96 00 00
300
42 70 00 00
60
42 70 00 00
60
43 A5 00 00
330
43 B4 00 00
360
3F 20 C4 9C
0.628
3F 3C ED 91
0.738
3E B8 D4 FE
0.361
3F 06 24 DD
0.524
42 48 57 97
50.085537
45 3B 54 CD
2997.3
42 21 66 66
40.35
45 0A 94 CD
2217.3
00 00 00 00
0
44 38 E0 00
739.5
40 53 33 33
3.3
00 00 00 00
0
40 2C CC CD
2.7
00 00 00 00
0
3F 19 99 9A
0.6
45 2F 24 CD
2802.3
40 40 00 00
3
45 06 06 66
2144.4
00 00 00 00
0
44 23 B0 00
654.75
42 86 66 66
67.2
41 8B 33 33
17.4
41 72 66 66
15.15
00 00 00 00
0
42 0A 99 9A
34.65
44 90 73 33
1155.6
42 5B 00 00
54.75
44 55 13 33
852.3
00 00 00 00
0
43 78 66 66
248.4
3F AC CC CD
1.35
00 00 00 00
0
3F 86 66 66
1.05
00 00 00 00
0
3E 19 99 9A
0.15
44 89 53 33
1098.6
42 2F CC CD
43.95
44 50 FC CD
835.95
00 00 00 00
0
43 5A 8C CD
218.55
41 C6 00 00
24.75
40 C9 99 9A
6.3
40 A8 00 00
5.25
00 00 00 00
0
41 50 CC CD
13.05
42 AF 33 33
87.6
40 19 99 9A
2.4
42 77 CC CD
61.95
00 00 00 00
0
41 B8 CC CD
23.1
00 00 00 00
0
00 00 00 00
0
00 00 00 00
0
00 00 00 00
0
00 00 00 00
0
42 1D 33 33
39.3
3F C0 00 00
1.5
41 E7 99 9A
28.95
00 00 00 00
0
41 0B 33 33
8.7
41 01 99 9A
8.1
3E 99 99 9A
0.3
40 B6 66 66
5.7
00 00 00 00
0
3F F9 02 D0
1.9453983
00 02 40 E8
147688
00 00 00 A0
160
00 02 05 C4
132548
00 00 39 CF
14799
235.419236.264235.857408.417408.764408.071001.38001201800024030060603303600.6280.7380.3610.52450.0855372997.340.352217.30739.53.302.700.62802.332144.40654.7567.217.415.15034.651155.654.75852.30248.41.3501.0500.151098.643.95835.950218.5524.756.35.25013.0587.62.461.95023.10000039.31.528.9508.78.10.35.701.94539833820171123210916147.6880.16132.54814.799insert into tbl_power_info_v2(P_A_DIANYA,P_B_DIANYA,P_C_DIANYA,P_UAB_XIANDIANYA,P_UBC_XIANDIANYA,P_UCA_XIANDIANYA,P_A_DIANLIU,P_B_DIANLIU,P_C_DIANLIU,P_A_YGGL,P_B_YGGL,P_C_YGGL,P_HXYGGL,P_A_WGGL,P_B_WGGL,P_C_WGGL,P_HXWGGL,P_A_SZGL,P_B_SZGL,P_C_SZGL,P_HXSZGL,P_A_GLYS,P_B_GLYS,P_C_GLYS,P_HXGLYS,P_DWPL,P_BY_KwhZ,P_BY_KwhJ,P_BY_KwhF,P_BY_KwhP,P_BY_KwhG,P_BY_HKwhZ,P_BY_HKwhJ,P_BY_HKwhF,P_BY_HKwhP,P_BY_HKwhG, P_BY_KvarhZ,P_BY_KvarhJ,P_BY_KvarhF,P_BY_KvarhP,P_BY_KvarhG, P_BY_HKvarhZ,P_BY_HKvarhJ,P_BY_HKvarhF,P_BY_HKvarhP,P_BY_HKvarhG, P_SY_KwhZ,P_SY_KwhJ,P_SY_KwhF,P_SY_KwhP,P_SY_KwhG, P_SY_HKwhZ,P_SY_HKwhJ,P_SY_HKwhF,P_SY_HKwhP,P_SY_HKwhG, P_SY_KvarhZ,P_SY_KvarhJ,P_SY_KvarhF,P_SY_KvarhP,P_SY_KvarhG, P_SY_HKvarhZ,P_SY_HKvarhJ,P_SY_HKvarhF,P_SY_HKvarhP,P_SY_HKvarhG, P_SSY_KwhZ,P_SSY_KwhJ,P_SSY_KwhF,P_SSY_KwhP,P_SSY_KwhG, P_SSY_HKwhZ,P_SSY_HKwhJ,P_SSY_HKwhF,P_SSY_HKwhP,P_SSY_HKwhG, P_SSY_KvarhZ,P_SSY_KvarhJ,P_SSY_KvarhF,P_SSY_KvarhP,P_SSY_KvarhG, P_SSY_HKvarhZ,P_SSY_HKvarhJ,P_SSY_HKvarhF,P_SSY_HKvarhP,P_SSY_HKvarhG,P_CODE,P_TIME,P_ZXYGDN,P_FXYGDN,P_ZXWGDN,P_FXWGDN)values(235.419,236.264,235.857,408.417,408.764,408.071,0,0,1.38,0,0,120,180,0,0,240,300,60,60,330,360,0.628,0.738,0.361,0.524,50.085537,2997.3,40.35,2217.3,0,739.5,3.3,0,2.7,0,0.6,2802.3,3,2144.4,0,654.75,67.2,17.4,15.15,0,34.65,1155.6,54.75,852.3,0,248.4,1.35,0,1.05,0,0.15,1098.6,43.95,835.95,0,218.55,24.75,6.3,5.25,0,13.05,87.6,2.4,61.95,0,23.1,0,0,0,0,0,39.3,1.5,28.95,0,8.7,8.1,0.3,5.7,0,1.9453983,38,20171123210916,147.688,0.16,132.548,14.799)
写入成功读取完毕一个
write:27 03 00 38 00 34 C2 D6
write:27 03 07 CF 00 78 73 A5
write:27 03 01 0F 00 08 72 F5
write:28 03 00 38 00 34 C2 29
27 03 68
3943 6C 74 BC 43 6C FA 5E 43 6C E3 12 43 CC F1 CB 43 CD 1E 35 43 CC E6 C9 00 00 00 00 00 00 00 00 3F 28 F5 C3 00 00 00 00 00 00 00 00 42 70 00 00 42 B4 00 00 00 00 00 00 00 00 00 00 42 70 00 00 00 00 00 00 00 00 00 00 00 00 00 00 43 16 00 00 42 B4 00 00 00 00 00 00 00 00 00 00 3E E7 EF 9E 3F 76 45 A2 42 48 57 92
write:28 03 07 CF 00 78 73 5A
EF FD FF
heart:EF FD FF EF 95 FE FE F7 7E 41 12 66 66 43 39 B3 33 00 00 00 00 42 81 4C CD 00 00 00 00 00 00 00 00 00 00 00 00 00 00 00 00 00 00 00 00 42 F7 CC CD 00 00 00 00 42 C3 00 00 00 00 00 00 41 D3 33 33 40 AC CC CD 00 00 00 00 40 86 66 66 00 00 00 00 3F 86 66 66 43 0C 66 66 41 38 CC CD 42 A5 E6 66 00 00 00 00 42 37 99 9A 00 00 00 00 00 00 00 00 00 00 00 00 00 00 00 00 00 00 00 00 3F AC CC CD 00 00 00 00 3F 19 99 9A 00 00 00 00 3F 19 99 9A 41 08 CC CD 00 00 00 00 40 D8 00 00 00 00 00 00 3F E6 66 66 43 68 59 9A 41 38 CC CD 43 1A CC CD 00 00 00 00 42 83 B3 33 00 00 00 00 00 00 00 00 00 00 00 00 00 00 00 00 00 00 00 00 41 8A 00 00 00 00 00 00 41 77 33 33 00 00 00 00 3F D3 33 33 41 88 CC CD 3E 19 99 9A 41 53 33 33 00 00 00 00 40 66 C3 BA
28 03 F0
40totalsize 240
43 1C C0 00 41 04 00 00 42 E3 B3 33 00 00 00 00 42 0A 00 00 00 00 00 00 00 00 00 00 00 00 00 00 00 00 00 00 00 00 00 00 42 B1 E6 66 40 A3 33 33 42 77 33 33 00 00 00 00 41 AF 33 33 3E E6 66 66 00 00 00 00 3E E6 66 66 00 00 00 00 00 00 00 00 43 2B C0 00 41 20 CC CD 42 D2 4C CD 00 00 00 00 42 61 99 9A 00 00 00 00 00 00 00 00 00 00 00 00 00 00 00 00 00 00 00 00 42 58 99 9A 40 E1 99 9A 41 D4 66 66 00 00 00 00 41 A3 33 33 3E 19 99 9A 00 00 00 00 3E 19 99 9A 00 00 00 00 00 00 00 00 44 49 69 9A 41 77 33 33 43 FD 59 9A 00 00 00 00 43 8D AC CD 00 00 00 00 00 00 00 00 00 00 00 00 00 00 00 00 00 00 00 00 43 67 73 33 41 1C 00 00 43 14 33 33 00 00 00 00 42 93 00 00 3E 19 99 9A 00 00 00 00 00 00 00 00 00 00 00 00 00 00 0D 7B
write:28 03 01 0F 00 08 72 0A
write:29 03 00 38 00 34 C3 F8
write:29 03 07 CF 00 78 72 8B
write:29 03 01 0F 00 08 73 DB
34 30 32
heart:34 30 32 37 32 32 35 36 30 34 38 32
F9 CF F7
heart:F9 CF F7 BC 00 01 56 35 00 00 00 00 00 00 69 42 00 00 29 0E
F9 7F FF
heart:F9 7F FF EF 4A 44 24 53 33 41 06 66 66 43 F0 E6 66 41 01 99 9A 43 1F 00 00 00 00 00 00 00 00 00 00 00 00 00 00 00 00 00 00 00 00 00 00 44 0E 20 00 00 00 00 00 43 E4 26 66 00 00 00 00 42 DF 33 33 42 AC CC CD 40 F0 00 00 42 05 33 33 40 F9 99 9A 42 16 00 00 43 D1 D9 9A 40 90 00 00 43 A3 80 00 40 90 00 00 42 A6 33 33 00 00 00 00 00 00 00 00 00 00 00 00 00 00 00 00 00 00 00 00 43 A4 B3 33 3E 99 99 9A 43 8E 33 33 3E 99 99 9A 42 2F 33 33 42 9F 00 00 40 F9 99 9A 41 E1 99 9A 41 01 99 9A 42 0C 66 66 43 D6 F3 33 40 06 66 66 43 9B B3 33 40 06 66 66 42 E4 00 00 00 00 00 00 00 00 00 00 00 00 00 00 00 00 00 00 00 00 00 00 43 E1 E6 66 3F 99 99 9A 43 AF F3 33 3F C0 00 00 42 C1 33 33 42 35 33 33 40 B6 66 66 41 2C CC CD 40 C0 00 00 41 B1 56 C5
write:2A 03 00 38 00 34 C3 CB
2A 03 68
4243 6C 82 D1 43 6D 54 7B 43 6D 10 21 43 CD 29 58 43 CD 60 A4 43 CD 08 10 41 14 CC CD 41 77 5C 29 42 31 5C 29 44 FC 80 00 45 58 40 00 46 23 70 00 46 79 10 00 43 BE 00 00 44 25 00 00 43 82 00 00 44 3E 00 00 45 09 80 00 45 66 00 00 46 24 60 00 46 79 60 00 3F 6B 02 0C 3F 71 68 73 3F 7E B8 52 3F 7F BE 77 42 47 C2 16
write:2A 03 07 CF 00 78 72 B8
2A 03 F0
42totalsize 240
45 D6 FC 00 44 88 83 33 45 50 E9 9A 00 00 00 00 45 18 CB 33 00 00 00 00 00 00 00 00 00 00 00 00 00 00 00 00 00 00 00 00 40 73 33 33 00 00 00 00 3F E6 66 66 00 00 00 00 40 00 00 00 44 31 0C CD 42 D4 66 66 43 B1 19 9A 00 00 00 00 43 77 CC CD 46 02 2F 33 44 AB 10 00 45 84 08 CD 00 00 00 00 45 2B 21 9A 00 00 00 00 00 00 00 00 00 00 00 00 00 00 00 00 00 00 00 00 40 40 00 00 00 00 00 00 40 39 99 9A 00 00 00 00 00 00 00 00 44 66 F3 33 43 13 80 00 43 D3 80 00 00 00 00 00 43 B0 99 9A 46 14 A7 9A 44 C0 90 00 45 95 06 66 00 00 00 00 45 48 48 00 00 00 00 00 00 00 00 00 00 00 00 00 00 00 00 00 00 00 00 00 43 B7 CC CD 42 58 00 00 43 24 99 9A 00 00 00 00 43 14 CC CD 44 1B B3 33 42 D3 00 00 43 7B E6 66 00 00 00 00 43 84 62 A9
write:2A 03 01 0F 00 08 73 E8
2A 03 10
4200 30 C5 F5 00 00 00 00 00 02 48 64 00 03 FA 77
43 6C 82 D1
236.511
43 6D 54 7B
237.33
43 6D 10 21
237.063
43 CD 29 58
410.323
43 CD 60 A4
410.755
43 CD 08 10
410.063
41 14 CC CD
9.3
41 77 5C 29
15.46
42 31 5C 29
44.34
44 FC 80 00
2020
45 58 40 00
3460
46 23 70 00
10460
46 79 10 00
15940
43 BE 00 00
380
44 25 00 00
660
43 82 00 00
260
44 3E 00 00
760
45 09 80 00
2200
45 66 00 00
3680
46 24 60 00
10520
46 79 60 00
15960
3F 6B 02 0C
0.918
3F 71 68 73
0.943
3F 7E B8 52
0.995
3F 7F BE 77
0.999
42 47 C2 16
49.939537
45 D6 FC 00
6879.5
44 88 83 33
1092.1
45 50 E9 9A
3342.6
00 00 00 00
0
45 18 CB 33
2444.7
00 00 00 00
0
00 00 00 00
0
00 00 00 00
0
00 00 00 00
0
00 00 00 00
0
40 73 33 33
3.8
00 00 00 00
0
3F E6 66 66
1.8
00 00 00 00
0
40 00 00 00
2
44 31 0C CD
708.2
42 D4 66 66
106.2
43 B1 19 9A
354.2
00 00 00 00
0
43 77 CC CD
247.8
46 02 2F 33
8331.8
44 AB 10 00
1368.5
45 84 08 CD
4225.1
00 00 00 00
0
45 2B 21 9A
2738.1
00 00 00 00
0
00 00 00 00
0
00 00 00 00
0
00 00 00 00
0
00 00 00 00
0
40 40 00 00
3
00 00 00 00
0
40 39 99 9A
2.9
00 00 00 00
0
00 00 00 00
0
44 66 F3 33
923.8
43 13 80 00
147.5
43 D3 80 00
423
00 00 00 00
0
43 B0 99 9A
353.2
46 14 A7 9A
9513.9
44 C0 90 00
1540.5
45 95 06 66
4768.8
00 00 00 00
0
45 48 48 00
3204.5
00 00 00 00
0
00 00 00 00
0
00 00 00 00
0
00 00 00 00
0
00 00 00 00
0
43 B7 CC CD
367.6
42 58 00 00
54
43 24 99 9A
164.6
00 00 00 00
0
43 14 CC CD
148.8
44 1B B3 33
622.8
42 D3 00 00
105.5
43 7B E6 66
251.9
00 00 00 00
0
43 84 62 A9
264.77078
00 30 C5 F5
3196405
00 00 00 00
0
00 02 48 64
149604
00 03 FA 77
260727
236.511237.33237.063410.323410.755410.0639.315.4644.342020346010460159403806602607602200368010520159600.9180.9430.9950.99949.9395376879.51092.13342.602444.7000003.801.802708.2106.2354.20247.88331.81368.54225.102738.100000302.900923.8147.54230353.29513.91540.54768.803204.500000367.654164.60148.8622.8105.5251.90264.7707842201711232113143196.4050149.604260.727insert into tbl_power_info_v2(P_A_DIANYA,P_B_DIANYA,P_C_DIANYA,P_UAB_XIANDIANYA,P_UBC_XIANDIANYA,P_UCA_XIANDIANYA,P_A_DIANLIU,P_B_DIANLIU,P_C_DIANLIU,P_A_YGGL,P_B_YGGL,P_C_YGGL,P_HXYGGL,P_A_WGGL,P_B_WGGL,P_C_WGGL,P_HXWGGL,P_A_SZGL,P_B_SZGL,P_C_SZGL,P_HXSZGL,P_A_GLYS,P_B_GLYS,P_C_GLYS,P_HXGLYS,P_DWPL,P_BY_KwhZ,P_BY_KwhJ,P_BY_KwhF,P_BY_KwhP,P_BY_KwhG,P_BY_HKwhZ,P_BY_HKwhJ,P_BY_HKwhF,P_BY_HKwhP,P_BY_HKwhG, P_BY_KvarhZ,P_BY_KvarhJ,P_BY_KvarhF,P_BY_KvarhP,P_BY_KvarhG, P_BY_HKvarhZ,P_BY_HKvarhJ,P_BY_HKvarhF,P_BY_HKvarhP,P_BY_HKvarhG, P_SY_KwhZ,P_SY_KwhJ,P_SY_KwhF,P_SY_KwhP,P_SY_KwhG, P_SY_HKwhZ,P_SY_HKwhJ,P_SY_HKwhF,P_SY_HKwhP,P_SY_HKwhG, P_SY_KvarhZ,P_SY_KvarhJ,P_SY_KvarhF,P_SY_KvarhP,P_SY_KvarhG, P_SY_HKvarhZ,P_SY_HKvarhJ,P_SY_HKvarhF,P_SY_HKvarhP,P_SY_HKvarhG, P_SSY_KwhZ,P_SSY_KwhJ,P_SSY_KwhF,P_SSY_KwhP,P_SSY_KwhG, P_SSY_HKwhZ,P_SSY_HKwhJ,P_SSY_HKwhF,P_SSY_HKwhP,P_SSY_HKwhG, P_SSY_KvarhZ,P_SSY_KvarhJ,P_SSY_KvarhF,P_SSY_KvarhP,P_SSY_KvarhG, P_SSY_HKvarhZ,P_SSY_HKvarhJ,P_SSY_HKvarhF,P_SSY_HKvarhP,P_SSY_HKvarhG,P_CODE,P_TIME,P_ZXYGDN,P_FXYGDN,P_ZXWGDN,P_FXWGDN)values(236.511,237.33,237.063,410.323,410.755,410.063,9.3,15.46,44.34,2020,3460,10460,15940,380,660,260,760,2200,3680,10520,15960,0.918,0.943,0.995,0.999,49.939537,6879.5,1092.1,3342.6,0,2444.7,0,0,0,0,0,3.8,0,1.8,0,2,708.2,106.2,354.2,0,247.8,8331.8,1368.5,4225.1,0,2738.1,0,0,0,0,0,3,0,2.9,0,0,923.8,147.5,423,0,353.2,9513.9,1540.5,4768.8,0,3204.5,0,0,0,0,0,367.6,54,164.6,0,148.8,622.8,105.5,251.9,0,264.77078,42,20171123211314,3196.405,0,149.604,260.727)
写入成功读取完毕一个
write:2B 03 00 38 00 34 C2 1A
2B 03 68
4343 6C 11 AA 43 6C C6 25 43 6C 8F 1B 43 CC AF 5C 43 CC E6 C9 43 CC 99 37 41 62 8F 5C 41 75 1E B8 42 75 70 A4 45 31 80 00 45 39 00 00 46 1F 60 00 46 7A 00 00 44 C3 00 00 44 9B 00 00 46 20 A0 00 46 4C 60 00 45 52 00 00 45 63 80 00 46 62 E0 00 46 A1 90 00 3F 5A 1C AC 3F 51 EB 85 3F 33 B6 46 3F 46 66 66 42 48 97 D8
write:2B 03 07 CF 00 78 73 69
2B 03 F0
43totalsize 240
45 C4 3C CD 44 B7 E0 00 45 25 09 9A 00 00 00 00 45 07 80 00 00 00 00 00 00 00 00 00 00 00 00 00 00 00 00 00 00 00 00 00 44 FF 80 00 44 1C 66 66 44 94 2C CD 00 00 00 00 43 68 CC CD 42 9C CC CD 40 E0 00 00 40 8C CC CD 00 00 00 00 42 86 00 00 45 AB 83 33 44 C5 D3 33 44 EA 46 66 00 00 00 00 44 FD F3 33 00 00 00 00 00 00 00 00 00 00 00 00 00 00 00 00 00 00 00 00 44 C3 93 33 44 12 66 66 44 3F F3 33 00 00 00 00 43 53 33 33 43 40 CC CD 42 07 33 33 41 C1 99 9A 00 00 00 00 43 06 99 9A 45 53 13 33 44 5A 99 9A 44 F5 06 66 00 00 00 00 44 07 99 9A 00 00 00 00 00 00 00 00 00 00 00 00 00 00 00 00 00 00 00 00 44 53 40 00 43 AE 99 9A 43 E0 19 9A 00 00 00 00 42 3D 99 9A 42 09 99 9A 40 D9 99 9A 41 00 00 00 00 00 00 00 41 9C 01 5E
write:2B 03 01 0F 00 08 72 39
2B 03 10
4300 06 6B AB 00 00 00 00 00 01 E5 EF 00 00 84 C5
43 6C 11 AA
236.069
43 6C C6 25
236.774
43 6C 8F 1B
236.559
43 CC AF 5C
409.37
43 CC E6 C9
409.803
43 CC 99 37
409.197
41 62 8F 5C
14.16
41 75 1E B8
15.32
42 75 70 A4
61.36
45 31 80 00
2840
45 39 00 00
2960
46 1F 60 00
10200
46 7A 00 00
16000
44 C3 00 00
1560
44 9B 00 00
1240
46 20 A0 00
10280
46 4C 60 00
13080
45 52 00 00
3360
45 63 80 00
3640
46 62 E0 00
14520
46 A1 90 00
20680
3F 5A 1C AC
0.852
3F 51 EB 85
0.82
3F 33 B6 46
0.702
3F 46 66 66
0.775
42 48 97 D8
50.148285
45 C4 3C CD
6279.6
44 B7 E0 00
1471
45 25 09 9A
2640.6
00 00 00 00
0
45 07 80 00
2168
00 00 00 00
0
00 00 00 00
0
00 00 00 00
0
00 00 00 00
0
00 00 00 00
0
44 FF 80 00
2044
44 1C 66 66
625.6
44 94 2C CD
1185.4
00 00 00 00
0
43 68 CC CD
232.8
42 9C CC CD
78.4
40 E0 00 00
7
40 8C CC CD
4.4
00 00 00 00
0
42 86 00 00
67
45 AB 83 33
5488.4
44 C5 D3 33
1582.6
44 EA 46 66
1874.2
00 00 00 00
0
44 FD F3 33
2031.6
00 00 00 00
0
00 00 00 00
0
00 00 00 00
0
00 00 00 00
0
00 00 00 00
0
44 C3 93 33
1564.6
44 12 66 66
585.6
44 3F F3 33
767.8
00 00 00 00
0
43 53 33 33
211.2
43 40 CC CD
192.8
42 07 33 33
33.8
41 C1 99 9A
24.2
00 00 00 00
0
43 06 99 9A
134.6
45 53 13 33
3377.2
44 5A 99 9A
874.4
44 F5 06 66
1960.2
00 00 00 00
0
44 07 99 9A
542.4
00 00 00 00
0
00 00 00 00
0
00 00 00 00
0
00 00 00 00
0
00 00 00 00
0
44 53 40 00
845
43 AE 99 9A
349.2
43 E0 19 9A
448.2
00 00 00 00
0
42 3D 99 9A
47.4
42 09 99 9A
34.4
40 D9 99 9A
6.8
41 00 00 00
8
00 00 00 00
0
41 9C 01 5E
19.500668
00 06 6B AB
420779
00 00 00 00
0
00 01 E5 EF
124399
00 00 84 C5
33989
236.069236.774236.559409.37409.803409.19714.1615.3261.362840296010200160001560124010280130803360364014520206800.8520.820.7020.77550.1482856279.614712640.602168000002044625.61185.40232.878.474.40675488.41582.61874.202031.6000001564.6585.6767.80211.2192.833.824.20134.63377.2874.41960.20542.400000845349.2448.2047.434.46.88019.5006684320171123211415420.7790124.39933.989insert into tbl_power_info_v2(P_A_DIANYA,P_B_DIANYA,P_C_DIANYA,P_UAB_XIANDIANYA,P_UBC_XIANDIANYA,P_UCA_XIANDIANYA,P_A_DIANLIU,P_B_DIANLIU,P_C_DIANLIU,P_A_YGGL,P_B_YGGL,P_C_YGGL,P_HXYGGL,P_A_WGGL,P_B_WGGL,P_C_WGGL,P_HXWGGL,P_A_SZGL,P_B_SZGL,P_C_SZGL,P_HXSZGL,P_A_GLYS,P_B_GLYS,P_C_GLYS,P_HXGLYS,P_DWPL,P_BY_KwhZ,P_BY_KwhJ,P_BY_KwhF,P_BY_KwhP,P_BY_KwhG,P_BY_HKwhZ,P_BY_HKwhJ,P_BY_HKwhF,P_BY_HKwhP,P_BY_HKwhG, P_BY_KvarhZ,P_BY_KvarhJ,P_BY_KvarhF,P_BY_KvarhP,P_BY_KvarhG, P_BY_HKvarhZ,P_BY_HKvarhJ,P_BY_HKvarhF,P_BY_HKvarhP,P_BY_HKvarhG, P_SY_KwhZ,P_SY_KwhJ,P_SY_KwhF,P_SY_KwhP,P_SY_KwhG, P_SY_HKwhZ,P_SY_HKwhJ,P_SY_HKwhF,P_SY_HKwhP,P_SY_HKwhG, P_SY_KvarhZ,P_SY_KvarhJ,P_SY_KvarhF,P_SY_KvarhP,P_SY_KvarhG, P_SY_HKvarhZ,P_SY_HKvarhJ,P_SY_HKvarhF,P_SY_HKvarhP,P_SY_HKvarhG, P_SSY_KwhZ,P_SSY_KwhJ,P_SSY_KwhF,P_SSY_KwhP,P_SSY_KwhG, P_SSY_HKwhZ,P_SSY_HKwhJ,P_SSY_HKwhF,P_SSY_HKwhP,P_SSY_HKwhG, P_SSY_KvarhZ,P_SSY_KvarhJ,P_SSY_KvarhF,P_SSY_KvarhP,P_SSY_KvarhG, P_SSY_HKvarhZ,P_SSY_HKvarhJ,P_SSY_HKvarhF,P_SSY_HKvarhP,P_SSY_HKvarhG,P_CODE,P_TIME,P_ZXYGDN,P_FXYGDN,P_ZXWGDN,P_FXWGDN)values(236.069,236.774,236.559,409.37,409.803,409.197,14.16,15.32,61.36,2840,2960,10200,16000,1560,1240,10280,13080,3360,3640,14520,20680,0.852,0.82,0.702,0.775,50.148285,6279.6,1471,2640.6,0,2168,0,0,0,0,0,2044,625.6,1185.4,0,232.8,78.4,7,4.4,0,67,5488.4,1582.6,1874.2,0,2031.6,0,0,0,0,0,1564.6,585.6,767.8,0,211.2,192.8,33.8,24.2,0,134.6,3377.2,874.4,1960.2,0,542.4,0,0,0,0,0,845,349.2,448.2,0,47.4,34.4,6.8,8,0,19.500668,43,20171123211415,420.779,0,124.399,33.989)
写入成功读取完毕一个
write:2C 03 00 38 00 34 C3 AD
write:2C 03 07 CF 00 78 72 DE
write:2C 03 01 0F 00 08 73 8E
EF F1 ED
heart:EF F1 ED
00 00 43
heart:00 00 43 6B B1 27 43 6C 89 37 43 6C 8E D9 43 CC 6C CD 43 CC D0 A4 43 CC 6C CD 41 C6 14 7B 41 9F 5C 29 41 C6 14 7B 45 A7 80 00 45 80 C0 00 45 A6 40 00 46 67 40 00 44 E6 00 00 45 09 80 00 44 F0 00 00 45 BA 40 00 45 B6 80 00 45 93 80 00 45 B6 80 00 46 79 60 00 3F 6B 43 96 3F 5F 3B 64 3F 68 31 27 3F 6D 91 68 42 48 92 83
2C 03 10
4400 04 E1 0C 00 00 00 00 00 01 4F 49 00 00 F5 18
write:2D 03 00 38 00 34 C2 7C
2D 03 68
4543 6C 10 21 43 6C EB 85 43 6C DB 23 43 CC C5 81 43 CD 1E 35 43 CC BA 7F 3F AE 14 7B 40 AE 14 7B 40 38 51 EC 43 20 00 00 44 5C 00 00 43 8C 00 00 44 A5 00 00 43 48 00 00 43 70 00 00 43 F0 00 00 44 66 00 00 43 A0 00 00 44 A0 00 00 44 2A 00 00 44 CD 00 00 3E F8 D4 FE 3F 2F 9D B2 3E CD D2 F2 3F 50 A3 D7 42 48 76 35
write:2D 03 07 CF 00 78 73 0F
2D 03 F0
45totalsize 240
45 4E B6 66 43 EB 80 00 45 0E C0 00 00 00 00 00 44 0A 00 00 00 00 00 00 00 00 00 00 00 00 00 00 00 00 00 00 00 00 00 00 40 F9 99 9A 3F 19 99 9A 40 D3 33 33 00 00 00 00 3E 4C CC CD 44 50 80 00 43 0C CC CD 43 BD 99 9A 00 00 00 00 43 9D 00 00 45 59 E9 9A 44 17 99 9A 45 0A CC CD 00 00 00 00 44 24 CC CD 00 00 00 00 00 00 00 00 00 00 00 00 00 00 00 00 00 00 00 00 3F B3 33 33 3E 4C CC CD 3F 80 00 00 00 00 00 00 00 00 00 00 44 A2 A6 66 43 6C CC CD 44 1D F3 33 00 00 00 00 43 D8 33 33 45 38 96 66 43 C5 00 00 44 F1 8C CD 00 00 00 00 44 1C B3 33 00 00 00 00 00 00 00 00 00 00 00 00 00 00 00 00 00 00 00 00 3E CC CC CD 00 00 00 00 3E 4C CC CD 00 00 00 00 00 00 00 00 44 8E C0 00 43 45 66 66 44 05 E6 66 00 00 00 00 43 CC 7B 65
write:2D 03 01 0F 00 08 72 5F
2D 03 10
4500 10 5C B3 00 00 00 00 00 00 27 75 00 03 90 66
43 6C 10 21
236.063
43 6C EB 85
236.92
43 6C DB 23
236.856
43 CC C5 81
409.543
43 CD 1E 35
410.236
43 CC BA 7F
409.457
3F AE 14 7B
1.36
40 AE 14 7B
5.44
40 38 51 EC
2.88
43 20 00 00
160
44 5C 00 00
880
43 8C 00 00
280
44 A5 00 00
1320
43 48 00 00
200
43 70 00 00
240
43 F0 00 00
480
44 66 00 00
920
43 A0 00 00
320
44 A0 00 00
1280
44 2A 00 00
680
44 CD 00 00
1640
3E F8 D4 FE
0.486
3F 2F 9D B2
0.686
3E CD D2 F2
0.402
3F 50 A3 D7
0.815
42 48 76 35
50.115437
45 4E B6 66
3307.4
43 EB 80 00
471
45 0E C0 00
2284
00 00 00 00
0
44 0A 00 00
552
00 00 00 00
0
00 00 00 00
0
00 00 00 00
0
00 00 00 00
0
00 00 00 00
0
40 F9 99 9A
7.8
3F 19 99 9A
0.6
40 D3 33 33
6.6
00 00 00 00
0
3E 4C CC CD
0.2
44 50 80 00
834
43 0C CC CD
140.8
43 BD 99 9A
379.2
00 00 00 00
0
43 9D 00 00
314
45 59 E9 9A
3486.6
44 17 99 9A
606.4
45 0A CC CD
2220.8
00 00 00 00
0
44 24 CC CD
659.2
00 00 00 00
0
00 00 00 00
0
00 00 00 00
0
00 00 00 00
0
00 00 00 00
0
3F B3 33 33
1.4
3E 4C CC CD
0.2
3F 80 00 00
1
00 00 00 00
0
00 00 00 00
0
44 A2 A6 66
1301.2
43 6C CC CD
236.8
44 1D F3 33
631.8
00 00 00 00
0
43 D8 33 33
432.4
45 38 96 66
2953.4
43 C5 00 00
394
44 F1 8C CD
1932.4
00 00 00 00
0
44 1C B3 33
626.8
00 00 00 00
0
00 00 00 00
0
00 00 00 00
0
00 00 00 00
0
00 00 00 00
0
3E CC CC CD
0.4
00 00 00 00
0
3E 4C CC CD
0.2
00 00 00 00
0
00 00 00 00
0
44 8E C0 00
1142
43 45 66 66
197.4
44 05 E6 66
535.6
00 00 00 00
0
43 CC 7B 65
408.96402
00 10 5C B3
1072307
00 00 00 00
0
00 00 27 75
10101
00 03 90 66
233574
236.063236.92236.856409.543410.236409.4571.365.442.881608802801320200240480920320128068016400.4860.6860.4020.81550.1154373307.447122840552000007.80.66.600.2834140.8379.203143486.6606.42220.80659.2000001.40.21001301.2236.8631.80432.42953.43941932.40626.8000000.400.2001142197.4535.60408.9640245201711232116141072.307010.101233.574insert into tbl_power_info_v2(P_A_DIANYA,P_B_DIANYA,P_C_DIANYA,P_UAB_XIANDIANYA,P_UBC_XIANDIANYA,P_UCA_XIANDIANYA,P_A_DIANLIU,P_B_DIANLIU,P_C_DIANLIU,P_A_YGGL,P_B_YGGL,P_C_YGGL,P_HXYGGL,P_A_WGGL,P_B_WGGL,P_C_WGGL,P_HXWGGL,P_A_SZGL,P_B_SZGL,P_C_SZGL,P_HXSZGL,P_A_GLYS,P_B_GLYS,P_C_GLYS,P_HXGLYS,P_DWPL,P_BY_KwhZ,P_BY_KwhJ,P_BY_KwhF,P_BY_KwhP,P_BY_KwhG,P_BY_HKwhZ,P_BY_HKwhJ,P_BY_HKwhF,P_BY_HKwhP,P_BY_HKwhG, P_BY_KvarhZ,P_BY_KvarhJ,P_BY_KvarhF,P_BY_KvarhP,P_BY_KvarhG, P_BY_HKvarhZ,P_BY_HKvarhJ,P_BY_HKvarhF,P_BY_HKvarhP,P_BY_HKvarhG, P_SY_KwhZ,P_SY_KwhJ,P_SY_KwhF,P_SY_KwhP,P_SY_KwhG, P_SY_HKwhZ,P_SY_HKwhJ,P_SY_HKwhF,P_SY_HKwhP,P_SY_HKwhG, P_SY_KvarhZ,P_SY_KvarhJ,P_SY_KvarhF,P_SY_KvarhP,P_SY_KvarhG, P_SY_HKvarhZ,P_SY_HKvarhJ,P_SY_HKvarhF,P_SY_HKvarhP,P_SY_HKvarhG, P_SSY_KwhZ,P_SSY_KwhJ,P_SSY_KwhF,P_SSY_KwhP,P_SSY_KwhG, P_SSY_HKwhZ,P_SSY_HKwhJ,P_SSY_HKwhF,P_SSY_HKwhP,P_SSY_HKwhG, P_SSY_KvarhZ,P_SSY_KvarhJ,P_SSY_KvarhF,P_SSY_KvarhP,P_SSY_KvarhG, P_SSY_HKvarhZ,P_SSY_HKvarhJ,P_SSY_HKvarhF,P_SSY_HKvarhP,P_SSY_HKvarhG,P_CODE,P_TIME,P_ZXYGDN,P_FXYGDN,P_ZXWGDN,P_FXWGDN)values(236.063,236.92,236.856,409.543,410.236,409.457,1.36,5.44,2.88,160,880,280,1320,200,240,480,920,320,1280,680,1640,0.486,0.686,0.402,0.815,50.115437,3307.4,471,2284,0,552,0,0,0,0,0,7.8,0.6,6.6,0,0.2,834,140.8,379.2,0,314,3486.6,606.4,2220.8,0,659.2,0,0,0,0,0,1.4,0.2,1,0,0,1301.2,236.8,631.8,0,432.4,2953.4,394,1932.4,0,626.8,0,0,0,0,0,0.4,0,0.2,0,0,1142,197.4,535.6,0,408.96402,45,20171123211614,1072.307,0,10.101,233.574)
写入成功读取完毕一个
write:2E 03 00 38 00 34 C2 4F
2E 03 68
4643 00 00 00 00 00 00 00 00 00 00 00 00 00 00 00 00 00 00 00 00 00 00 00 00 00 00 00 00 00 00 00 00 00 00 00 00 00 00 00 00 00 00 00 00 00 00 00 00 00 00 00 00 00 00 00 00 00 00 00 00 00 00 00 00 00 00 00 00 00 00 00 00 00 00 00 00 00 00 00 00 00 00 00 00 00 00 00 00 00 00 00 00 00 00 00 00 00 00 00 00 00 00 00
6B E1 06
heart:6B E1 06 43 6C 82 4E 43 6C 80 00 43 CC 82 F2 43 CC D0 A4 43 CC 82 F2 42 97 47 AE 42 4B D7 0A 42 40 7A E1 46 88 40 00 46 3A 40 00 46 2E 60 00 47 1E 20 00 44 3E 00 00 44 E6 00 00 45 09 80 00 43 C8 00 00 46 8B 60 00 46 3C 20 00 46 31 80 00 47 1E 20 00 3F 7A 1C AC 3F 7C ED 91 3F 7A 9F BE 3F 80 00 00 42 48 E7 F3
write:2E 03 07 CF 00 78 73 3C
2E 03 F0
46totalsize 240
45 95 E3 33 44 57 73 33 45 46 10 00 00 00 00 00 44 3F 4C CD 00 00 00 00 00 00 00 00 00 00 00 00 00 00 00 00 00 00 00 00 40 93 33 33 3F 4C CC CD 40 40 00 00 00 00 00 00 3F 19 99 9A 44 2B 26 66 42 E4 CC CD 43 9D 99 9A 00 00 00 00 43 7E 99 9A 46 38 B4 CD 45 18 13 33 45 F1 63 33 00 00 00 00 44 CF EC CD 00 00 00 00 00 00 00 00 00 00 00 00 00 00 00 00 00 00 00 00 40 40 00 00 00 00 00 00 40 26 66 66 00 00 00 00 3E 4C CC CD 44 6D 4C CD 43 24 33 33 43 DE B3 33 00 00 00 00 43 A9 CC CD 46 61 63 33 45 17 7C CD 46 1D 2A 66 00 00 00 00 44 F2 C0 00 00 00 00 00 00 00 00 00 00 00 00 00 00 00 00 00 00 00 00 00 42 1E 66 66 40 AC CC CD 41 F0 00 00 00 00 00 00 40 80 00 00 44 24 26 66 42 CA CC CD 43 93 99 9A 00 00 00 00 43 82 13 F8
write:2E 03 01 0F 00 08 72 6C
2E 03 10
4600 25 F8 FE 00 00 00 00 00 00 00 00 00 00 00 00
43 00 00 00
128
00 00 00 00
0
00 00 00 00
0
00 00 00 00
0
00 00 00 00
0
00 00 00 00
0
00 00 00 00
0
00 00 00 00
0
00 00 00 00
0
00 00 00 00
0
00 00 00 00
0
00 00 00 00
0
00 00 00 00
0
00 00 00 00
0
00 00 00 00
0
00 00 00 00
0
00 00 00 00
0
00 00 00 00
0
00 00 00 00
0
00 00 00 00
0
00 00 00 00
0
00 00 00 00
0
00 00 00 00
0
00 00 00 00
0
00 00 00 00
0
00 00 00 00
0
45 95 E3 33
4796.4
44 57 73 33
861.8
45 46 10 00
3169
00 00 00 00
0
44 3F 4C CD
765.2
00 00 00 00
0
00 00 00 00
0
00 00 00 00
0
00 00 00 00
0
00 00 00 00
0
40 93 33 33
4.6
3F 4C CC CD
0.8
40 40 00 00
3
00 00 00 00
0
3F 19 99 9A
0.6
44 2B 26 66
684.6
42 E4 CC CD
114.4
43 9D 99 9A
315.2
00 00 00 00
0
43 7E 99 9A
254.6
46 38 B4 CD
11821.2
45 18 13 33
2433.2
45 F1 63 33
7724.4
00 00 00 00
0
44 CF EC CD
1663.4
00 00 00 00
0
00 00 00 00
0
00 00 00 00
0
00 00 00 00
0
00 00 00 00
0
40 40 00 00
3
00 00 00 00
0
40 26 66 66
2.6
00 00 00 00
0
3E 4C CC CD
0.2
44 6D 4C CD
949.2
43 24 33 33
164.2
43 DE B3 33
445.4
00 00 00 00
0
43 A9 CC CD
339.6
46 61 63 33
14424.8
45 17 7C CD
2423.8
46 1D 2A 66
10058.6
00 00 00 00
0
44 F2 C0 00
1942
00 00 00 00
0
00 00 00 00
0
00 00 00 00
0
00 00 00 00
0
00 00 00 00
0
42 1E 66 66
39.6
40 AC CC CD
5.4
41 F0 00 00
30
00 00 00 00
0
40 80 00 00
4
44 24 26 66
656.6
42 CA CC CD
101.4
43 93 99 9A
295.2
00 00 00 00
0
43 82 13 F8
260.156
00 25 F8 FE
2488574
00 00 00 00
0
00 00 00 00
0
00 00 00 00
0
12800000000000000000000000004796.4861.831690765.2000004.60.8300.6684.6114.4315.20254.611821.22433.27724.401663.400000302.600.2949.2164.2445.40339.614424.82423.810058.6019420000039.65.43004656.6101.4295.20260.15646201711232117152488.574000insert into tbl_power_info_v2(P_A_DIANYA,P_B_DIANYA,P_C_DIANYA,P_UAB_XIANDIANYA,P_UBC_XIANDIANYA,P_UCA_XIANDIANYA,P_A_DIANLIU,P_B_DIANLIU,P_C_DIANLIU,P_A_YGGL,P_B_YGGL,P_C_YGGL,P_HXYGGL,P_A_WGGL,P_B_WGGL,P_C_WGGL,P_HXWGGL,P_A_SZGL,P_B_SZGL,P_C_SZGL,P_HXSZGL,P_A_GLYS,P_B_GLYS,P_C_GLYS,P_HXGLYS,P_DWPL,P_BY_KwhZ,P_BY_KwhJ,P_BY_KwhF,P_BY_KwhP,P_BY_KwhG,P_BY_HKwhZ,P_BY_HKwhJ,P_BY_HKwhF,P_BY_HKwhP,P_BY_HKwhG, P_BY_KvarhZ,P_BY_KvarhJ,P_BY_KvarhF,P_BY_KvarhP,P_BY_KvarhG, P_BY_HKvarhZ,P_BY_HKvarhJ,P_BY_HKvarhF,P_BY_HKvarhP,P_BY_HKvarhG, P_SY_KwhZ,P_SY_KwhJ,P_SY_KwhF,P_SY_KwhP,P_SY_KwhG, P_SY_HKwhZ,P_SY_HKwhJ,P_SY_HKwhF,P_SY_HKwhP,P_SY_HKwhG, P_SY_KvarhZ,P_SY_KvarhJ,P_SY_KvarhF,P_SY_KvarhP,P_SY_KvarhG, P_SY_HKvarhZ,P_SY_HKvarhJ,P_SY_HKvarhF,P_SY_HKvarhP,P_SY_HKvarhG, P_SSY_KwhZ,P_SSY_KwhJ,P_SSY_KwhF,P_SSY_KwhP,P_SSY_KwhG, P_SSY_HKwhZ,P_SSY_HKwhJ,P_SSY_HKwhF,P_SSY_HKwhP,P_SSY_HKwhG, P_SSY_KvarhZ,P_SSY_KvarhJ,P_SSY_KvarhF,P_SSY_KvarhP,P_SSY_KvarhG, P_SSY_HKvarhZ,P_SSY_HKvarhJ,P_SSY_HKvarhF,P_SSY_HKvarhP,P_SSY_HKvarhG,P_CODE,P_TIME,P_ZXYGDN,P_FXYGDN,P_ZXWGDN,P_FXWGDN)values(128,0,0,0,0,0,0,0,0,0,0,0,0,0,0,0,0,0,0,0,0,0,0,0,0,0,4796.4,861.8,3169,0,765.2,0,0,0,0,0,4.6,0.8,3,0,0.6,684.6,114.4,315.2,0,254.6,11821.2,2433.2,7724.4,0,1663.4,0,0,0,0,0,3,0,2.6,0,0.2,949.2,164.2,445.4,0,339.6,14424.8,2423.8,10058.6,0,1942,0,0,0,0,0,39.6,5.4,30,0,4,656.6,101.4,295.2,0,260.156,46,20171123211715,2488.574,0,0,0)
写入成功读取完毕一个
00 00 00
heart:00 00 00 31 91 00 02 00 0B
write:2F 03 00 38 00 34 C3 9E
2F 03 68
4743 6C 92 B0 43 6D 1A 5E 43 6D 33 33 43 CD 13 12 43 CD 60 A4 43 CD 1E 35 3F 11 EB 85 00 00 00 00 3E E6 66 66 42 F0 00 00 42 B4 00 00 00 00 00 00 00 00 00 00 00 00 00 00 00 00 00 00 00 00 00 00 00 00 00 00 00 00 00 00 00 00 00 00 00 00 00 00 00 00 00 00 00 00 00 00 00 00 00 00 00 00 00 00 00 00 00 00 00 00 00 00
00 00 42
heart:00 00 42 B4 00 00 43 96 00 00 00 00 00 00 00 00 00 00 00 00 00 00 42 70 00 00 43 16 00 00 42 B4 00 00 42 F0 00 00 43 96 00 00 3F 76 C8 B4 3F 72 B0 21 3F 43 D7 0A 3F 79 16 87 42 48 35 92
write:2F 03 07 CF 00 78 72 ED
2F 03 F0
47totalsize 240
44 BA 39 9A 40 70 00 00 44 99 43 33 00 00 00 00 43 81 E6 66 00 00 00 00 00 00 00 00 00 00 00 00 00 00 00 00 00 00 00 00 42 E0 66 66 00 00 00 00 42 CF 99 9A 00 00 00 00 41 04 00 00 41 08 CC CD 3F 40 00 00 40 C4 CC CD 00 00 00 00 3F C0 00 00 44 D7 83 33 40 53 33 33 44 A5 2B 33 00 00 00 00 43 C7 A6 66 00 00 00 00 00 00 00 00 00 00 00 00 00 00 00 00 00 00 00 00 41 CD 33 33 00 00 00 00 41 B6 66 66 00 00 00 00 40 36 66 66 41 23 33 33 3F 66 66 66 40 E1 99 9A 00 00 00 00 40 06 66 66 44 FF 48 00 3F 86 66 66 44 CF 34 CD 00 00 00 00 43 BF B3 33 00 00 00 00 00 00 00 00 00 00 00 00 00 00 00 00 00 00 00 00 42 52 99 9A 00 00 00 00 42 3A 99 9A 00 00 00 00 40 BB 33 33 41 23 33 33 3E E6 66 66 40 DC CC CD 00 00 00 00 40 2C 65 F7
write:2F 03 01 0F 00 08 73 BD
2F 03 10
4700 04 7B F1 00 00 00 00 00 00 26 95 00 00 B3 CC
43 6C 92 B0
236.573
43 6D 1A 5E
237.103
43 6D 33 33
237.2
43 CD 13 12
410.149
43 CD 60 A4
410.755
43 CD 1E 35
410.236
3F 11 EB 85
0.57
00 00 00 00
0
3E E6 66 66
0.45
42 F0 00 00
120
42 B4 00 00
90
00 00 00 00
0
00 00 00 00
0
00 00 00 00
0
00 00 00 00
0
00 00 00 00
0
00 00 00 00
0
00 00 00 00
0
00 00 00 00
0
00 00 00 00
0
00 00 00 00
0
00 00 00 00
0
00 00 00 00
0
00 00 00 00
0
00 00 00 00
0
00 00 00 00
0
44 BA 39 9A
1489.8
40 70 00 00
3.75
44 99 43 33
1226.1
00 00 00 00
0
43 81 E6 66
259.8
00 00 00 00
0
00 00 00 00
0
00 00 00 00
0
00 00 00 00
0
00 00 00 00
0
42 E0 66 66
112.2
00 00 00 00
0
42 CF 99 9A
103.8
00 00 00 00
0
41 04 00 00
8.25
41 08 CC CD
8.55
3F 40 00 00
0.75
40 C4 CC CD
6.15
00 00 00 00
0
3F C0 00 00
1.5
44 D7 83 33
1724.1
40 53 33 33
3.3
44 A5 2B 33
1321.35
00 00 00 00
0
43 C7 A6 66
399.3
00 00 00 00
0
00 00 00 00
0
00 00 00 00
0
00 00 00 00
0
00 00 00 00
0
41 CD 33 33
25.65
00 00 00 00
0
41 B6 66 66
22.8
00 00 00 00
0
40 36 66 66
2.85
41 23 33 33
10.2
3F 66 66 66
0.9
40 E1 99 9A
7.05
00 00 00 00
0
40 06 66 66
2.1
44 FF 48 00
2042.25
3F 86 66 66
1.05
44 CF 34 CD
1657.65
00 00 00 00
0
43 BF B3 33
383.4
00 00 00 00
0
00 00 00 00
0
00 00 00 00
0
00 00 00 00
0
00 00 00 00
0
42 52 99 9A
52.65
00 00 00 00
0
42 3A 99 9A
46.65
00 00 00 00
0
40 BB 33 33
5.85
41 23 33 33
10.2
3E E6 66 66
0.45
40 DC CC CD
6.9
00 00 00 00
0
40 2C 65 F7
2.6937234
00 04 7B F1
293873
00 00 00 00
0
00 00 26 95
9877
00 00 B3 CC
46028
236.573237.103237.2410.149410.755410.2360.5700.45120900000000000000001489.83.751226.10259.800000112.20103.808.258.550.756.1501.51724.13.31321.350399.30000025.65022.802.8510.20.97.0502.12042.251.051657.650383.40000052.65046.6505.8510.20.456.902.69372344720171123211813293.87309.87746.028insert into tbl_power_info_v2(P_A_DIANYA,P_B_DIANYA,P_C_DIANYA,P_UAB_XIANDIANYA,P_UBC_XIANDIANYA,P_UCA_XIANDIANYA,P_A_DIANLIU,P_B_DIANLIU,P_C_DIANLIU,P_A_YGGL,P_B_YGGL,P_C_YGGL,P_HXYGGL,P_A_WGGL,P_B_WGGL,P_C_WGGL,P_HXWGGL,P_A_SZGL,P_B_SZGL,P_C_SZGL,P_HXSZGL,P_A_GLYS,P_B_GLYS,P_C_GLYS,P_HXGLYS,P_DWPL,P_BY_KwhZ,P_BY_KwhJ,P_BY_KwhF,P_BY_KwhP,P_BY_KwhG,P_BY_HKwhZ,P_BY_HKwhJ,P_BY_HKwhF,P_BY_HKwhP,P_BY_HKwhG, P_BY_KvarhZ,P_BY_KvarhJ,P_BY_KvarhF,P_BY_KvarhP,P_BY_KvarhG, P_BY_HKvarhZ,P_BY_HKvarhJ,P_BY_HKvarhF,P_BY_HKvarhP,P_BY_HKvarhG, P_SY_KwhZ,P_SY_KwhJ,P_SY_KwhF,P_SY_KwhP,P_SY_KwhG, P_SY_HKwhZ,P_SY_HKwhJ,P_SY_HKwhF,P_SY_HKwhP,P_SY_HKwhG, P_SY_KvarhZ,P_SY_KvarhJ,P_SY_KvarhF,P_SY_KvarhP,P_SY_KvarhG, P_SY_HKvarhZ,P_SY_HKvarhJ,P_SY_HKvarhF,P_SY_HKvarhP,P_SY_HKvarhG, P_SSY_KwhZ,P_SSY_KwhJ,P_SSY_KwhF,P_SSY_KwhP,P_SSY_KwhG, P_SSY_HKwhZ,P_SSY_HKwhJ,P_SSY_HKwhF,P_SSY_HKwhP,P_SSY_HKwhG, P_SSY_KvarhZ,P_SSY_KvarhJ,P_SSY_KvarhF,P_SSY_KvarhP,P_SSY_KvarhG, P_SSY_HKvarhZ,P_SSY_HKvarhJ,P_SSY_HKvarhF,P_SSY_HKvarhP,P_SSY_HKvarhG,P_CODE,P_TIME,P_ZXYGDN,P_FXYGDN,P_ZXWGDN,P_FXWGDN)values(236.573,237.103,237.2,410.149,410.755,410.236,0.57,0,0.45,120,90,0,0,0,0,0,0,0,0,0,0,0,0,0,0,0,1489.8,3.75,1226.1,0,259.8,0,0,0,0,0,112.2,0,103.8,0,8.25,8.55,0.75,6.15,0,1.5,1724.1,3.3,1321.35,0,399.3,0,0,0,0,0,25.65,0,22.8,0,2.85,10.2,0.9,7.05,0,2.1,2042.25,1.05,1657.65,0,383.4,0,0,0,0,0,52.65,0,46.65,0,5.85,10.2,0.45,6.9,0,2.6937234,47,20171123211813,293.873,0,9.877,46.028)
写入成功读取完毕一个
write:30 03 00 38 00 34 C1 F1
30 03 68
4843 6C A3 54 43 6D 1E FA 43 6D 3B A6 43 CD 1E 35 43 CD 60 A4 43 CD 29 37 00 00 00 00 00 00 00 00 00 00 00 00 00 00 00 00 00 00 00 00 00 00 00 00 00 00 00 00 00 00 00 00 00 00 00 00 00 00 00 00 00 00 00 00 00 00 00 00 00 00 00 00 00 00 00 00 00 00 00 00 00 00 00 00 00 00 00 00 00 00 00 00 00 00 00 00 42 47 59 8A
write:30 03 07 CF 00 78 70 82
30 03 F0
48totalsize 240
44 20 FC CD 41 C1 33 33 43 B8 E0 00 00 00 00 00 43 79 E6 66 00 00 00 00 00 00 00 00 00 00 00 00 00 00 00 00 00 00 00 00 44 2A 83 33 41 FA CC CD 43 BD 26 66 00 00 00 00 43 88 20 00 40 10 00 00 00 00 00 00 3F 86 66 66 00 00 00 00 3F 86 66 66 44 9C F4 CD 42 90 4C CD 44 39 96 66 00 00 00 00 43 DC 93 33 00 00 00 00 00 00 00 00 00 00 00 00 00 00 00 00 00 00 00 00 44 A1 3B 33 42 B2 33 33 44 37 43 33 00 00 00 00 43 E9 C6 66 40 E1 99 9A 00 00 00 00 40 A3 33 33 00 00 00 00 3F F9 99 9A 43 56 59 9A 40 10 00 00 43 15 B3 33 00 00 00 00 42 79 00 00 00 00 00 00 00 00 00 00 00 00 00 00 00 00 00 00 00 00 00 00 43 24 66 66 40 53 33 33 42 DC CC CD 00 00 00 00 42 4A CC CD 40 8B 33 33 00 00 00 00 40 49 99 9A 00 00 00 00 3F 86 0F 30
write:30 03 01 0F 00 08 71 D2
30 03 10
4800 01 14 F1 00 00 00 00 00 01 17 33 00 00 6B 94
43 6C A3 54
236.638
43 6D 1E FA
237.121
43 6D 3B A6
237.233
43 CD 1E 35
410.236
43 CD 60 A4
410.755
43 CD 29 37
410.322
00 00 00 00
0
00 00 00 00
0
00 00 00 00
0
00 00 00 00
0
00 00 00 00
0
00 00 00 00
0
00 00 00 00
0
00 00 00 00
0
00 00 00 00
0
00 00 00 00
0
00 00 00 00
0
00 00 00 00
0
00 00 00 00
0
00 00 00 00
0
00 00 00 00
0
00 00 00 00
0
00 00 00 00
0
00 00 00 00
0
00 00 00 00
0
42 47 59 8A
49.83744
44 20 FC CD
643.95
41 C1 33 33
24.15
43 B8 E0 00
369.75
00 00 00 00
0
43 79 E6 66
249.9
00 00 00 00
0
00 00 00 00
0
00 00 00 00
0
00 00 00 00
0
00 00 00 00
0
44 2A 83 33
682.05
41 FA CC CD
31.35
43 BD 26 66
378.3
00 00 00 00
0
43 88 20 00
272.25
40 10 00 00
2.25
00 00 00 00
0
3F 86 66 66
1.05
00 00 00 00
0
3F 86 66 66
1.05
44 9C F4 CD
1255.65
42 90 4C CD
72.15
44 39 96 66
742.35
00 00 00 00
0
43 DC 93 33
441.15
00 00 00 00
0
00 00 00 00
0
00 00 00 00
0
00 00 00 00
0
00 00 00 00
0
44 A1 3B 33
1289.85
42 B2 33 33
89.1
44 37 43 33
733.05
00 00 00 00
0
43 E9 C6 66
467.55
40 E1 99 9A
7.05
00 00 00 00
0
40 A3 33 33
5.1
00 00 00 00
0
3F F9 99 9A
1.95
43 56 59 9A
214.35
40 10 00 00
2.25
43 15 B3 33
149.7
00 00 00 00
0
42 79 00 00
62.25
00 00 00 00
0
00 00 00 00
0
00 00 00 00
0
00 00 00 00
0
00 00 00 00
0
43 24 66 66
164.4
40 53 33 33
3.3
42 DC CC CD
110.4
00 00 00 00
0
42 4A CC CD
50.7
40 8B 33 33
4.35
00 00 00 00
0
40 49 99 9A
3.15
00 00 00 00
0
3F 86 0F 30
1.0473385
00 01 14 F1
70897
00 00 00 00
0
00 01 17 33
71475
00 00 6B 94
27540
236.638237.121237.233410.236410.755410.322000000000000000000049.83744643.9524.15369.750249.900000682.0531.35378.30272.252.2501.0501.051255.6572.15742.350441.15000001289.8589.1733.050467.557.0505.101.95214.352.25149.7062.2500000164.43.3110.4050.74.3503.1501.0473385482017112321191470.897071.47527.54insert into tbl_power_info_v2(P_A_DIANYA,P_B_DIANYA,P_C_DIANYA,P_UAB_XIANDIANYA,P_UBC_XIANDIANYA,P_UCA_XIANDIANYA,P_A_DIANLIU,P_B_DIANLIU,P_C_DIANLIU,P_A_YGGL,P_B_YGGL,P_C_YGGL,P_HXYGGL,P_A_WGGL,P_B_WGGL,P_C_WGGL,P_HXWGGL,P_A_SZGL,P_B_SZGL,P_C_SZGL,P_HXSZGL,P_A_GLYS,P_B_GLYS,P_C_GLYS,P_HXGLYS,P_DWPL,P_BY_KwhZ,P_BY_KwhJ,P_BY_KwhF,P_BY_KwhP,P_BY_KwhG,P_BY_HKwhZ,P_BY_HKwhJ,P_BY_HKwhF,P_BY_HKwhP,P_BY_HKwhG, P_BY_KvarhZ,P_BY_KvarhJ,P_BY_KvarhF,P_BY_KvarhP,P_BY_KvarhG, P_BY_HKvarhZ,P_BY_HKvarhJ,P_BY_HKvarhF,P_BY_HKvarhP,P_BY_HKvarhG, P_SY_KwhZ,P_SY_KwhJ,P_SY_KwhF,P_SY_KwhP,P_SY_KwhG, P_SY_HKwhZ,P_SY_HKwhJ,P_SY_HKwhF,P_SY_HKwhP,P_SY_HKwhG, P_SY_KvarhZ,P_SY_KvarhJ,P_SY_KvarhF,P_SY_KvarhP,P_SY_KvarhG, P_SY_HKvarhZ,P_SY_HKvarhJ,P_SY_HKvarhF,P_SY_HKvarhP,P_SY_HKvarhG, P_SSY_KwhZ,P_SSY_KwhJ,P_SSY_KwhF,P_SSY_KwhP,P_SSY_KwhG, P_SSY_HKwhZ,P_SSY_HKwhJ,P_SSY_HKwhF,P_SSY_HKwhP,P_SSY_HKwhG, P_SSY_KvarhZ,P_SSY_KvarhJ,P_SSY_KvarhF,P_SSY_KvarhP,P_SSY_KvarhG, P_SSY_HKvarhZ,P_SSY_HKvarhJ,P_SSY_HKvarhF,P_SSY_HKvarhP,P_SSY_HKvarhG,P_CODE,P_TIME,P_ZXYGDN,P_FXYGDN,P_ZXWGDN,P_FXWGDN)values(236.638,237.121,237.233,410.236,410.755,410.322,0,0,0,0,0,0,0,0,0,0,0,0,0,0,0,0,0,0,0,49.83744,643.95,24.15,369.75,0,249.9,0,0,0,0,0,682.05,31.35,378.3,0,272.25,2.25,0,1.05,0,1.05,1255.65,72.15,742.35,0,441.15,0,0,0,0,0,1289.85,89.1,733.05,0,467.55,7.05,0,5.1,0,1.95,214.35,2.25,149.7,0,62.25,0,0,0,0,0,164.4,3.3,110.4,0,50.7,4.35,0,3.15,0,1.0473385,48,20171123211914,70.897,0,71.475,27.54)
写入成功读取完毕一个
write:31 03 00 38 00 34 C0 20
31 03 68
4943 6C 53 33 43 6C BA 1D 43 6C BC 29 43 CC D0 A4 43 CC FC EE 43 CC D0 A4 00 00 00 00 00 00 00 00 00 00 00 00 00 00 00 00 00 00 00 00 00 00 00 00 00 00 00 00 00 00 00 00 00 00 00 00 00 00 00 00 00 00 00 00 00 00 00 00 00 00 00 00 00 00 00 00 00 00 00 00 00 00 00 00 00 00 00 00 00 00 00 00 00 00 00 00 42 48 18 32
write:31 03 07 CF 00 78 71 53
31 03 F0
49totalsize 240
42 16 66 66 41 73 33 33 41 8B 33 33 00 00 00 00 40 A0 00 00 00 00 00 00 00 00 00 00 00 00 00 00 00 00 00 00 00 00 00 00 42 10 CC CD 41 A4 CC CD 41 76 66 66 00 00 00 00 00 00 00 00 3F B3 33 33 00 00 00 00 3F 80 00 00 00 00 00 00 3E CC CC CD 43 88 CC CD 42 1E 66 66 43 04 00 00 00 00 00 00 42 CB 99 9A 00 00 00 00 00 00 00 00 00 00 00 00 00 00 00 00 00 00 00 00 43 B2 33 33 42 68 CC CD 43 1E 33 33 00 00 00 00 43 0B 99 9A 40 0C CC CD 00 00 00 00 3F CC CC CD 00 00 00 00 3F 19 99 9A 42 9A CC CD 42 73 33 33 41 7C CC CD 00 00 00 00 3E CC CC CD 00 00 00 00 00 00 00 00 00 00 00 00 00 00 00 00 00 00 00 00 42 E3 33 33 42 B6 CC CD 41 B0 00 00 00 00 00 00 00 00 00 00 00 00 00 00 00 00 00 00 00 00 00 00 00 00 00 00 00 00 ED D7
write:31 03 01 0F 00 08 70 03
write:32 03 00 38 00 34 C0 13
32 03 68
5043 8C 70 E5 43 46 30 A4 43 79 60 C5 43 D0 65 C3 43 C2 26 E9 43 E5 AC CD 41 98 00 00 41 34 7A E1 41 1A 3D 71 45 92 40 00 44 C8 31 00 44 CD 00 00 45 A7 80 00 45 0C 00 00 45 16 00 00 46 06 60 00 3F 5F BE 77 3F 36 87 2B 3F 00 00 00 00 00 00 00 00 00 00 00 00 00 00 00 00 00 00 00 00 00 00 00 00 00 00 00 00 00 00 00
67 EF 9E
heart:67 EF 9E 3F 7B 64 5A 42 48 A5 92
write:32 03 07 CF 00 78 71 60
write:32 03 01 0F 00 08 70 30
32 03 F0
50totalsize 240
45 1D B3 33 44 12 00 00 44 AC 59 9A 00 00 00 00 44 0C 0C CD 00 00 00 00 00 00 00 00 00 00 00 00 00 00 00 00 00 00 00 00 00 00 00 00 00 00 00 00 00 00 00 00 00 00 00 00 00 00 00 00 44 23 40 00 42 FB 33 33 43 A4 00 00 00 00 00 00 43 47 33 33 45 27 30 00 44 24 E6 66 44 AE 66 66 00 00 00 00 44 1B 00 00 00 00 00 00 00 00 00 00 00 00 00 00 00 00 00 00 00 00 00 00 00 00 00 00 00 00 00 00 00 00 00 00 00 00 00 00 00 00 00 00 44 51 8C CD 43 29 66 66 43 CE 19 9A 00 00 00 00 43 80 4C CD 45 1C 83 33 44 0D B3 33 44 9C 99 9A 00 00 00 00 44 2B 19 9A 00 00 00 00 00 00 00 00 00 00 00 00 00 00 00 00 00 00 00 00 42 23 33 33 41 23 33 33 41 E4 CC CD 00 00 00 00 3F E6 66 66 44 3B 4C CD 43 11 CC CD 43 AE 33 33 00 00 00 00 43 7E E8 A2
write:21 03 00 38 00 34 C2 B0
32 03 10
5000 08 26 E3 00 00 00 00 00 00 F0 00 00 00 00 00
43 8C 70 E5
280.882
43 46 30 A4
198.19
43 79 60 C5
249.378
43 D0 65 C3
416.795
43 C2 26 E9
388.304
43 E5 AC CD
459.35
41 98 00 00
19
41 34 7A E1
11.28
41 1A 3D 71
9.64
45 92 40 00
4680
44 C8 31 00
1601.5312
44 CD 00 00
1640
45 A7 80 00
5360
45 0C 00 00
2240
45 16 00 00
2400
46 06 60 00
8600
3F 5F BE 77
0.874
3F 36 87 2B
0.713
3F 00 00 00
0.5
00 00 00 00
0
00 00 00 00
0
00 00 00 00
0
00 00 00 00
0
00 00 00 00
0
00 00 00 00
0
00 00 00 00
0
45 1D B3 33
2523.2
44 12 00 00
584
44 AC 59 9A
1378.8
00 00 00 00
0
44 0C 0C CD
560.2
00 00 00 00
0
00 00 00 00
0
00 00 00 00
0
00 00 00 00
0
00 00 00 00
0
00 00 00 00
0
00 00 00 00
0
00 00 00 00
0
00 00 00 00
0
00 00 00 00
0
44 23 40 00
653
42 FB 33 33
125.6
43 A4 00 00
328
00 00 00 00
0
43 47 33 33
199.2
45 27 30 00
2675
44 24 E6 66
659.6
44 AE 66 66
1395.2
00 00 00 00
0
44 1B 00 00
620
00 00 00 00
0
00 00 00 00
0
00 00 00 00
0
00 00 00 00
0
00 00 00 00
0
00 00 00 00
0
00 00 00 00
0
00 00 00 00
0
00 00 00 00
0
00 00 00 00
0
44 51 8C CD
838.2
43 29 66 66
169.4
43 CE 19 9A
412.2
00 00 00 00
0
43 80 4C CD
256.6
45 1C 83 33
2504.2
44 0D B3 33
566.8
44 9C 99 9A
1252.8
00 00 00 00
0
44 2B 19 9A
684.4
00 00 00 00
0
00 00 00 00
0
00 00 00 00
0
00 00 00 00
0
00 00 00 00
0
42 23 33 33
40.8
41 23 33 33
10.2
41 E4 CC CD
28.6
00 00 00 00
0
3F E6 66 66
1.8
44 3B 4C CD
749.2
43 11 CC CD
145.8
43 AE 33 33
348.4
00 00 00 00
0
43 7E E8 A2
254.90872
00 08 26 E3
534243
00 00 00 00
0
00 00 F0 00
61440
00 00 00 00
0
280.882198.19249.378416.795388.304459.351911.289.6446801601.5312164053602240240086000.8740.7130.500000002523.25841378.80560.20000000000653125.63280199.22675659.61395.206200000000000838.2169.4412.20256.62504.2566.81252.80684.40000040.810.228.601.8749.2145.8348.40254.908725020171123212157534.243061.440insert into tbl_power_info_v2(P_A_DIANYA,P_B_DIANYA,P_C_DIANYA,P_UAB_XIANDIANYA,P_UBC_XIANDIANYA,P_UCA_XIANDIANYA,P_A_DIANLIU,P_B_DIANLIU,P_C_DIANLIU,P_A_YGGL,P_B_YGGL,P_C_YGGL,P_HXYGGL,P_A_WGGL,P_B_WGGL,P_C_WGGL,P_HXWGGL,P_A_SZGL,P_B_SZGL,P_C_SZGL,P_HXSZGL,P_A_GLYS,P_B_GLYS,P_C_GLYS,P_HXGLYS,P_DWPL,P_BY_KwhZ,P_BY_KwhJ,P_BY_KwhF,P_BY_KwhP,P_BY_KwhG,P_BY_HKwhZ,P_BY_HKwhJ,P_BY_HKwhF,P_BY_HKwhP,P_BY_HKwhG, P_BY_KvarhZ,P_BY_KvarhJ,P_BY_KvarhF,P_BY_KvarhP,P_BY_KvarhG, P_BY_HKvarhZ,P_BY_HKvarhJ,P_BY_HKvarhF,P_BY_HKvarhP,P_BY_HKvarhG, P_SY_KwhZ,P_SY_KwhJ,P_SY_KwhF,P_SY_KwhP,P_SY_KwhG, P_SY_HKwhZ,P_SY_HKwhJ,P_SY_HKwhF,P_SY_HKwhP,P_SY_HKwhG, P_SY_KvarhZ,P_SY_KvarhJ,P_SY_KvarhF,P_SY_KvarhP,P_SY_KvarhG, P_SY_HKvarhZ,P_SY_HKvarhJ,P_SY_HKvarhF,P_SY_HKvarhP,P_SY_HKvarhG, P_SSY_KwhZ,P_SSY_KwhJ,P_SSY_KwhF,P_SSY_KwhP,P_SSY_KwhG, P_SSY_HKwhZ,P_SSY_HKwhJ,P_SSY_HKwhF,P_SSY_HKwhP,P_SSY_HKwhG, P_SSY_KvarhZ,P_SSY_KvarhJ,P_SSY_KvarhF,P_SSY_KvarhP,P_SSY_KvarhG, P_SSY_HKvarhZ,P_SSY_HKvarhJ,P_SSY_HKvarhF,P_SSY_HKvarhP,P_SSY_HKvarhG,P_CODE,P_TIME,P_ZXYGDN,P_FXYGDN,P_ZXWGDN,P_FXWGDN)values(280.882,198.19,249.378,416.795,388.304,459.35,19,11.28,9.64,4680,1601.5312,1640,5360,2240,2400,8600,0.874,0.713,0.5,0,0,0,0,0,0,0,2523.2,584,1378.8,0,560.2,0,0,0,0,0,0,0,0,0,0,653,125.6,328,0,199.2,2675,659.6,1395.2,0,620,0,0,0,0,0,0,0,0,0,0,838.2,169.4,412.2,0,256.6,2504.2,566.8,1252.8,0,684.4,0,0,0,0,0,40.8,10.2,28.6,0,1.8,749.2,145.8,348.4,0,254.90872,50,20171123212157,534.243,0,61.44,0)
写入成功读取完毕一个
write:21 03 07 CF 00 78 73 C3
57 00 01
heart:57 00 01 62 71
write:21 03 01 0F 00 08 72 93
write:22 03 00 38 00 34 C2 83
22 03 68
3443 6C 61 06 43 6C E5 1F 43 6C EA 7F 43 CC DB A6 43 CD 1E 35 43 CC E6 C9 43 27 94 7B 43 29 4A 3D 43 23 59 9A 47 0D EA 00 47 0E 80 00 47 0A 0C 00 47 D3 3B 00 46 6A D8 00 46 79 60 00 46 6B 50 00 47 33 E2 00 47 1A B0 00 47 1C AE 00 47 17 2C 00 47 E5 92 00 3F 6A C0 83 3F 68 B4 39 3F 69 BA 5E 3F 6B 85 1F 42 48 33 86
write:22 03 07 CF 00 78 73 F0
22 03 F0
34totalsize 240
46 76 F3 9A 45 7E 14 CD 46 19 22 33 00 00 00 00 44 F2 61 9A 00 00 00 00 00 00 00 00 00 00 00 00 00 00 00 00 00 00 00 00 46 34 74 66 45 34 6E 66 45 E0 BC CD 00 00 00 00 44 B7 D3 33 40 C9 99 9A 00 00 00 00 3F 40 00 00 00 00 00 00 40 AC CC CD 46 A2 7B E6 45 AB C7 33 46 39 CA 9A 00 00 00 00 45 55 24 00 00 00 00 00 00 00 00 00 00 00 00 00 00 00 00 00 00 00 00 00 46 67 37 33 45 6B CC CD 46 06 3E 33 00 00 00 00 45 18 14 CD 41 28 00 00 3E E6 66 66 3F F9 99 9A 00 00 00 00 40 FE 66 66 46 28 7C CD 44 CD 5E 66 45 D8 06 00 00 00 00 00 45 0B 35 9A 00 00 00 00 00 00 00 00 00 00 00 00 00 00 00 00 00 00 00 00 46 14 0F 33 44 A5 86 66 45 BE D0 66 00 00 00 00 44 FF AC CD 40 53 33 33 00 00 00 00 3E 19 99 9A 00 00 00 00 40 40 16 2A
write:22 03 01 0F 00 08 72 A0
22 03 10
3400 1C 63 F7 00 00 00 00 00 16 1D BA 00 00 F7 3F
43 6C 61 06
236.379
43 6C E5 1F
236.895
43 6C EA 7F
236.916
43 CC DB A6
409.716
43 CD 1E 35
410.236
43 CC E6 C9
409.803
43 27 94 7B
167.58
43 29 4A 3D
169.29
43 23 59 9A
163.35
47 0D EA 00
36330
47 0E 80 00
36480
47 0A 0C 00
35340
47 D3 3B 00
108150
46 6A D8 00
15030
46 79 60 00
15960
46 6B 50 00
15060
47 33 E2 00
46050
47 1A B0 00
39600
47 1C AE 00
40110
47 17 2C 00
38700
47 E5 92 00
117540
3F 6A C0 83
0.917
3F 68 B4 39
0.909
3F 69 BA 5E
0.913
3F 6B 85 1F
0.92
42 48 33 86
50.050316
46 76 F3 9A
15804.9
45 7E 14 CD
4065.3
46 19 22 33
9800.55
00 00 00 00
0
44 F2 61 9A
1939.05
00 00 00 00
0
00 00 00 00
0
00 00 00 00
0
00 00 00 00
0
00 00 00 00
0
46 34 74 66
11549.1
45 34 6E 66
2886.9
45 E0 BC CD
7191.6
00 00 00 00
0
44 B7 D3 33
1470.6
40 C9 99 9A
6.3
00 00 00 00
0
3F 40 00 00
0.75
00 00 00 00
0
40 AC CC CD
5.4
46 A2 7B E6
20797.95
45 AB C7 33
5496.9
46 39 CA 9A
11890.65
00 00 00 00
0
45 55 24 00
3410.25
00 00 00 00
0
00 00 00 00
0
00 00 00 00
0
00 00 00 00
0
00 00 00 00
0
46 67 37 33
14797.8
45 6B CC CD
3772.8
46 06 3E 33
8591.55
00 00 00 00
0
45 18 14 CD
2433.3
41 28 00 00
10.5
3E E6 66 66
0.45
3F F9 99 9A
1.95
00 00 00 00
0
40 FE 66 66
7.95
46 28 7C CD
10783.2
44 CD 5E 66
1642.95
45 D8 06 00
6912.75
00 00 00 00
0
45 0B 35 9A
2227.35
00 00 00 00
0
00 00 00 00
0
00 00 00 00
0
00 00 00 00
0
00 00 00 00
0
46 14 0F 33
9475.8
44 A5 86 66
1324.2
45 BE D0 66
6106.05
00 00 00 00
0
44 FF AC CD
2045.4
40 53 33 33
3.3
00 00 00 00
0
3E 19 99 9A
0.15
00 00 00 00
0
40 40 16 2A
3.0013528
00 1C 63 F7
1860599
00 00 00 00
0
00 16 1D BA
1449402
00 00 F7 3F
63295
236.379236.895236.916409.716410.236409.803167.58169.29163.35363303648035340108150150301596015060460503960040110387001175400.9170.9090.9130.9250.05031615804.94065.39800.5501939.050000011549.12886.97191.601470.66.300.7505.420797.955496.911890.6503410.250000014797.83772.88591.5502433.310.50.451.9507.9510783.21642.956912.7502227.35000009475.81324.26106.0502045.43.300.1503.001352834201711232123221860.59901449.40263.295insert into tbl_power_info_v2(P_A_DIANYA,P_B_DIANYA,P_C_DIANYA,P_UAB_XIANDIANYA,P_UBC_XIANDIANYA,P_UCA_XIANDIANYA,P_A_DIANLIU,P_B_DIANLIU,P_C_DIANLIU,P_A_YGGL,P_B_YGGL,P_C_YGGL,P_HXYGGL,P_A_WGGL,P_B_WGGL,P_C_WGGL,P_HXWGGL,P_A_SZGL,P_B_SZGL,P_C_SZGL,P_HXSZGL,P_A_GLYS,P_B_GLYS,P_C_GLYS,P_HXGLYS,P_DWPL,P_BY_KwhZ,P_BY_KwhJ,P_BY_KwhF,P_BY_KwhP,P_BY_KwhG,P_BY_HKwhZ,P_BY_HKwhJ,P_BY_HKwhF,P_BY_HKwhP,P_BY_HKwhG, P_BY_KvarhZ,P_BY_KvarhJ,P_BY_KvarhF,P_BY_KvarhP,P_BY_KvarhG, P_BY_HKvarhZ,P_BY_HKvarhJ,P_BY_HKvarhF,P_BY_HKvarhP,P_BY_HKvarhG, P_SY_KwhZ,P_SY_KwhJ,P_SY_KwhF,P_SY_KwhP,P_SY_KwhG, P_SY_HKwhZ,P_SY_HKwhJ,P_SY_HKwhF,P_SY_HKwhP,P_SY_HKwhG, P_SY_KvarhZ,P_SY_KvarhJ,P_SY_KvarhF,P_SY_KvarhP,P_SY_KvarhG, P_SY_HKvarhZ,P_SY_HKvarhJ,P_SY_HKvarhF,P_SY_HKvarhP,P_SY_HKvarhG, P_SSY_KwhZ,P_SSY_KwhJ,P_SSY_KwhF,P_SSY_KwhP,P_SSY_KwhG, P_SSY_HKwhZ,P_SSY_HKwhJ,P_SSY_HKwhF,P_SSY_HKwhP,P_SSY_HKwhG, P_SSY_KvarhZ,P_SSY_KvarhJ,P_SSY_KvarhF,P_SSY_KvarhP,P_SSY_KvarhG, P_SSY_HKvarhZ,P_SSY_HKvarhJ,P_SSY_HKvarhF,P_SSY_HKvarhP,P_SSY_HKvarhG,P_CODE,P_TIME,P_ZXYGDN,P_FXYGDN,P_ZXWGDN,P_FXWGDN)values(236.379,236.895,236.916,409.716,410.236,409.803,167.58,169.29,163.35,36330,36480,35340,108150,15030,15960,15060,46050,39600,40110,38700,117540,0.917,0.909,0.913,0.92,50.050316,15804.9,4065.3,9800.55,0,1939.05,0,0,0,0,0,11549.1,2886.9,7191.6,0,1470.6,6.3,0,0.75,0,5.4,20797.95,5496.9,11890.65,0,3410.25,0,0,0,0,0,14797.8,3772.8,8591.55,0,2433.3,10.5,0.45,1.95,0,7.95,10783.2,1642.95,6912.75,0,2227.35,0,0,0,0,0,9475.8,1324.2,6106.05,0,2045.4,3.3,0,0.15,0,3.0013528,34,20171123212322,1860.599,0,1449.402,63.295)
写入成功读取完毕一个
write:23 03 00 38 00 34 C3 52
write:23 03 07 CF 00 78 72 21
write:23 03 01 0F 00 08 73 71
write:24 03 00 38 00 34 C2 E5
24 03 68
3643 6C C8 B4 43 6D 16 87 43 6D 79 17 43 CD 1E 35 43 CD 6B C7 43 CD 4A 7F 3F D7 0A 3D 40 95 C2 8F 40 0E 14 7B 43 87 00 00 44 3B 80 00 43 96 00 00 44 A5 00 00 42 F0 00 00 42 70 00 00 42 70 00 00 43 16 00 00 43 C3 00 00 44 8A C0 00 44 07 00 00 44 A5 00 00 3F 34 7A E1 3F 2A 7E FA 3F 0B 85 1F 3F 7E 76 C9 42 48 E1 67
write:24 03 07 CF 00 78 73 96
24 03 F0
36totalsize 240
44 C3 86 66 42 7C 99 9A 44 9A BE 66 00 00 00 00 43 83 79 9A 00 00 00 00 00 00 00 00 00 00 00 00 00 00 00 00 00 00 00 00 44 C1 08 00 41 97 33 33 44 A5 F0 00 00 00 00 00 43 45 B3 33 40 23 33 33 3E 99 99 9A 3E E6 66 66 00 00 00 00 3F C0 00 00 44 FE DE 66 42 D6 CC CD 44 C8 0B 33 00 00 00 00 43 A5 99 9A 00 00 00 00 00 00 00 00 00 00 00 00 00 00 00 00 00 00 00 00 44 FD F8 00 42 43 00 00 44 D9 B0 00 00 00 00 00 43 71 80 00 40 A3 33 33 3E 99 99 9A 3F D3 33 33 00 00 00 00 40 40 00 00 44 FE E3 33 42 4A 33 33 44 CD C3 33 00 00 00 00 43 AB 26 66 00 00 00 00 00 00 00 00 00 00 00 00 00 00 00 00 00 00 00 00 45 00 B3 33 41 23 33 33 44 E2 4B 33 00 00 00 00 43 6E 80 00 40 A8 00 00 3F 66 66 66 40 06 66 66 00 00 00 00 40 10 6B 8F
write:24 03 01 0F 00 08 72 C6
24 03 10
3600 08 F2 37 00 00 00 00 00 08 C8 84 00 00 7C 20
43 6C C8 B4
236.784
43 6D 16 87
237.088
43 6D 79 17
237.473
43 CD 1E 35
410.236
43 CD 6B C7
410.842
43 CD 4A 7F
410.582
3F D7 0A 3D
1.68
40 95 C2 8F
4.68
40 0E 14 7B
2.22
43 87 00 00
270
44 3B 80 00
750
43 96 00 00
300
44 A5 00 00
1320
42 F0 00 00
120
42 70 00 00
60
42 70 00 00
60
43 16 00 00
150
43 C3 00 00
390
44 8A C0 00
1110
44 07 00 00
540
44 A5 00 00
1320
3F 34 7A E1
0.705
3F 2A 7E FA
0.666
3F 0B 85 1F
0.545
3F 7E 76 C9
0.994
42 48 E1 67
50.22012
44 C3 86 66
1564.2
42 7C 99 9A
63.15
44 9A BE 66
1237.95
00 00 00 00
0
43 83 79 9A
262.95
00 00 00 00
0
00 00 00 00
0
00 00 00 00
0
00 00 00 00
0
00 00 00 00
0
44 C1 08 00
1544.25
41 97 33 33
18.9
44 A5 F0 00
1327.5
00 00 00 00
0
43 45 B3 33
197.7
40 23 33 33
2.55
3E 99 99 9A
0.3
3E E6 66 66
0.45
00 00 00 00
0
3F C0 00 00
1.5
44 FE DE 66
2038.95
42 D6 CC CD
107.4
44 C8 0B 33
1600.35
00 00 00 00
0
43 A5 99 9A
331.2
00 00 00 00
0
00 00 00 00
0
00 00 00 00
0
00 00 00 00
0
00 00 00 00
0
44 FD F8 00
2031.75
42 43 00 00
48.75
44 D9 B0 00
1741.5
00 00 00 00
0
43 71 80 00
241.5
40 A3 33 33
5.1
3E 99 99 9A
0.3
3F D3 33 33
1.65
00 00 00 00
0
40 40 00 00
3
44 FE E3 33
2039.1
42 4A 33 33
50.55
44 CD C3 33
1646.1
00 00 00 00
0
43 AB 26 66
342.3
00 00 00 00
0
00 00 00 00
0
00 00 00 00
0
00 00 00 00
0
00 00 00 00
0
45 00 B3 33
2059.2
41 23 33 33
10.2
44 E2 4B 33
1810.35
00 00 00 00
0
43 6E 80 00
238.5
40 A8 00 00
5.25
3F 66 66 66
0.9
40 06 66 66
2.1
00 00 00 00
0
40 10 6B 8F
2.2565649
00 08 F2 37
586295
00 00 00 00
0
00 08 C8 84
575620
00 00 7C 20
31776
236.784237.088237.473410.236410.842410.5821.684.682.2227075030013201206060150390111054013200.7050.6660.5450.99450.220121564.263.151237.950262.95000001544.2518.91327.50197.72.550.30.4501.52038.95107.41600.350331.2000002031.7548.751741.50241.55.10.31.65032039.150.551646.10342.3000002059.210.21810.350238.55.250.92.102.25656493620171123212519586.2950575.6231.776insert into tbl_power_info_v2(P_A_DIANYA,P_B_DIANYA,P_C_DIANYA,P_UAB_XIANDIANYA,P_UBC_XIANDIANYA,P_UCA_XIANDIANYA,P_A_DIANLIU,P_B_DIANLIU,P_C_DIANLIU,P_A_YGGL,P_B_YGGL,P_C_YGGL,P_HXYGGL,P_A_WGGL,P_B_WGGL,P_C_WGGL,P_HXWGGL,P_A_SZGL,P_B_SZGL,P_C_SZGL,P_HXSZGL,P_A_GLYS,P_B_GLYS,P_C_GLYS,P_HXGLYS,P_DWPL,P_BY_KwhZ,P_BY_KwhJ,P_BY_KwhF,P_BY_KwhP,P_BY_KwhG,P_BY_HKwhZ,P_BY_HKwhJ,P_BY_HKwhF,P_BY_HKwhP,P_BY_HKwhG, P_BY_KvarhZ,P_BY_KvarhJ,P_BY_KvarhF,P_BY_KvarhP,P_BY_KvarhG, P_BY_HKvarhZ,P_BY_HKvarhJ,P_BY_HKvarhF,P_BY_HKvarhP,P_BY_HKvarhG, P_SY_KwhZ,P_SY_KwhJ,P_SY_KwhF,P_SY_KwhP,P_SY_KwhG, P_SY_HKwhZ,P_SY_HKwhJ,P_SY_HKwhF,P_SY_HKwhP,P_SY_HKwhG, P_SY_KvarhZ,P_SY_KvarhJ,P_SY_KvarhF,P_SY_KvarhP,P_SY_KvarhG, P_SY_HKvarhZ,P_SY_HKvarhJ,P_SY_HKvarhF,P_SY_HKvarhP,P_SY_HKvarhG, P_SSY_KwhZ,P_SSY_KwhJ,P_SSY_KwhF,P_SSY_KwhP,P_SSY_KwhG, P_SSY_HKwhZ,P_SSY_HKwhJ,P_SSY_HKwhF,P_SSY_HKwhP,P_SSY_HKwhG, P_SSY_KvarhZ,P_SSY_KvarhJ,P_SSY_KvarhF,P_SSY_KvarhP,P_SSY_KvarhG, P_SSY_HKvarhZ,P_SSY_HKvarhJ,P_SSY_HKvarhF,P_SSY_HKvarhP,P_SSY_HKvarhG,P_CODE,P_TIME,P_ZXYGDN,P_FXYGDN,P_ZXWGDN,P_FXWGDN)values(236.784,237.088,237.473,410.236,410.842,410.582,1.68,4.68,2.22,270,750,300,1320,120,60,60,150,390,1110,540,1320,0.705,0.666,0.545,0.994,50.22012,1564.2,63.15,1237.95,0,262.95,0,0,0,0,0,1544.25,18.9,1327.5,0,197.7,2.55,0.3,0.45,0,1.5,2038.95,107.4,1600.35,0,331.2,0,0,0,0,0,2031.75,48.75,1741.5,0,241.5,5.1,0.3,1.65,0,3,2039.1,50.55,1646.1,0,342.3,0,0,0,0,0,2059.2,10.2,1810.35,0,238.5,5.25,0.9,2.1,0,2.2565649,36,20171123212519,586.295,0,575.62,31.776)
写入成功读取完毕一个
write:25 03 00 38 00 34 C3 34
25 03 68
3743 6D 59 9A 43 6D F1 27 43 6D E6 66 43 CD C4 7B 43 CE 06 E9 43 CD C4 7B 3F 02 8F 5C 00 00 00 00 00 00 00 00 42 70 00 00 00 00 00 00 00 00 00 00 42 B4 00 00 42 70 00 00 00 00 00 00 00 00 00 00 00 00 00 00 42 F0 00 00 00 00 00 00 00 00 00 00 42 B4 00 00 3F 0F DF 3B 00 00 00 00 00 00 00 00 3F 72 F1 AA 42 47 A6 2E
write:25 03 07 CF 00 78 72 47
25 03 F0
37totalsize 240
45 51 4C 00 43 D8 F9 9A 45 10 94 CD 00 00 00 00 44 16 56 66 00 00 00 00 00 00 00 00 00 00 00 00 00 00 00 00 00 00 00 00 44 AB 99 9A 43 5B 4C CD 44 6F E3 33 00 00 00 00 43 41 F3 33 3F F9 99 9A 3E 99 99 9A 3E 19 99 9A 00 00 00 00 3F AC CC CD 45 5E 62 66 43 A5 E6 66 45 25 D8 00 00 00 00 00 44 0F 2C CD 00 00 00 00 00 00 00 00 00 00 00 00 00 00 00 00 00 00 00 00 45 0E 46 66 43 77 F3 33 44 D2 51 9A 00 00 00 00 43 AC E0 00 40 10 00 00 3E 99 99 9A 3F 19 99 9A 00 00 00 00 3F 99 99 9A 45 22 37 33 43 83 EC CD 44 F1 46 66 00 00 00 00 43 C8 A0 00 00 00 00 00 00 00 00 00 00 00 00 00 00 00 00 00 00 00 00 00 44 DC 50 00 43 48 19 9A 44 A5 5B 33 00 00 00 00 43 6F 66 66 40 E1 99 9A 40 66 66 66 40 10 00 00 00 00 00 00 3F 99 EB 8E
write:25 03 01 0F 00 08 73 17
25 03 10
3700 06 5D 1F 00 00 00 00 00 03 A1 B7 00 00 09 75
43 6D 59 9A
237.35
43 6D F1 27
237.942
43 6D E6 66
237.9
43 CD C4 7B
411.535
43 CE 06 E9
412.054
43 CD C4 7B
411.535
3F 02 8F 5C
0.51
00 00 00 00
0
00 00 00 00
0
42 70 00 00
60
00 00 00 00
0
00 00 00 00
0
42 B4 00 00
90
42 70 00 00
60
00 00 00 00
0
00 00 00 00
0
00 00 00 00
0
42 F0 00 00
120
00 00 00 00
0
00 00 00 00
0
42 B4 00 00
90
3F 0F DF 3B
0.562
00 00 00 00
0
00 00 00 00
0
3F 72 F1 AA
0.949
42 47 A6 2E
49.912285
45 51 4C 00
3348.75
43 D8 F9 9A
433.95
45 10 94 CD
2313.3
00 00 00 00
0
44 16 56 66
601.35
00 00 00 00
0
00 00 00 00
0
00 00 00 00
0
00 00 00 00
0
00 00 00 00
0
44 AB 99 9A
1372.8
43 5B 4C CD
219.3
44 6F E3 33
959.55
00 00 00 00
0
43 41 F3 33
193.95
3F F9 99 9A
1.95
3E 99 99 9A
0.3
3E 19 99 9A
0.15
00 00 00 00
0
3F AC CC CD
1.35
45 5E 62 66
3558.15
43 A5 E6 66
331.8
45 25 D8 00
2653.5
00 00 00 00
0
44 0F 2C CD
572.7
00 00 00 00
0
00 00 00 00
0
00 00 00 00
0
00 00 00 00
0
00 00 00 00
0
45 0E 46 66
2276.4
43 77 F3 33
247.95
44 D2 51 9A
1682.55
00 00 00 00
0
43 AC E0 00
345.75
40 10 00 00
2.25
3E 99 99 9A
0.3
3F 19 99 9A
0.6
00 00 00 00
0
3F 99 99 9A
1.2
45 22 37 33
2595.45
43 83 EC CD
263.85
44 F1 46 66
1930.2
00 00 00 00
0
43 C8 A0 00
401.25
00 00 00 00
0
00 00 00 00
0
00 00 00 00
0
00 00 00 00
0
00 00 00 00
0
44 DC 50 00
1762.5
43 48 19 9A
200.1
44 A5 5B 33
1322.85
00 00 00 00
0
43 6F 66 66
239.4
40 E1 99 9A
7.05
40 66 66 66
3.6
40 10 00 00
2.25
00 00 00 00
0
3F 99 EB 8E
1.202501
00 06 5D 1F
417055
00 00 00 00
0
00 03 A1 B7
238007
00 00 09 75
2421
237.35237.942237.9411.535412.054411.5350.51006000906000012000900.562000.94949.9122853348.75433.952313.30601.35000001372.8219.3959.550193.951.950.30.1501.353558.15331.82653.50572.7000002276.4247.951682.550345.752.250.30.601.22595.45263.851930.20401.25000001762.5200.11322.850239.47.053.62.2501.2025013720171123212621417.0550238.0072.421insert into tbl_power_info_v2(P_A_DIANYA,P_B_DIANYA,P_C_DIANYA,P_UAB_XIANDIANYA,P_UBC_XIANDIANYA,P_UCA_XIANDIANYA,P_A_DIANLIU,P_B_DIANLIU,P_C_DIANLIU,P_A_YGGL,P_B_YGGL,P_C_YGGL,P_HXYGGL,P_A_WGGL,P_B_WGGL,P_C_WGGL,P_HXWGGL,P_A_SZGL,P_B_SZGL,P_C_SZGL,P_HXSZGL,P_A_GLYS,P_B_GLYS,P_C_GLYS,P_HXGLYS,P_DWPL,P_BY_KwhZ,P_BY_KwhJ,P_BY_KwhF,P_BY_KwhP,P_BY_KwhG,P_BY_HKwhZ,P_BY_HKwhJ,P_BY_HKwhF,P_BY_HKwhP,P_BY_HKwhG, P_BY_KvarhZ,P_BY_KvarhJ,P_BY_KvarhF,P_BY_KvarhP,P_BY_KvarhG, P_BY_HKvarhZ,P_BY_HKvarhJ,P_BY_HKvarhF,P_BY_HKvarhP,P_BY_HKvarhG, P_SY_KwhZ,P_SY_KwhJ,P_SY_KwhF,P_SY_KwhP,P_SY_KwhG, P_SY_HKwhZ,P_SY_HKwhJ,P_SY_HKwhF,P_SY_HKwhP,P_SY_HKwhG, P_SY_KvarhZ,P_SY_KvarhJ,P_SY_KvarhF,P_SY_KvarhP,P_SY_KvarhG, P_SY_HKvarhZ,P_SY_HKvarhJ,P_SY_HKvarhF,P_SY_HKvarhP,P_SY_HKvarhG, P_SSY_KwhZ,P_SSY_KwhJ,P_SSY_KwhF,P_SSY_KwhP,P_SSY_KwhG, P_SSY_HKwhZ,P_SSY_HKwhJ,P_SSY_HKwhF,P_SSY_HKwhP,P_SSY_HKwhG, P_SSY_KvarhZ,P_SSY_KvarhJ,P_SSY_KvarhF,P_SSY_KvarhP,P_SSY_KvarhG, P_SSY_HKvarhZ,P_SSY_HKvarhJ,P_SSY_HKvarhF,P_SSY_HKvarhP,P_SSY_HKvarhG,P_CODE,P_TIME,P_ZXYGDN,P_FXYGDN,P_ZXWGDN,P_FXWGDN)values(237.35,237.942,237.9,411.535,412.054,411.535,0.51,0,0,60,0,0,90,60,0,0,0,120,0,0,90,0.562,0,0,0.949,49.912285,3348.75,433.95,2313.3,0,601.35,0,0,0,0,0,1372.8,219.3,959.55,0,193.95,1.95,0.3,0.15,0,1.35,3558.15,331.8,2653.5,0,572.7,0,0,0,0,0,2276.4,247.95,1682.55,0,345.75,2.25,0.3,0.6,0,1.2,2595.45,263.85,1930.2,0,401.25,0,0,0,0,0,1762.5,200.1,1322.85,0,239.4,7.05,3.6,2.25,0,1.202501,37,20171123212621,417.055,0,238.007,2.421)
写入成功读取完毕一个
write:26 03 00 38 00 34 C3 07
26 03 68
3843 6C BF 7D 43 6D 84 19 43 6D 5C 29 43 CD 55 A2 43 CD 98 10 43 CD 3F 7D 00 00 00 00 00 00 00 00 3F 86 66 66 00 00 00 00 00 00 00 00 42 70 00 00 43 16 00 00 00 00 00 00 00 00 00 00 43 52 00 00 43 87 00 00 42 70 00 00 42 70 00 00 43 70 00 00 43 96 00 00 3F 25 60 42 3F 37 CE D9 3E 91 68 73 3E EE 14 7B 42 48 30 0A
write:26 03 07 CF 00 78 72 74
26 03 F0
38totalsize 240
45 3B 54 CD 42 21 66 66 45 0A 94 CD 00 00 00 00 44 38 E0 00 40 53 33 33 00 00 00 00 40 2C CC CD 00 00 00 00 3F 19 99 9A 45 2F 24 CD 40 40 00 00 45 06 06 66 00 00 00 00 44 23 B0 00 42 86 B3 33 41 8B 33 33 41 72 66 66 00 00 00 00 42 0A 99 9A 44 90 73 33 42 5B 00 00 44 55 13 33 00 00 00 00 43 78 66 66 3F AC CC CD 00 00 00 00 3F 86 66 66 00 00 00 00 3E 19 99 9A 44 89 53 33 42 2F CC CD 44 50 FC CD 00 00 00 00 43 5A 8C CD 41 C6 00 00 40 C9 99 9A 40 A8 00 00 00 00 00 00 41 50 CC CD 42 AF 33 33 40 19 99 9A 42 77 CC CD 00 00 00 00 41 B8 CC CD 00 00 00 00 00 00 00 00 00 00 00 00 00 00 00 00 00 00 00 00 42 1D 33 33 3F C0 00 00 41 E7 99 9A 00 00 00 00 41 0B 33 33 41 01 99 9A 3E 99 99 9A 40 B6 66 66 00 00 00 00 3F F9 70 53
write:26 03 01 0F 00 08 73 24
26 03 10
3800 02 40 EA 00 00 00 A0 00 02 05 C4 00 00 32 77
43 6C BF 7D
236.748
43 6D 84 19
237.516
43 6D 5C 29
237.36
43 CD 55 A2
410.669
43 CD 98 10
411.188
43 CD 3F 7D
410.496
00 00 00 00
0
00 00 00 00
0
3F 86 66 66
1.05
00 00 00 00
0
00 00 00 00
0
42 70 00 00
60
43 16 00 00
150
00 00 00 00
0
00 00 00 00
0
43 52 00 00
210
43 87 00 00
270
42 70 00 00
60
42 70 00 00
60
43 70 00 00
240
43 96 00 00
300
3F 25 60 42
0.646
3F 37 CE D9
0.718
3E 91 68 73
0.284
3E EE 14 7B
0.465
42 48 30 0A
50.046913
45 3B 54 CD
2997.3
42 21 66 66
40.35
45 0A 94 CD
2217.3
00 00 00 00
0
44 38 E0 00
739.5
40 53 33 33
3.3
00 00 00 00
0
40 2C CC CD
2.7
00 00 00 00
0
3F 19 99 9A
0.6
45 2F 24 CD
2802.3
40 40 00 00
3
45 06 06 66
2144.4
00 00 00 00
0
44 23 B0 00
654.75
42 86 B3 33
67.35
41 8B 33 33
17.4
41 72 66 66
15.15
00 00 00 00
0
42 0A 99 9A
34.65
44 90 73 33
1155.6
42 5B 00 00
54.75
44 55 13 33
852.3
00 00 00 00
0
43 78 66 66
248.4
3F AC CC CD
1.35
00 00 00 00
0
3F 86 66 66
1.05
00 00 00 00
0
3E 19 99 9A
0.15
44 89 53 33
1098.6
42 2F CC CD
43.95
44 50 FC CD
835.95
00 00 00 00
0
43 5A 8C CD
218.55
41 C6 00 00
24.75
40 C9 99 9A
6.3
40 A8 00 00
5.25
00 00 00 00
0
41 50 CC CD
13.05
42 AF 33 33
87.6
40 19 99 9A
2.4
42 77 CC CD
61.95
00 00 00 00
0
41 B8 CC CD
23.1
00 00 00 00
0
00 00 00 00
0
00 00 00 00
0
00 00 00 00
0
00 00 00 00
0
42 1D 33 33
39.3
3F C0 00 00
1.5
41 E7 99 9A
28.95
00 00 00 00
0
41 0B 33 33
8.7
41 01 99 9A
8.1
3E 99 99 9A
0.3
40 B6 66 66
5.7
00 00 00 00
0
3F F9 70 53
1.9487404
00 02 40 EA
147690
00 00 00 A0
160
00 02 05 C4
132548
00 00 32 77
12919
236.748237.516237.36410.669411.188410.496001.0500601500021027060602403000.6460.7180.2840.46550.0469132997.340.352217.30739.53.302.700.62802.332144.40654.7567.3517.415.15034.651155.654.75852.30248.41.3501.0500.151098.643.95835.950218.5524.756.35.25013.0587.62.461.95023.10000039.31.528.9508.78.10.35.701.94874043820171123212719147.690.16132.54812.919insert into tbl_power_info_v2(P_A_DIANYA,P_B_DIANYA,P_C_DIANYA,P_UAB_XIANDIANYA,P_UBC_XIANDIANYA,P_UCA_XIANDIANYA,P_A_DIANLIU,P_B_DIANLIU,P_C_DIANLIU,P_A_YGGL,P_B_YGGL,P_C_YGGL,P_HXYGGL,P_A_WGGL,P_B_WGGL,P_C_WGGL,P_HXWGGL,P_A_SZGL,P_B_SZGL,P_C_SZGL,P_HXSZGL,P_A_GLYS,P_B_GLYS,P_C_GLYS,P_HXGLYS,P_DWPL,P_BY_KwhZ,P_BY_KwhJ,P_BY_KwhF,P_BY_KwhP,P_BY_KwhG,P_BY_HKwhZ,P_BY_HKwhJ,P_BY_HKwhF,P_BY_HKwhP,P_BY_HKwhG, P_BY_KvarhZ,P_BY_KvarhJ,P_BY_KvarhF,P_BY_KvarhP,P_BY_KvarhG, P_BY_HKvarhZ,P_BY_HKvarhJ,P_BY_HKvarhF,P_BY_HKvarhP,P_BY_HKvarhG, P_SY_KwhZ,P_SY_KwhJ,P_SY_KwhF,P_SY_KwhP,P_SY_KwhG, P_SY_HKwhZ,P_SY_HKwhJ,P_SY_HKwhF,P_SY_HKwhP,P_SY_HKwhG, P_SY_KvarhZ,P_SY_KvarhJ,P_SY_KvarhF,P_SY_KvarhP,P_SY_KvarhG, P_SY_HKvarhZ,P_SY_HKvarhJ,P_SY_HKvarhF,P_SY_HKvarhP,P_SY_HKvarhG, P_SSY_KwhZ,P_SSY_KwhJ,P_SSY_KwhF,P_SSY_KwhP,P_SSY_KwhG, P_SSY_HKwhZ,P_SSY_HKwhJ,P_SSY_HKwhF,P_SSY_HKwhP,P_SSY_HKwhG, P_SSY_KvarhZ,P_SSY_KvarhJ,P_SSY_KvarhF,P_SSY_KvarhP,P_SSY_KvarhG, P_SSY_HKvarhZ,P_SSY_HKvarhJ,P_SSY_HKvarhF,P_SSY_HKvarhP,P_SSY_HKvarhG,P_CODE,P_TIME,P_ZXYGDN,P_FXYGDN,P_ZXWGDN,P_FXWGDN)values(236.748,237.516,237.36,410.669,411.188,410.496,0,0,1.05,0,0,60,150,0,0,210,270,60,60,240,300,0.646,0.718,0.284,0.465,50.046913,2997.3,40.35,2217.3,0,739.5,3.3,0,2.7,0,0.6,2802.3,3,2144.4,0,654.75,67.35,17.4,15.15,0,34.65,1155.6,54.75,852.3,0,248.4,1.35,0,1.05,0,0.15,1098.6,43.95,835.95,0,218.55,24.75,6.3,5.25,0,13.05,87.6,2.4,61.95,0,23.1,0,0,0,0,0,39.3,1.5,28.95,0,8.7,8.1,0.3,5.7,0,1.9487404,38,20171123212719,147.69,0.16,132.548,12.919)
写入成功读取完毕一个
write:27 03 00 38 00 34 C2 D6
27 03 68
3943 6C CF DF 43 6D 57 CF 43 6D 56 46 43 CD 4A 7F 43 CD 81 EC 43 CD 4A 7F 00 00 00 00 00 00 00 00 3F 28 F5 C3 00 00 00 00 00 00 00 00 42 70 00 00 42 B4 00 00 00 00 00 00 00 00 00 00 42 70 00 00 00 00 00 00 00 00 00 00 00 00 00 00 43 16 00 00 42 B4 00 00 00 00 00 00 00 00 00 00 3E E4 5A 1D 3F 75 C2 8F 42 47 98 86
write:27 03 07 CF 00 78 73 A5
27 03 F0
39totalsize 240
43 81 E6 66 41 12 66 66 43 39 D9 9A 00 00 00 00 42 81 4C CD 00 00 00 00 00 00 00 00 00 00 00 00 00 00 00 00 00 00 00 00 42 F7 CC CD 00 00 00 00 42 C3 00 00 00 00 00 00 41 D3 33 33 40 AC CC CD 00 00 00 00 40 86 66 66 00 00 00 00 3F 86 66 66 43 0C 66 66 41 38 CC CD 42 A5 E6 66 00 00 00 00 42 37 99 9A 00 00 00 00 00 00 00 00 00 00 00 00 00 00 00 00 00 00 00 00 3F AC CC CD 00 00 00 00 3F 19 99 9A 00 00 00 00 3F 19 99 9A 41 08 CC CD 00 00 00 00 40 D8 00 00 00 00 00 00 3F E6 66 66 43 68 59 9A 41 38 CC CD 43 1A CC CD 00 00 00 00 42 83 B3 33 00 00 00 00 00 00 00 00 00 00 00 00 00 00 00 00 00 00 00 00 41 8A 00 00 00 00 00 00 41 77 33 33 00 00 00 00 3F D3 33 33 41 88 CC CD 3E 19 99 9A 41 53 33 33 00 00 00 00 40 66 17 C4
write:27 03 01 0F 00 08 72 F5
27 03 10
3900 01 3B CE 00 00 00 00 00 00 39 7D 00 00 14 63
43 6C CF DF
236.812
43 6D 57 CF
237.343
43 6D 56 46
237.337
43 CD 4A 7F
410.582
43 CD 81 EC
411.015
43 CD 4A 7F
410.582
00 00 00 00
0
00 00 00 00
0
3F 28 F5 C3
0.66
00 00 00 00
0
00 00 00 00
0
42 70 00 00
60
42 B4 00 00
90
00 00 00 00
0
00 00 00 00
0
42 70 00 00
60
00 00 00 00
0
00 00 00 00
0
00 00 00 00
0
43 16 00 00
150
42 B4 00 00
90
00 00 00 00
0
00 00 00 00
0
3E E4 5A 1D
0.446
3F 75 C2 8F
0.96
42 47 98 86
49.89895
43 81 E6 66
259.8
41 12 66 66
9.15
43 39 D9 9A
185.85
00 00 00 00
0
42 81 4C CD
64.65
00 00 00 00
0
00 00 00 00
0
00 00 00 00
0
00 00 00 00
0
00 00 00 00
0
42 F7 CC CD
123.9
00 00 00 00
0
42 C3 00 00
97.5
00 00 00 00
0
41 D3 33 33
26.4
40 AC CC CD
5.4
00 00 00 00
0
40 86 66 66
4.2
00 00 00 00
0
3F 86 66 66
1.05
43 0C 66 66
140.4
41 38 CC CD
11.55
42 A5 E6 66
82.95
00 00 00 00
0
42 37 99 9A
45.9
00 00 00 00
0
00 00 00 00
0
00 00 00 00
0
00 00 00 00
0
00 00 00 00
0
3F AC CC CD
1.35
00 00 00 00
0
3F 19 99 9A
0.6
00 00 00 00
0
3F 19 99 9A
0.6
41 08 CC CD
8.55
00 00 00 00
0
40 D8 00 00
6.75
00 00 00 00
0
3F E6 66 66
1.8
43 68 59 9A
232.35
41 38 CC CD
11.55
43 1A CC CD
154.8
00 00 00 00
0
42 83 B3 33
65.85
00 00 00 00
0
00 00 00 00
0
00 00 00 00
0
00 00 00 00
0
00 00 00 00
0
41 8A 00 00
17.25
00 00 00 00
0
41 77 33 33
15.45
00 00 00 00
0
3F D3 33 33
1.65
41 88 CC CD
17.1
3E 19 99 9A
0.15
41 53 33 33
13.2
00 00 00 00
0
40 66 17 C4
3.5952005
00 01 3B CE
80846
00 00 00 00
0
00 00 39 7D
14717
00 00 14 63
5219
236.812237.343237.337410.582411.015410.582000.66006090006000015090000.4460.9649.89895259.89.15185.85064.6500000123.9097.5026.45.404.201.05140.411.5582.95045.9000001.3500.600.68.5506.7501.8232.3511.55154.8065.850000017.25015.4501.6517.10.1513.203.5952005392017112321282180.846014.7175.219insert into tbl_power_info_v2(P_A_DIANYA,P_B_DIANYA,P_C_DIANYA,P_UAB_XIANDIANYA,P_UBC_XIANDIANYA,P_UCA_XIANDIANYA,P_A_DIANLIU,P_B_DIANLIU,P_C_DIANLIU,P_A_YGGL,P_B_YGGL,P_C_YGGL,P_HXYGGL,P_A_WGGL,P_B_WGGL,P_C_WGGL,P_HXWGGL,P_A_SZGL,P_B_SZGL,P_C_SZGL,P_HXSZGL,P_A_GLYS,P_B_GLYS,P_C_GLYS,P_HXGLYS,P_DWPL,P_BY_KwhZ,P_BY_KwhJ,P_BY_KwhF,P_BY_KwhP,P_BY_KwhG,P_BY_HKwhZ,P_BY_HKwhJ,P_BY_HKwhF,P_BY_HKwhP,P_BY_HKwhG, P_BY_KvarhZ,P_BY_KvarhJ,P_BY_KvarhF,P_BY_KvarhP,P_BY_KvarhG, P_BY_HKvarhZ,P_BY_HKvarhJ,P_BY_HKvarhF,P_BY_HKvarhP,P_BY_HKvarhG, P_SY_KwhZ,P_SY_KwhJ,P_SY_KwhF,P_SY_KwhP,P_SY_KwhG, P_SY_HKwhZ,P_SY_HKwhJ,P_SY_HKwhF,P_SY_HKwhP,P_SY_HKwhG, P_SY_KvarhZ,P_SY_KvarhJ,P_SY_KvarhF,P_SY_KvarhP,P_SY_KvarhG, P_SY_HKvarhZ,P_SY_HKvarhJ,P_SY_HKvarhF,P_SY_HKvarhP,P_SY_HKvarhG, P_SSY_KwhZ,P_SSY_KwhJ,P_SSY_KwhF,P_SSY_KwhP,P_SSY_KwhG, P_SSY_HKwhZ,P_SSY_HKwhJ,P_SSY_HKwhF,P_SSY_HKwhP,P_SSY_HKwhG, P_SSY_KvarhZ,P_SSY_KvarhJ,P_SSY_KvarhF,P_SSY_KvarhP,P_SSY_KvarhG, P_SSY_HKvarhZ,P_SSY_HKvarhJ,P_SSY_HKvarhF,P_SSY_HKvarhP,P_SSY_HKvarhG,P_CODE,P_TIME,P_ZXYGDN,P_FXYGDN,P_ZXWGDN,P_FXWGDN)values(236.812,237.343,237.337,410.582,411.015,410.582,0,0,0.66,0,0,60,90,0,0,60,0,0,0,150,90,0,0,0.446,0.96,49.89895,259.8,9.15,185.85,0,64.65,0,0,0,0,0,123.9,0,97.5,0,26.4,5.4,0,4.2,0,1.05,140.4,11.55,82.95,0,45.9,0,0,0,0,0,1.35,0,0.6,0,0.6,8.55,0,6.75,0,1.8,232.35,11.55,154.8,0,65.85,0,0,0,0,0,17.25,0,15.45,0,1.65,17.1,0.15,13.2,0,3.5952005,39,20171123212821,80.846,0,14.717,5.219)
写入成功读取完毕一个
write:28 03 00 38 00 34 C2 29
28 03 68
4043 6C DF 3B 43 6D 3B 23 43 6D 78 93 43 CD 3F 7D 43 CD 81 EC 43 CD 55 A2 00 00 00 00 3E F5 C2 8F 00 00 00 00 00 00 00 00 42 B4 00 00 00 00 00 00 42 B4 00 00 00 00 00 00 42 70 00 00 00 00 00 00 42 70 00 00 00 00 00 00 42 F0 00 00 00 00 00 00 42 F0 00 00 00 00 00 00 3F 44 9B A6 00 00 00 00 3F 51 A9 FC 42 48 DF 5A
write:28 03 07 CF 00 78 73 5A
28 03 F0
40totalsize 240
43 1C C0 00 41 04 00 00 42 E3 B3 33 00 00 00 00 42 0A 00 00 00 00 00 00 00 00 00 00 00 00 00 00 00 00 00 00 00 00 00 00 42 B1 E6 66 40 A3 33 33 42 77 33 33 00 00 00 00 41 AF 33 33 3E E6 66 66 00 00 00 00 3E E6 66 66 00 00 00 00 00 00 00 00 43 2B C0 00 41 20 CC CD 42 D2 4C CD 00 00 00 00 42 61 99 9A 00 00 00 00 00 00 00 00 00 00 00 00 00 00 00 00 00 00 00 00 42 58 99 9A 40 E1 99 9A 41 D4 66 66 00 00 00 00 41 A3 33 33 3E 19 99 9A 00 00 00 00 3E 19 99 9A 00 00 00 00 00 00 00 00 44 49 69 9A 41 77 33 33 43 FD 59 9A 00 00 00 00 43 8D AC CD 00 00 00 00 00 00 00 00 00 00 00 00 00 00 00 00 00 00 00 00 43 67 73 33 41 1C 00 00 43 14 33 33 00 00 00 00 42 93 00 00 3E 19 99 9A 00 00 00 00 00 00 00 00 00 00 00 00 00 00 0D 7B
write:28 03 01 0F 00 08 72 0A
28 03 10
4000 01 56 36 00 00 00 00 00 00 69 43 00 00 77 8A
43 6C DF 3B
236.872
43 6D 3B 23
237.231
43 6D 78 93
237.471
43 CD 3F 7D
410.496
43 CD 81 EC
411.015
43 CD 55 A2
410.669
00 00 00 00
0
3E F5 C2 8F
0.48
00 00 00 00
0
00 00 00 00
0
42 B4 00 00
90
00 00 00 00
0
42 B4 00 00
90
00 00 00 00
0
42 70 00 00
60
00 00 00 00
0
42 70 00 00
60
00 00 00 00
0
42 F0 00 00
120
00 00 00 00
0
42 F0 00 00
120
00 00 00 00
0
3F 44 9B A6
0.768
00 00 00 00
0
3F 51 A9 FC
0.819
42 48 DF 5A
50.218117
43 1C C0 00
156.75
41 04 00 00
8.25
42 E3 B3 33
113.85
00 00 00 00
0
42 0A 00 00
34.5
00 00 00 00
0
00 00 00 00
0
00 00 00 00
0
00 00 00 00
0
00 00 00 00
0
42 B1 E6 66
88.95
40 A3 33 33
5.1
42 77 33 33
61.8
00 00 00 00
0
41 AF 33 33
21.9
3E E6 66 66
0.45
00 00 00 00
0
3E E6 66 66
0.45
00 00 00 00
0
00 00 00 00
0
43 2B C0 00
171.75
41 20 CC CD
10.05
42 D2 4C CD
105.15
00 00 00 00
0
42 61 99 9A
56.4
00 00 00 00
0
00 00 00 00
0
00 00 00 00
0
00 00 00 00
0
00 00 00 00
0
42 58 99 9A
54.15
40 E1 99 9A
7.05
41 D4 66 66
26.55
00 00 00 00
0
41 A3 33 33
20.4
3E 19 99 9A
0.15
00 00 00 00
0
3E 19 99 9A
0.15
00 00 00 00
0
00 00 00 00
0
44 49 69 9A
805.65
41 77 33 33
15.45
43 FD 59 9A
506.7
00 00 00 00
0
43 8D AC CD
283.35
00 00 00 00
0
00 00 00 00
0
00 00 00 00
0
00 00 00 00
0
00 00 00 00
0
43 67 73 33
231.45
41 1C 00 00
9.75
43 14 33 33
148.2
00 00 00 00
0
42 93 00 00
73.5
3E 19 99 9A
0.15
00 00 00 00
0
00 00 00 00
0
00 00 00 00
0
00 00 0D 7B
4.836e-42
00 01 56 36
87606
00 00 00 00
0
00 00 69 43
26947
00 00 77 8A
30602
236.872237.231237.471410.496411.015410.66900.4800900900600600120012000.76800.81950.218117156.758.25113.85034.50000088.955.161.8021.90.4500.4500171.7510.05105.15056.40000054.157.0526.55020.40.1500.1500805.6515.45506.70283.3500000231.459.75148.2073.50.150004.836e-42402017112321292087.606026.94730.602insert into tbl_power_info_v2(P_A_DIANYA,P_B_DIANYA,P_C_DIANYA,P_UAB_XIANDIANYA,P_UBC_XIANDIANYA,P_UCA_XIANDIANYA,P_A_DIANLIU,P_B_DIANLIU,P_C_DIANLIU,P_A_YGGL,P_B_YGGL,P_C_YGGL,P_HXYGGL,P_A_WGGL,P_B_WGGL,P_C_WGGL,P_HXWGGL,P_A_SZGL,P_B_SZGL,P_C_SZGL,P_HXSZGL,P_A_GLYS,P_B_GLYS,P_C_GLYS,P_HXGLYS,P_DWPL,P_BY_KwhZ,P_BY_KwhJ,P_BY_KwhF,P_BY_KwhP,P_BY_KwhG,P_BY_HKwhZ,P_BY_HKwhJ,P_BY_HKwhF,P_BY_HKwhP,P_BY_HKwhG, P_BY_KvarhZ,P_BY_KvarhJ,P_BY_KvarhF,P_BY_KvarhP,P_BY_KvarhG, P_BY_HKvarhZ,P_BY_HKvarhJ,P_BY_HKvarhF,P_BY_HKvarhP,P_BY_HKvarhG, P_SY_KwhZ,P_SY_KwhJ,P_SY_KwhF,P_SY_KwhP,P_SY_KwhG, P_SY_HKwhZ,P_SY_HKwhJ,P_SY_HKwhF,P_SY_HKwhP,P_SY_HKwhG, P_SY_KvarhZ,P_SY_KvarhJ,P_SY_KvarhF,P_SY_KvarhP,P_SY_KvarhG, P_SY_HKvarhZ,P_SY_HKvarhJ,P_SY_HKvarhF,P_SY_HKvarhP,P_SY_HKvarhG, P_SSY_KwhZ,P_SSY_KwhJ,P_SSY_KwhF,P_SSY_KwhP,P_SSY_KwhG, P_SSY_HKwhZ,P_SSY_HKwhJ,P_SSY_HKwhF,P_SSY_HKwhP,P_SSY_HKwhG, P_SSY_KvarhZ,P_SSY_KvarhJ,P_SSY_KvarhF,P_SSY_KvarhP,P_SSY_KvarhG, P_SSY_HKvarhZ,P_SSY_HKvarhJ,P_SSY_HKvarhF,P_SSY_HKvarhP,P_SSY_HKvarhG,P_CODE,P_TIME,P_ZXYGDN,P_FXYGDN,P_ZXWGDN,P_FXWGDN)values(236.872,237.231,237.471,410.496,411.015,410.669,0,0.48,0,0,90,0,90,0,60,0,60,0,120,0,120,0,0.768,0,0.819,50.218117,156.75,8.25,113.85,0,34.5,0,0,0,0,0,88.95,5.1,61.8,0,21.9,0.45,0,0.45,0,0,171.75,10.05,105.15,0,56.4,0,0,0,0,0,54.15,7.05,26.55,0,20.4,0.15,0,0.15,0,0,805.65,15.45,506.7,0,283.35,0,0,0,0,0,231.45,9.75,148.2,0,73.5,0.15,0,0,0,4.836e-42,40,20171123212920,87.606,0,26.947,30.602)
写入成功读取完毕一个
write:29 03 00 38 00 34 C3 F8
29 03 68
4143 6C A3 D7 43 6D 10 E5 43 6D 07 AE 43 CD 13 12 43 CD 3F 7D 43 CD 13 12 00 00 00 00 00 00 00 00 3F 82 8F 5C 00 00 00 00 00 00 00 00 42 F0 00 00 43 34 00 00 00 00 00 00 00 00 00 00 42 F0 00 00 42 F0 00 00 00 00 00 00 00 00 00 00 43 70 00 00 43 70 00 00 00 00 00 00 00 00 00 00 3F 18 D4 FE 3F 4C 08 31 42 48 C9 EE
write:29 03 07 CF 00 78 72 8B
29 03 F0
41totalsize 240
44 24 53 33 41 06 66 66 43 F0 E6 66 41 01 99 9A 43 1F 00 00 00 00 00 00 00 00 00 00 00 00 00 00 00 00 00 00 00 00 00 00 44 0E 20 00 00 00 00 00 43 E4 26 66 00 00 00 00 42 DF 33 33 42 AC CC CD 40 F0 00 00 42 05 33 33 40 F9 99 9A 42 16 00 00 43 D1 D9 9A 40 90 00 00 43 A3 80 00 40 90 00 00 42 A6 33 33 00 00 00 00 00 00 00 00 00 00 00 00 00 00 00 00 00 00 00 00 43 A4 B3 33 3E 99 99 9A 43 8E 33 33 3E 99 99 9A 42 2F 33 33 42 9F 00 00 40 F9 99 9A 41 E1 99 9A 41 01 99 9A 42 0C 66 66 43 D6 F3 33 40 06 66 66 43 9B B3 33 40 06 66 66 42 E4 00 00 00 00 00 00 00 00 00 00 00 00 00 00 00 00 00 00 00 00 00 00 43 E1 E6 66 3F 99 99 9A 43 AF F3 33 3F C0 00 00 42 C1 33 33 42 35 33 33 40 B6 66 66 41 2C CC CD 40 C0 00 00 41 B1 56 C5
write:29 03 01 0F 00 08 73 DB
29 03 10
4100 00 64 4E 00 00 00 00 00 00 5B 34 00 00 CF 73
43 6C A3 D7
236.64
43 6D 10 E5
237.066
43 6D 07 AE
237.03
43 CD 13 12
410.149
43 CD 3F 7D
410.496
43 CD 13 12
410.149
00 00 00 00
0
00 00 00 00
0
3F 82 8F 5C
1.02
00 00 00 00
0
00 00 00 00
0
42 F0 00 00
120
43 34 00 00
180
00 00 00 00
0
00 00 00 00
0
42 F0 00 00
120
42 F0 00 00
120
00 00 00 00
0
00 00 00 00
0
43 70 00 00
240
43 70 00 00
240
00 00 00 00
0
00 00 00 00
0
3F 18 D4 FE
0.597
3F 4C 08 31
0.797
42 48 C9 EE
50.197197
44 24 53 33
657.3
41 06 66 66
8.4
43 F0 E6 66
481.8
41 01 99 9A
8.1
43 1F 00 00
159
00 00 00 00
0
00 00 00 00
0
00 00 00 00
0
00 00 00 00
0
00 00 00 00
0
44 0E 20 00
568.5
00 00 00 00
0
43 E4 26 66
456.3
00 00 00 00
0
42 DF 33 33
111.6
42 AC CC CD
86.4
40 F0 00 00
7.5
42 05 33 33
33.3
40 F9 99 9A
7.8
42 16 00 00
37.5
43 D1 D9 9A
419.7
40 90 00 00
4.5
43 A3 80 00
327
40 90 00 00
4.5
42 A6 33 33
83.1
00 00 00 00
0
00 00 00 00
0
00 00 00 00
0
00 00 00 00
0
00 00 00 00
0
43 A4 B3 33
329.4
3E 99 99 9A
0.3
43 8E 33 33
284.4
3E 99 99 9A
0.3
42 2F 33 33
43.8
42 9F 00 00
79.5
40 F9 99 9A
7.8
41 E1 99 9A
28.2
41 01 99 9A
8.1
42 0C 66 66
35.1
43 D6 F3 33
429.9
40 06 66 66
2.1
43 9B B3 33
311.4
40 06 66 66
2.1
42 E4 00 00
114
00 00 00 00
0
00 00 00 00
0
00 00 00 00
0
00 00 00 00
0
00 00 00 00
0
43 E1 E6 66
451.8
3F 99 99 9A
1.2
43 AF F3 33
351.9
3F C0 00 00
1.5
42 C1 33 33
96.6
42 35 33 33
45.3
40 B6 66 66
5.7
41 2C CC CD
10.8
40 C0 00 00
6
41 B1 56 C5
22.167368
00 00 64 4E
25678
00 00 00 00
0
00 00 5B 34
23348
00 00 CF 73
53107
236.64237.066237.03410.149410.496410.149001.02001201800012012000240240000.5970.79750.197197657.38.4481.88.115900000568.50456.30111.686.47.533.37.837.5419.74.53274.583.100000329.40.3284.40.343.879.57.828.28.135.1429.92.1311.42.111400000451.81.2351.91.596.645.35.710.8622.167368412017112321302525.678023.34853.107insert into tbl_power_info_v2(P_A_DIANYA,P_B_DIANYA,P_C_DIANYA,P_UAB_XIANDIANYA,P_UBC_XIANDIANYA,P_UCA_XIANDIANYA,P_A_DIANLIU,P_B_DIANLIU,P_C_DIANLIU,P_A_YGGL,P_B_YGGL,P_C_YGGL,P_HXYGGL,P_A_WGGL,P_B_WGGL,P_C_WGGL,P_HXWGGL,P_A_SZGL,P_B_SZGL,P_C_SZGL,P_HXSZGL,P_A_GLYS,P_B_GLYS,P_C_GLYS,P_HXGLYS,P_DWPL,P_BY_KwhZ,P_BY_KwhJ,P_BY_KwhF,P_BY_KwhP,P_BY_KwhG,P_BY_HKwhZ,P_BY_HKwhJ,P_BY_HKwhF,P_BY_HKwhP,P_BY_HKwhG, P_BY_KvarhZ,P_BY_KvarhJ,P_BY_KvarhF,P_BY_KvarhP,P_BY_KvarhG, P_BY_HKvarhZ,P_BY_HKvarhJ,P_BY_HKvarhF,P_BY_HKvarhP,P_BY_HKvarhG, P_SY_KwhZ,P_SY_KwhJ,P_SY_KwhF,P_SY_KwhP,P_SY_KwhG, P_SY_HKwhZ,P_SY_HKwhJ,P_SY_HKwhF,P_SY_HKwhP,P_SY_HKwhG, P_SY_KvarhZ,P_SY_KvarhJ,P_SY_KvarhF,P_SY_KvarhP,P_SY_KvarhG, P_SY_HKvarhZ,P_SY_HKvarhJ,P_SY_HKvarhF,P_SY_HKvarhP,P_SY_HKvarhG, P_SSY_KwhZ,P_SSY_KwhJ,P_SSY_KwhF,P_SSY_KwhP,P_SSY_KwhG, P_SSY_HKwhZ,P_SSY_HKwhJ,P_SSY_HKwhF,P_SSY_HKwhP,P_SSY_HKwhG, P_SSY_KvarhZ,P_SSY_KvarhJ,P_SSY_KvarhF,P_SSY_KvarhP,P_SSY_KvarhG, P_SSY_HKvarhZ,P_SSY_HKvarhJ,P_SSY_HKvarhF,P_SSY_HKvarhP,P_SSY_HKvarhG,P_CODE,P_TIME,P_ZXYGDN,P_FXYGDN,P_ZXWGDN,P_FXWGDN)values(236.64,237.066,237.03,410.149,410.496,410.149,0,0,1.02,0,0,120,180,0,0,120,120,0,0,240,240,0,0,0.597,0.797,50.197197,657.3,8.4,481.8,8.1,159,0,0,0,0,0,568.5,0,456.3,0,111.6,86.4,7.5,33.3,7.8,37.5,419.7,4.5,327,4.5,83.1,0,0,0,0,0,329.4,0.3,284.4,0.3,43.8,79.5,7.8,28.2,8.1,35.1,429.9,2.1,311.4,2.1,114,0,0,0,0,0,451.8,1.2,351.9,1.5,96.6,45.3,5.7,10.8,6,22.167368,41,20171123213025,25.678,0,23.348,53.107)
写入成功读取完毕一个
write:2A 03 00 38 00 34 C3 CB
2A 03 68
4243 6C 37 0A 43 6C 80 00 43 6C 94 39 43 CC AF 5C 43 CC D0 A4 43 CC AF 5C 41 00 51 EC 41 94 28 F6 42 16 8F 5C 44 D4 80 00 45 83 E0 00 46 0A 20 00 46 66 F0 00 43 A0 00 00 44 07 00 00 43 5C 00 00 44 20 00 00 44 ED 80 00 45 88 E0 00 46 0B 00 00 00 00 00 00 00 00 00 00 00 00 00 00 00 00 00 00 00 00 00 00 00 00 00 00
10 00 46
heart:10 00 46 67 40 00 3F 66 E9 79 3F 76 C8 B4 3F 7E 35 3F 3F 7F BE 77 42 48 6A A2
write:2A 03 07 CF 00 78 72 B8
2A 03 F0
42totalsize 240
45 D7 2E 66 44 88 83 33 45 51 4E 66 00 00 00 00 45 18 CB 33 00 00 00 00 00 00 00 00 00 00 00 00 00 00 00 00 00 00 00 00 40 73 33 33 00 00 00 00 3F E6 66 66 00 00 00 00 40 00 00 00 44 31 20 00 42 D4 66 66 43 B1 33 33 00 00 00 00 43 77 CC CD 46 02 2F 33 44 AB 10 00 45 84 08 CD 00 00 00 00 45 2B 21 9A 00 00 00 00 00 00 00 00 00 00 00 00 00 00 00 00 00 00 00 00 40 40 00 00 00 00 00 00 40 39 99 9A 00 00 00 00 00 00 00 00 44 66 F3 33 43 13 80 00 43 D3 80 00 00 00 00 00 43 B0 99 9A 46 14 A7 9A 44 C0 90 00 45 95 06 66 00 00 00 00 45 48 48 00 00 00 00 00 00 00 00 00 00 00 00 00 00 00 00 00 00 00 00 00 43 B7 CC CD 42 58 00 00 43 24 99 9A 00 00 00 00 43 14 CC CD 44 1B B3 33 42 D3 00 00 43 7B E6 66 00 00 00 00 43 84 9D B2
write:2A 03 01 0F 00 08 73 E8
2A 03 10
4200 30 C7 35 00 00 00 00 00 02 48 64 00 03 FF B3
43 6C 37 0A
236.215
43 6C 80 00
236.5
43 6C 94 39
236.579
43 CC AF 5C
409.37
43 CC D0 A4
409.63
43 CC AF 5C
409.37
41 00 51 EC
8.02
41 94 28 F6
18.52
42 16 8F 5C
37.64
44 D4 80 00
1700
45 83 E0 00
4220
46 0A 20 00
8840
46 66 F0 00
14780
43 A0 00 00
320
44 07 00 00
540
43 5C 00 00
220
44 20 00 00
640
44 ED 80 00
1900
45 88 E0 00
4380
46 0B 00 00
8896
00 00 00 00
0
00 00 00 00
0
00 00 00 00
0
00 00 00 00
0
00 00 00 00
0
00 00 00 00
0
45 D7 2E 66
6885.8
44 88 83 33
1092.1
45 51 4E 66
3348.9
00 00 00 00
0
45 18 CB 33
2444.7
00 00 00 00
0
00 00 00 00
0
00 00 00 00
0
00 00 00 00
0
00 00 00 00
0
40 73 33 33
3.8
00 00 00 00
0
3F E6 66 66
1.8
00 00 00 00
0
40 00 00 00
2
44 31 20 00
708.5
42 D4 66 66
106.2
43 B1 33 33
354.4
00 00 00 00
0
43 77 CC CD
247.8
46 02 2F 33
8331.8
44 AB 10 00
1368.5
45 84 08 CD
4225.1
00 00 00 00
0
45 2B 21 9A
2738.1
00 00 00 00
0
00 00 00 00
0
00 00 00 00
0
00 00 00 00
0
00 00 00 00
0
40 40 00 00
3
00 00 00 00
0
40 39 99 9A
2.9
00 00 00 00
0
00 00 00 00
0
44 66 F3 33
923.8
43 13 80 00
147.5
43 D3 80 00
423
00 00 00 00
0
43 B0 99 9A
353.2
46 14 A7 9A
9513.9
44 C0 90 00
1540.5
45 95 06 66
4768.8
00 00 00 00
0
45 48 48 00
3204.5
00 00 00 00
0
00 00 00 00
0
00 00 00 00
0
00 00 00 00
0
00 00 00 00
0
43 B7 CC CD
367.6
42 58 00 00
54
43 24 99 9A
164.6
00 00 00 00
0
43 14 CC CD
148.8
44 1B B3 33
622.8
42 D3 00 00
105.5
43 7B E6 66
251.9
00 00 00 00
0
43 84 9D B2
265.232
00 30 C7 35
3196725
00 00 00 00
0
00 02 48 64
149604
00 03 FF B3
262067
236.215236.5236.579409.37409.63409.378.0218.5237.64170042208840147803205402206401900438088960000006885.81092.13348.902444.7000003.801.802708.5106.2354.40247.88331.81368.54225.102738.100000302.900923.8147.54230353.29513.91540.54768.803204.500000367.654164.60148.8622.8105.5251.90265.23242201711232131213196.7250149.604262.067insert into tbl_power_info_v2(P_A_DIANYA,P_B_DIANYA,P_C_DIANYA,P_UAB_XIANDIANYA,P_UBC_XIANDIANYA,P_UCA_XIANDIANYA,P_A_DIANLIU,P_B_DIANLIU,P_C_DIANLIU,P_A_YGGL,P_B_YGGL,P_C_YGGL,P_HXYGGL,P_A_WGGL,P_B_WGGL,P_C_WGGL,P_HXWGGL,P_A_SZGL,P_B_SZGL,P_C_SZGL,P_HXSZGL,P_A_GLYS,P_B_GLYS,P_C_GLYS,P_HXGLYS,P_DWPL,P_BY_KwhZ,P_BY_KwhJ,P_BY_KwhF,P_BY_KwhP,P_BY_KwhG,P_BY_HKwhZ,P_BY_HKwhJ,P_BY_HKwhF,P_BY_HKwhP,P_BY_HKwhG, P_BY_KvarhZ,P_BY_KvarhJ,P_BY_KvarhF,P_BY_KvarhP,P_BY_KvarhG, P_BY_HKvarhZ,P_BY_HKvarhJ,P_BY_HKvarhF,P_BY_HKvarhP,P_BY_HKvarhG, P_SY_KwhZ,P_SY_KwhJ,P_SY_KwhF,P_SY_KwhP,P_SY_KwhG, P_SY_HKwhZ,P_SY_HKwhJ,P_SY_HKwhF,P_SY_HKwhP,P_SY_HKwhG, P_SY_KvarhZ,P_SY_KvarhJ,P_SY_KvarhF,P_SY_KvarhP,P_SY_KvarhG, P_SY_HKvarhZ,P_SY_HKvarhJ,P_SY_HKvarhF,P_SY_HKvarhP,P_SY_HKvarhG, P_SSY_KwhZ,P_SSY_KwhJ,P_SSY_KwhF,P_SSY_KwhP,P_SSY_KwhG, P_SSY_HKwhZ,P_SSY_HKwhJ,P_SSY_HKwhF,P_SSY_HKwhP,P_SSY_HKwhG, P_SSY_KvarhZ,P_SSY_KvarhJ,P_SSY_KvarhF,P_SSY_KvarhP,P_SSY_KvarhG, P_SSY_HKvarhZ,P_SSY_HKvarhJ,P_SSY_HKvarhF,P_SSY_HKvarhP,P_SSY_HKvarhG,P_CODE,P_TIME,P_ZXYGDN,P_FXYGDN,P_ZXWGDN,P_FXWGDN)values(236.215,236.5,236.579,409.37,409.63,409.37,8.02,18.52,37.64,1700,4220,8840,14780,320,540,220,640,1900,4380,8896,0,0,0,0,0,0,6885.8,1092.1,3348.9,0,2444.7,0,0,0,0,0,3.8,0,1.8,0,2,708.5,106.2,354.4,0,247.8,8331.8,1368.5,4225.1,0,2738.1,0,0,0,0,0,3,0,2.9,0,0,923.8,147.5,423,0,353.2,9513.9,1540.5,4768.8,0,3204.5,0,0,0,0,0,367.6,54,164.6,0,148.8,622.8,105.5,251.9,0,265.232,42,20171123213121,3196.725,0,149.604,262.067)
写入成功读取完毕一个
write:2B 03 00 38 00 34 C2 1A
2B 03 68
4343 6C 9C AC 43 6D 01 48 43 6D 17 0A 43 CD 13 12 43 CD 3F 7D 43 CD 13 12 41 86 66 66 41 73 D7 0A 42 76 B8 52 45 4D 00 00 45 39 00 00 46 20 00 00 46 80 70 00 44 BE 00 00 44 96 00 00 46 22 80 00 46 4D 00 00 45 77 80 00 45 61 00 00 46 64 20 00 46 A6 40 00 3F 65 60 42 3F 51 26 E9 3F 33 33 33 3F 49 78 D5 42 47 29 28
write:2B 03 07 CF 00 78 73 69
2B 03 F0
43totalsize 240
45 C4 63 33 44 B7 E0 00 45 25 56 66 00 00 00 00 45 07 80 00 00 00 00 00 00 00 00 00 00 00 00 00 00 00 00 00 00 00 00 00 45 00 00 00 44 1C 66 66 44 94 AC CD 00 00 00 00 43 68 CC CD 42 9C CC CD 40 E0 00 00 40 8C CC CD 00 00 00 00 42 86 00 00 45 AB 83 33 44 C5 D3 33 44 EA 46 66 00 00 00 00 44 FD F3 33 00 00 00 00 00 00 00 00 00 00 00 00 00 00 00 00 00 00 00 00 44 C3 93 33 44 12 66 66 44 3F F3 33 00 00 00 00 43 53 33 33 43 40 CC CD 42 07 33 33 41 C1 99 9A 00 00 00 00 43 06 99 9A 45 53 13 33 44 5A 99 9A 44 F5 06 66 00 00 00 00 44 07 99 9A 00 00 00 00 00 00 00 00 00 00 00 00 00 00 00 00 00 00 00 00 44 53 40 00 43 AE 99 9A 43 E0 19 9A 00 00 00 00 42 3D 99 9A 42 09 99 9A 40 D9 99 9A 41 00 00 00 00 00 00 00 41 9C 6B 08
write:2B 03 01 0F 00 08 72 39
2B 03 10
4300 06 6C 27 00 00 00 00 00 01 E6 53 00 00 26 3C
43 6C 9C AC
236.612
43 6D 01 48
237.005
43 6D 17 0A
237.09
43 CD 13 12
410.149
43 CD 3F 7D
410.496
43 CD 13 12
410.149
41 86 66 66
16.8
41 73 D7 0A
15.24
42 76 B8 52
61.68
45 4D 00 00
3280
45 39 00 00
2960
46 20 00 00
10240
46 80 70 00
16440
44 BE 00 00
1520
44 96 00 00
1200
46 22 80 00
10400
46 4D 00 00
13120
45 77 80 00
3960
45 61 00 00
3600
46 64 20 00
14600
46 A6 40 00
21280
3F 65 60 42
0.896
3F 51 26 E9
0.817
3F 33 33 33
0.7
3F 49 78 D5
0.787
42 47 29 28
49.79019
45 C4 63 33
6284.4
44 B7 E0 00
1471
45 25 56 66
2645.4
00 00 00 00
0
45 07 80 00
2168
00 00 00 00
0
00 00 00 00
0
00 00 00 00
0
00 00 00 00
0
00 00 00 00
0
45 00 00 00
2048
44 1C 66 66
625.6
44 94 AC CD
1189.4
00 00 00 00
0
43 68 CC CD
232.8
42 9C CC CD
78.4
40 E0 00 00
7
40 8C CC CD
4.4
00 00 00 00
0
42 86 00 00
67
45 AB 83 33
5488.4
44 C5 D3 33
1582.6
44 EA 46 66
1874.2
00 00 00 00
0
44 FD F3 33
2031.6
00 00 00 00
0
00 00 00 00
0
00 00 00 00
0
00 00 00 00
0
00 00 00 00
0
44 C3 93 33
1564.6
44 12 66 66
585.6
44 3F F3 33
767.8
00 00 00 00
0
43 53 33 33
211.2
43 40 CC CD
192.8
42 07 33 33
33.8
41 C1 99 9A
24.2
00 00 00 00
0
43 06 99 9A
134.6
45 53 13 33
3377.2
44 5A 99 9A
874.4
44 F5 06 66
1960.2
00 00 00 00
0
44 07 99 9A
542.4
00 00 00 00
0
00 00 00 00
0
00 00 00 00
0
00 00 00 00
0
00 00 00 00
0
44 53 40 00
845
43 AE 99 9A
349.2
43 E0 19 9A
448.2
00 00 00 00
0
42 3D 99 9A
47.4
42 09 99 9A
34.4
40 D9 99 9A
6.8
41 00 00 00
8
00 00 00 00
0
41 9C 6B 08
19.552261
00 06 6C 27
420903
00 00 00 00
0
00 01 E6 53
124499
00 00 26 3C
9788
236.612237.005237.09410.149410.496410.14916.815.2461.683280296010240164401520120010400131203960360014600212800.8960.8170.70.78749.790196284.414712645.402168000002048625.61189.40232.878.474.40675488.41582.61874.202031.6000001564.6585.6767.80211.2192.833.824.20134.63377.2874.41960.20542.400000845349.2448.2047.434.46.88019.5522614320171123213231420.9030124.4999.788insert into tbl_power_info_v2(P_A_DIANYA,P_B_DIANYA,P_C_DIANYA,P_UAB_XIANDIANYA,P_UBC_XIANDIANYA,P_UCA_XIANDIANYA,P_A_DIANLIU,P_B_DIANLIU,P_C_DIANLIU,P_A_YGGL,P_B_YGGL,P_C_YGGL,P_HXYGGL,P_A_WGGL,P_B_WGGL,P_C_WGGL,P_HXWGGL,P_A_SZGL,P_B_SZGL,P_C_SZGL,P_HXSZGL,P_A_GLYS,P_B_GLYS,P_C_GLYS,P_HXGLYS,P_DWPL,P_BY_KwhZ,P_BY_KwhJ,P_BY_KwhF,P_BY_KwhP,P_BY_KwhG,P_BY_HKwhZ,P_BY_HKwhJ,P_BY_HKwhF,P_BY_HKwhP,P_BY_HKwhG, P_BY_KvarhZ,P_BY_KvarhJ,P_BY_KvarhF,P_BY_KvarhP,P_BY_KvarhG, P_BY_HKvarhZ,P_BY_HKvarhJ,P_BY_HKvarhF,P_BY_HKvarhP,P_BY_HKvarhG, P_SY_KwhZ,P_SY_KwhJ,P_SY_KwhF,P_SY_KwhP,P_SY_KwhG, P_SY_HKwhZ,P_SY_HKwhJ,P_SY_HKwhF,P_SY_HKwhP,P_SY_HKwhG, P_SY_KvarhZ,P_SY_KvarhJ,P_SY_KvarhF,P_SY_KvarhP,P_SY_KvarhG, P_SY_HKvarhZ,P_SY_HKvarhJ,P_SY_HKvarhF,P_SY_HKvarhP,P_SY_HKvarhG, P_SSY_KwhZ,P_SSY_KwhJ,P_SSY_KwhF,P_SSY_KwhP,P_SSY_KwhG, P_SSY_HKwhZ,P_SSY_HKwhJ,P_SSY_HKwhF,P_SSY_HKwhP,P_SSY_HKwhG, P_SSY_KvarhZ,P_SSY_KvarhJ,P_SSY_KvarhF,P_SSY_KvarhP,P_SSY_KvarhG, P_SSY_HKvarhZ,P_SSY_HKvarhJ,P_SSY_HKvarhF,P_SSY_HKvarhP,P_SSY_HKvarhG,P_CODE,P_TIME,P_ZXYGDN,P_FXYGDN,P_ZXWGDN,P_FXWGDN)values(236.612,237.005,237.09,410.149,410.496,410.149,16.8,15.24,61.68,3280,2960,10240,16440,1520,1200,10400,13120,3960,3600,14600,21280,0.896,0.817,0.7,0.787,49.79019,6284.4,1471,2645.4,0,2168,0,0,0,0,0,2048,625.6,1189.4,0,232.8,78.4,7,4.4,0,67,5488.4,1582.6,1874.2,0,2031.6,0,0,0,0,0,1564.6,585.6,767.8,0,211.2,192.8,33.8,24.2,0,134.6,3377.2,874.4,1960.2,0,542.4,0,0,0,0,0,845,349.2,448.2,0,47.4,34.4,6.8,8,0,19.552261,43,20171123213231,420.903,0,124.499,9.788)
写入成功读取完毕一个
write:2C 03 00 38 00 34 C3 AD
2C 03 68
4443 6C 98 93 43 6D 42 8F 43 6D 0E 56 43 CD 1E 35 43 CD 55 A2 43 CD 08 10 41 B7 5C 29 41 A3 33 33 41 BB 33 33 45 87 00 00 45 5C 00 00 45 8C 00 00 46 40 80 00 45 3B 80 00 45 48 00 00 45 34 00 00 46 0E 80 00 45 AA 00 00 45 97 40 00 45 AD C0 00 46 6F 60 00 3F 4B 43 96 3F 3A 5E 35 3F 4E 97 8D 3F 4D D2 F2 42 48 48 B6
write:2C 03 07 CF 00 78 72 DE
2C 03 F0
44totalsize 240
45 38 EC CD 44 11 66 66 44 F4 C0 00 00 00 00 00 43 D1 80 00 00 00 00 00 00 00 00 00 00 00 00 00 00 00 00 00 00 00 00 00 44 B9 26 66 43 9B 66 66 44 7A A6 66 00 00 00 00 43 27 66 66 42 7B 33 33 41 46 66 66 42 0F 33 33 00 00 00 00 41 63 33 33 45 5D 1C CD 44 48 F3 33 45 05 66 66 00 00 00 00 44 15 E6 66 00 00 00 00 00 00 00 00 00 00 00 00 00 00 00 00 00 00 00 00 44 8B 99 9A 43 18 00 00 44 48 D9 9A 00 00 00 00 43 21 33 33 43 27 99 9A 42 5C 00 00 42 98 66 66 00 00 00 00 42 10 00 00 45 29 09 9A 44 2A 99 9A 44 BC F9 9A 00 00 00 00 43 FF 19 9A 00 00 00 00 00 00 00 00 00 00 00 00 00 00 00 00 00 00 00 00 43 B2 19 9A 42 69 99 9A 43 6E 33 33 00 00 00 00 42 6D 99 9A 43 51 99 9A 42 63 33 33 42 DC CC CD 00 00 00 00 42 28 83 D7
write:2C 03 01 0F 00 08 73 8E
2C 03 10
4400 04 E1 6E 00 00 00 00 00 01 4F 7A 00 00 F0 AE
43 6C 98 93
236.596
43 6D 42 8F
237.26
43 6D 0E 56
237.056
43 CD 1E 35
410.236
43 CD 55 A2
410.669
43 CD 08 10
410.063
41 B7 5C 29
22.92
41 A3 33 33
20.4
41 BB 33 33
23.4
45 87 00 00
4320
45 5C 00 00
3520
45 8C 00 00
4480
46 40 80 00
12320
45 3B 80 00
3000
45 48 00 00
3200
45 34 00 00
2880
46 0E 80 00
9120
45 AA 00 00
5440
45 97 40 00
4840
45 AD C0 00
5560
46 6F 60 00
15320
3F 4B 43 96
0.794
3F 3A 5E 35
0.728
3F 4E 97 8D
0.807
3F 4D D2 F2
0.804
42 48 48 B6
50.071007
45 38 EC CD
2958.8
44 11 66 66
581.6
44 F4 C0 00
1958
00 00 00 00
0
43 D1 80 00
419
00 00 00 00
0
00 00 00 00
0
00 00 00 00
0
00 00 00 00
0
00 00 00 00
0
44 B9 26 66
1481.2
43 9B 66 66
310.8
44 7A A6 66
1002.6
00 00 00 00
0
43 27 66 66
167.4
42 7B 33 33
62.8
41 46 66 66
12.4
42 0F 33 33
35.8
00 00 00 00
0
41 63 33 33
14.2
45 5D 1C CD
3537.8
44 48 F3 33
803.8
45 05 66 66
2134.4
00 00 00 00
0
44 15 E6 66
599.6
00 00 00 00
0
00 00 00 00
0
00 00 00 00
0
00 00 00 00
0
00 00 00 00
0
44 8B 99 9A
1116.8
43 18 00 00
152
44 48 D9 9A
803.4
00 00 00 00
0
43 21 33 33
161.2
43 27 99 9A
167.6
42 5C 00 00
55
42 98 66 66
76.2
00 00 00 00
0
42 10 00 00
36
45 29 09 9A
2704.6
44 2A 99 9A
682.4
44 BC F9 9A
1511.8
00 00 00 00
0
43 FF 19 9A
510.2
00 00 00 00
0
00 00 00 00
0
00 00 00 00
0
00 00 00 00
0
00 00 00 00
0
43 B2 19 9A
356.2
42 69 99 9A
58.4
43 6E 33 33
238.2
00 00 00 00
0
42 6D 99 9A
59.4
43 51 99 9A
209.6
42 63 33 33
56.8
42 DC CC CD
110.4
00 00 00 00
0
42 28 83 D7
42.12875
00 04 E1 6E
319854
00 00 00 00
0
00 01 4F 7A
85882
00 00 F0 AE
61614
