nohup: ignoring input
Listening on :6005
received messag ?->? 
 124.160.218.154:8830 172.16.246.153:6005
write:01 03 00 38 00 34 C5 D0
34 30 36
heart:34 30 36 36 32 33 30 31 30 31 30 35 30 32
01 03 68
143 6A 30 A4 43 6A 3A A0 43 6A 0F 1B 43 CA C7 8D 43 CA BC 8B 43 CA B1 68 40 D7 0A 3D 40 61 47 AE 00 00 00 00 44 82 00 00 44 0C 00 00 00 00 00 00 44 C8 00 00 43 A0 00 00 00 00 00 00 00 00 00 00 43 F0 00 00 44 C8 00 00 44 48 00 00 00 00 00 00 44 D2 00 00 3F 28 B4 39 3F 24 DD 2F 00 00 00 00 3F 76 87 2B 42 47 C0 B3
write:01 03 07 CF 00 78 74 A3
write:01 03 01 0F 00 08 75 F3
write:02 03 00 38 00 34 C5 E3
write:02 03 07 CF 00 78 74 90
write:02 03 01 0F 00 08 75 C0
34 30 36
heart:34 30 36 36 32 33 30 31 30 31 30 35 30 32
01 03 F0
143 E4 33 33 42 16 66 66 43 90 00 00 00 00 00 00 43 02 66 66 00 00 00 00 00 00 00 00 00 00 00 00 00 00 00 00 00 00 00 00 3E CC CC CD 00 00 00 00 3E CC CC CD 00 00 00 00 00 00 00 00 43 11 99 9A 41 96 66 66 42 93 33 33 00 00 00 00 42 53 33 33 44 0E 99 9A 42 56 66 66 43 B2 00 00 00 00 00 00 43 20 00 00 00 00 00 00 00 00 00 00 00 00 00 00 00 00 00 00 00 00 00 00 3F CC CC CD 00 00 00 00 3F CC CC CD 00 00 00 00 00 00 00 00 43 33 33 33 41 C0 00 00 42 B7 33 33 00 00 00 00 42 7C CC CD 44 42 66 66 42 AF 33 33 43 FF FF 15 FF FF FF FE FD FF FF D1 F9 F1 EF F4 00 00 00 00 00 00 00 00 00 00 00 00 00 00 00 42 21 99 9A 3F CC CC CD 41 F3 33 33 00 00 00 00 41 00 00 00 43 36 CC CD 41 DC CC CD 42 BE 66 66 00 00 00 00 42 6E 38 62 00
write:03 03 00 38 00 34 C4 32
03 03 68
343 6A 2F 9E 43 6A AD 50 43 6A AD 91 43 CA F3 F8 43 CB 2B 64 43 CA F3 F8 40 34 7A E1 3F C3 D7 0A 3F 57 0A 3D 43 FF 00 00 43 B4 00 00 43 34 00 00 44 7F 00 00 42 B4 00 00 00 00 00 00 00 00 00 00 42 B4 00 00 44 25 00 00 43 B4 00 00 43 34 00 00 44 83 40 00 3F 42 0C 4A 3F 79 99 9A 3F 72 6E 98 3F 7E B8 52 42 48 D0 A5
write:03 03 07 CF 00 78 75 41
03 03 F0
343 A9 E0 00 42 84 99 9A 43 3B F3 33 00 00 00 00 42 AA B3 33 00 00 00 00 00 00 00 00 00 00 00 00 00 00 00 00 00 00 00 00 42 90 E6 66 41 5F 33 33 42 3A 99 9A 00 00 00 00 41 3B 33 33 40 66 66 66 3F 40 00 00 40 23 33 33 00 00 00 00 3E 19 99 9A 43 EF 2C CD 42 F0 00 00 43 7D 33 33 00 00 00 00 42 D1 B3 33 00 00 00 00 00 00 00 00 00 00 00 00 00 00 00 00 00 00 00 00 42 9C E6 66 40 E6 66 66 42 5B 99 9A 00 00 00 00 41 80 66 66 41 68 CC CD 40 A8 00 00 40 F9 99 9A 00 00 00 00 3F AC CC CD 43 D8 60 00 42 B5 80 00 43 81 86 66 00 00 00 00 42 A5 99 9A 00 00 00 00 00 00 00 00 00 00 00 00 00 00 00 00 00 00 00 00 42 F7 CC CD 41 90 00 00 42 A5 99 9A 00 00 00 00 41 B8 CC CD 40 EB 33 33 40 06 66 66 40 53 33 33 00 00 00 00 3F E6 03 3F
write:03 03 01 0F 00 08 74 11
write:04 03 00 38 00 34 C5 85
write:04 03 07 CF 00 78 74 F6
write:04 03 01 0F 00 08 75 A6
write:05 03 00 38 00 34 C4 54
write:05 03 07 CF 00 78 75 27
34 30 36
heart:34 30 36 36 32 33 30 31 30 31 30 35 30 32
04 03 68
443 69 9C EE 43 69 DE B8 43 69 A9 BA 43 CA 63 D7 43 CA 63 D7 43 CA 4D B2 3F DC 28 F6 00 00 00 00 40 3A E1 48 43 48 00 00 00 00 00 00 44 16 00 00 44 52 00 00 42 A0 00 00 00 00 00 00 42 A0 00 00 00 00 00 00 43 C8 00 00 42 A0 00 00 44 2A 00 00 44 52 00 00 3F 0A 7E FA 3F 1F BE 77 3F 57 CE D9 3F 80 00 00 42 48 11 76
03 F9 7F
heart:03 F9 7F FF EF CD FE EF FF 7F F9 FF 8F B1 43 A8 E6 66 00 00 00 00 43 03 00 00 00 00 00 00 00 00 00 00 00 00 00 00 00 00 00 00 00 00 00 00 40 AC CC CD 3E 4C CC CD 3F B3 33 33 00 00 00 00 40 66 66 66 42 71 99 9A 41 46 66 66 41 F0 00 00 00 00 00 00 41 90 00 00 44 1B 00 00 42 CE CC CD 43 AE 00 00 00 00 00 00 43 28 66 66 00 00 00 00 00 00 00 00 00 00 00 00 00 00 00 00 00 00 00 00 41 B0 00 00 40 26 66 66 40 C0 00 00 00 00 00 00
41 53 33
heart:41 53 33 33 42 48 CC CD 41 06 66 66 41 D0 00 00 00 00 00 00 41 76 66 66 44 21 8C CD 42 DE CC CD 43 B0 99 9A 00 00 00 00 43 35 33 33 00 00 00 00 00 00 00 00 00 00 00 00 00 00 00 00 00 00 00 00 41 E8 00 00 40 B9 99 9A 40 E0 00 00 00 00 00 00 41 81 99 9A 42 14 CC CD 40 8C CC CD 41 9B 33 33 00 00 00 00 41 50 BC CA
write:05 03 01 0F 00 08 74 77
write:06 03 00 38 00 34 C4 67
write:06 03 07 CF 00 78 75 14
write:06 03 01 0F 00 08 74 44
write:07 03 00 38 00 34 C5 B6
write:07 03 07 CF 00 78 74 C5
write:07 03 01 0F 00 08 75 95
write:08 03 00 38 00 34 C5 49
write:08 03 07 CF 00 78 74 3A
34 30 36
heart:34 30 36 36 32 33 30 31 30 31 30 35 30 32
06 03 68
643 69 35 C3 43 69 5F BE 43 69 4E 14 43 CA 00 00 43 CA 0B 23 43 CA 00 00 40 6E 14 7B 40 45 1E B8 40 EA 3D 71 44 20 00 00 43 F0 00 00 44 B4 00 00 45 1D 80 00 42 F0 00 00 00 00 00 00 42 A0 00 00 43 20 00 00 44 5C 00 00 44 34 00 00 44 D2 00 00 45 20 00 00 3F 40 41 89 3F 23 12 6F 3F 57 00 03 00 BF 00 03 3E E0 08 FF
40 10 06
heart:40 10 06 5C 00 00 00 00 00 D9 A8 00 00 EA 1D
write:08 03 01 0F 00 08 75 6A
7E 7F EF
heart:7E 7F EF F7 F9 FF B7 37 FE FC EF FD F9 F7 EF 55 F9 EF F7 F4 6F FF DA 00 00 00 00 00 00 00 00 00 00 00 00 00 00 00 00 00 00 00 00 3F CC CC CD 00 00 00 00 3F 99 99 9A 00 00 00 00 3E 4C CC CD 43 09 66 66 41 D1 99 9A 42 81 33 33 00 00 00 00 42 39 99 9A 44 F8 A6 66 43 BF 33 33 44 93 80 00 00 00 00 00 43 D5 4C CD 00 00 00 00 00 00 00 00 00 00 00 00 00 00 00 00 00 00 00 00 40 C6 66 66 3E CC CC CD 40 A0 00 00 00 00 00 00 3F 19 99 9A 43 47 99 9A 42 16 66 66 42 BB 99 9A 00 00 00 00 42 88 00 00 45 15 00 00 43 EA 66 66 44 AC 53 33 00 00 00 00 44 06 0C CD 00 00 00 00 00 00 00 00 00 00 00 00 00 00 00 00 00 00 00 00 41 53 33 33 40 66 66 66 40 CC CC CD 00 00 00 00 40 40 00 00 43 38 33 33 42 10 00 00 42 A8 CC CD 00 00 00 00 42 7D 97 8C
write:09 03 00 38 00 34 C4 98
write:09 03 07 CF 00 78 75 EB
write:09 03 01 0F 00 08 74 BB
write:01 03 00 38 00 34 C5 D0
write:01 03 07 CF 00 78 74 A3
write:01 03 01 0F 00 08 75 F3
write:02 03 00 38 00 34 C5 E3
09 01 03
heart:09 01 03 68 00 00 43 69 D3 33 43 69 EB 02 43 69 90 A4 43 CA 85 1F 43 CA 63 D7 43 CA 58 B4 40 D9 99 9A 40 66 66 66 00 00 00 00 44 82 00 00 44 0C 00 00 00 00 00 00 44 C8 00 00 43 A0 00 00 00 00 00 00 00 00 00 00 43 C8 00 00 44 C8 00 00 44 5C 00 00 00 00 00 00 44 D2 00 00 3F 27 EF 9E 3F 24 5A 1D 00 00 00 00 3F 77 8D 50 42 47 72 7D
02 03 68
243 69 DE B8 43 6A 35 43 40 FA 00 00 00 00 00 00 00 00 00 00 00 00 00 00 00 00 00 00 00 00 00 00 00 00 00 00 00 00 00 00 00 00 00 00 00 00 00 00 00 00 00 00 00 00 00 00 00 00 00 00 00 00 00 00 00 00 00 00 00 00 00 00 00 00 00 00 00 00 00 00 00 00 00 00 00 00 00 00 00 00 00 00 00 00 00 00 00 00 00 00 00 00 00 00
69 F9 17
heart:69 F9 17 43 CA BC 8B 43 CA BC 8B 43 CA 90 21 40 70 A3 D7 40 D9 99 9A 40 23 D7 0A 44 34 00 00 44 A0 00 00 44 0C 00 00 45 1B 00 00 00 00 00 00 00 00 00 00 00 00 00 00 00 00 00 00 44 5C 00 00 44 C8 00 00 44 0C 00 00 45 1B 00 00 3F 53 F7 CF 3F 48 B4 39 3F 65 1E B8 3F 7F BE 77 42 47 9D 57
write:02 03 07 CF 00 78 74 90
02 03 F0
244 86 99 9A 42 DD 99 9A 44 1E E6 66 00 00 00 00 43 A5 33 33 00 00 00 00 00 00 00 00 00 00 00 00 00 00 00 00 00 00 00 00 42 39 99 9A 40 B3 33 33 41 C3 33 33 00 00 00 00 41 80 00 00 42 29 99 9A 3F CC CC CD 41 F6 66 66 00 00 00 00 41 13 33 33 44 8E D9 9A 43 18 CC CD 44 1F E6 66 00 00 00 00 43 AF 00 00 00 00 00 00 00 00 00 00 00 00 00 00 00 00 00 00 00 00 00 00 42 21 99 9A 41 20 00 00 41 A9 99 9A 00 00 00 00 41 0C CC CD 42 30 00 00 40 4C CC CD 00 00 00 00 00 00 00 00 00 00 00 00 00 00 00 00 00 00 00 00 00 00 00 00 00 00 00 00 00 00 00 00 00 00 00 00 00 00 00 00 00 00 00 00 00 00 00 00 00 00 00 00 00 00 00 00 00 00 00 00 00 00 00 00 00 00 00 00 00 00 00 00 00 00 00 00 00 00 00 00 00 00 00 00 00 00 00 00 00 00 00 00
41 F3 33
heart:41 F3 33 33 00 00 00 00 41 19 99 9A 45 2F 66 66 43 E3 99 9A 44 DC 33 33 00 00 00 00 44 13 4C CD 00 00 00 00 00 00 00 00 00 00 00 00 00 00 00 00 00 00 00 00 44 77 E6 66 43 2E CC CD 44 24 B3 33 00 00 00 00 43 1D 99 9A 42 13 33 33 40 00 00 00 41 D9 99 9A 00 00 00 00 40 E6 55 7B
write:02 03 01 0F 00 08 75 C0
02 03 10
200 03 41 0B 00 00 00 05 00 01 30 C4 00 00 5A 3B
43 69 DE B8
233.87
43 6A 35 43
234.20805
40 FA 00 00
7.8125
00 00 00 00
0
00 00 00 00
0
00 00 00 00
0
00 00 00 00
0
00 00 00 00
0
00 00 00 00
0
00 00 00 00
0
00 00 00 00
0
00 00 00 00
0
00 00 00 00
0
00 00 00 00
0
00 00 00 00
0
00 00 00 00
0
00 00 00 00
0
00 00 00 00
0
00 00 00 00
0
00 00 00 00
0
00 00 00 00
0
00 00 00 00
0
00 00 00 00
0
00 00 00 00
0
00 00 00 00
0
00 00 00 00
0
44 86 99 9A
1076.8
42 DD 99 9A
110.8
44 1E E6 66
635.6
00 00 00 00
0
43 A5 33 33
330.4
00 00 00 00
0
00 00 00 00
0
00 00 00 00
0
00 00 00 00
0
00 00 00 00
0
42 39 99 9A
46.4
40 B3 33 33
5.6
41 C3 33 33
24.4
00 00 00 00
0
41 80 00 00
16
42 29 99 9A
42.4
3F CC CC CD
1.6
41 F6 66 66
30.8
00 00 00 00
0
41 13 33 33
9.2
44 8E D9 9A
1142.8
43 18 CC CD
152.8
44 1F E6 66
639.6
00 00 00 00
0
43 AF 00 00
350
00 00 00 00
0
00 00 00 00
0
00 00 00 00
0
00 00 00 00
0
00 00 00 00
0
42 21 99 9A
40.4
41 20 00 00
10
41 A9 99 9A
21.2
00 00 00 00
0
41 0C CC CD
8.8
42 30 00 00
44
40 4C CC CD
3.2
00 00 00 00
0
00 00 00 00
0
00 00 00 00
0
00 00 00 00
0
00 00 00 00
0
00 00 00 00
0
00 00 00 00
0
00 00 00 00
0
00 00 00 00
0
00 00 00 00
0
00 00 00 00
0
00 00 00 00
0
00 00 00 00
0
00 00 00 00
0
00 00 00 00
0
00 00 00 00
0
00 00 00 00
0
00 00 00 00
0
00 00 00 00
0
00 00 00 00
0
00 00 00 00
0
00 00 00 00
0
00 00 00 00
0
00 03 41 0B
213259
00 00 00 05
5
00 01 30 C4
78020
00 00 5A 3B
23099
233.87234.208057.8125000000000000000000000001076.8110.8635.60330.40000046.45.624.401642.41.630.809.21142.8152.8639.603500000040.41021.208.8443.200000000000000000000000220171123160606213.2590.00578.0223.099insert into tbl_power_info_v2(P_A_DIANYA,P_B_DIANYA,P_C_DIANYA,P_UAB_XIANDIANYA,P_UBC_XIANDIANYA,P_UCA_XIANDIANYA,P_A_DIANLIU,P_B_DIANLIU,P_C_DIANLIU,P_A_YGGL,P_B_YGGL,P_C_YGGL,P_HXYGGL,P_A_WGGL,P_B_WGGL,P_C_WGGL,P_HXWGGL,P_A_SZGL,P_B_SZGL,P_C_SZGL,P_HXSZGL,P_A_GLYS,P_B_GLYS,P_C_GLYS,P_HXGLYS,P_DWPL,P_BY_KwhZ,P_BY_KwhJ,P_BY_KwhF,P_BY_KwhP,P_BY_KwhG,P_BY_HKwhZ,P_BY_HKwhJ,P_BY_HKwhF,P_BY_HKwhP,P_BY_HKwhG, P_BY_KvarhZ,P_BY_KvarhJ,P_BY_KvarhF,P_BY_KvarhP,P_BY_KvarhG, P_BY_HKvarhZ,P_BY_HKvarhJ,P_BY_HKvarhF,P_BY_HKvarhP,P_BY_HKvarhG, P_SY_KwhZ,P_SY_KwhJ,P_SY_KwhF,P_SY_KwhP,P_SY_KwhG, P_SY_HKwhZ,P_SY_HKwhJ,P_SY_HKwhF,P_SY_HKwhP,P_SY_HKwhG, P_SY_KvarhZ,P_SY_KvarhJ,P_SY_KvarhF,P_SY_KvarhP,P_SY_KvarhG, P_SY_HKvarhZ,P_SY_HKvarhJ,P_SY_HKvarhF,P_SY_HKvarhP,P_SY_HKvarhG, P_SSY_KwhZ,P_SSY_KwhJ,P_SSY_KwhF,P_SSY_KwhP,P_SSY_KwhG, P_SSY_HKwhZ,P_SSY_HKwhJ,P_SSY_HKwhF,P_SSY_HKwhP,P_SSY_HKwhG, P_SSY_KvarhZ,P_SSY_KvarhJ,P_SSY_KvarhF,P_SSY_KvarhP,P_SSY_KvarhG, P_SSY_HKvarhZ,P_SSY_HKvarhJ,P_SSY_HKvarhF,P_SSY_HKvarhP,P_SSY_HKvarhG,P_CODE,P_TIME,P_ZXYGDN,P_FXYGDN,P_ZXWGDN,P_FXWGDN)values(233.87,234.20805,7.8125,0,0,0,0,0,0,0,0,0,0,0,0,0,0,0,0,0,0,0,0,0,0,0,1076.8,110.8,635.6,0,330.4,0,0,0,0,0,46.4,5.6,24.4,0,16,42.4,1.6,30.8,0,9.2,1142.8,152.8,639.6,0,350,0,0,0,0,0,40.4,10,21.2,0,8.8,44,3.2,0,0,0,0,0,0,0,0,0,0,0,0,0,0,0,0,0,0,0,0,0,0,0,2,20171123160606,213.259,0.005,78.02,23.099)
写入成功读取完毕一个
write:03 03 00 38 00 34 C4 32
write:03 03 07 CF 00 78 75 41
write:03 03 01 0F 00 08 74 11
03 03 68
343 69 D7 8D 43 6A 38 D5 43 69 DC EE 43 CA A6 46 43 CA A6 46 43 CA 79 FC 40 2E B8 52 3F 4F 5C 29 3F 57 0A 3D 43 F0 00 00 43 34 00 00 43 34 00 00 44 52 00 00 42 B4 00 00 00 00 00 00 00 00 00 00 42 B4 00 00 44 1D 80 00 43 34 00 00 43 34 00 00 44 52 00 00 3F 41 CA C1 3F 69 BA 5E 3F 72 B0 21 3F 7E 76 C9 42 48 53 78
7E 7F FF
heart:7E 7F FF EF EA 43 A9 F3 33 42 84 99 9A 43 3C 19 9A 00 00 00 00 42 AA B3 33 00 00 00 00 00 00 00 00 00 00 00 00 00 00
00 00 00
heart:00 00 00 00 00 00 42 90 E6 66 41 5F 33 33 42 3A 99 9A 00 00 00 00 41 3B 33 33 40 66 66 66 3F 40 00 00 40 23 33 33 00 00 00 00 3E 19 99 9A 43 EF 2C CD 42 F0 00 00 43 7D 33 33 00 00 00 00 42 D1 B3 33 00 00 00 00 00 00 00 00 00 00 00 00 00 00 00 00 00 00 00 00 42 9C E6 66 40 E6 66 66 42 5B 99 9A 00 00 00 00 41 80 66 66 41 68 CC CD 40 A8 00 00 40 F9 99 9A 00 00 00 00 3F AC CC CD 43 D8 60 00 42 B5 80 00 43 81 86 66 00 00 00 00 42 A5 99 9A 00 00 00 00 00 00 00 00 00 00 00 00 00 00 00 00 00 00 00 00 42 F7 CC CD 41 90 00 00 42 A5 99 9A 00 00 00 00 41 B8 CC CD 40 EB 33 33 40 06 66 66 40 53 33 33 00 00 00 00 3F E6 A6 8C
write:04 03 00 38 00 34 C5 85
04 03 68
443 6A 14 FE 43 6A 4E 14 43 69 DC 6A 43 CA C7 8D 43 CA B1 68 43 CA 90 21 3F 80 00 00 00 00 00 00 40 3D 70 A4 42 F0 00 00 00 00 00 00 44 16 00 00 44 3E 00 00 00 00 00 00 00 00 00 00 00 00 00 00 00 00 00 00 00 00 00 00 00 00 00 00 00 00 00 00 00 00 00 00 00 00 00 00 00 00 00 00 00 00 00 00 00 00 00 00 00 00 00 00
00 00 00
heart:00 00 00 00 00 43 70 00 00 42 A0 00 00 44 2A 00 00 44 3E 00 00 3E F0 A3 D7 3F 1F 3B 64 3F 60 41 89 3F 7F BE 77 42 48 5F 70
write:04 03 07 CF 00 78 74 F6
write:04 03 01 0F 00 08 75 A6
write:05 03 00 38 00 34 C4 54
write:05 03 07 CF 00 78 75 27
write:05 03 01 0F 00 08 74 77
34 30 36
heart:34 30 36 36 32 33 30 31 30 31 30 35 30 32
signal: killed
