nohup: ignoring input
Listening on :6005
received messag ?->? 
 124.160.213.10:16291 172.16.246.153:6005
write:01 03 00 38 00 34 C5 D0
34 30 36
heart:34 30 36 36 32 33 30 31 30 31 30 35 30 32
01 03 68
143 6B 90 62 43 6B D5 3F 43 6C 03 12 43 CC 14 19 43 CC 4B 85 43 CC 2A 5E 40 E6 66 66 40 33 33 33 00 00 00 00 44 8C 00 00 43 F0 00 00 00 00 00 00 44 C8 00 00 43 A0 00 00 00 00 00 00 00 00 00 00 43 F0 00 00 44 D2 00 00 44 20 00 00 00 00 00 00 44 D2 00 00 3F 2B 02 0C 3F 2E 14 7B 00 00 00 00 3F 76 04 19 42 48 94 35
write:01 03 07 CF 00 78 74 A3
write:01 03 01 0F 00 08 75 F3
01 03 F0
143 E4 CC CD 42 16 66 66 43 90 99 9A 00 00 00 00 43 02 66 66 00 00 00 00 00 00 00 00 00 00 00 00 00 00 00 00 00 00 00 00 3E CC CC CD 00 00 00 00 3E CC CC CD 00 00 00 00 00 00 00 00 43 12 00 00 41 96 66 66 42 94 00 00 00 00 00 00 42 53 33 33 44 0E 99 9A 42 56 66 66 43 B2 00 00 00 00 00 00 43 20 00 00 00 00 00 00 00 00 00 00 00 00 00 00 00 00 00 00 00 00 00 00 3F CC CC CD 00 00 00 00 3F CC CC CD 00 00 00 00 00 00 00 00 43 33 33 33 41 C0 00 00 42 B7 33 33 00 00 00 00 42 7C CC CD 44 42 66 66 42 AF 33 33 43 F7 66 66 00 00 00 00 43 42 CC CD 00 00 00 00 00 00 00 00 00 00 00 00 00 00 00 00 00 00 00 00 42 21 99 9A 3F CC CC CD 41 F3 33 33 00 00 00 00 41 00 00 00 43 36 CC CD 41 DC CC CD 42 BE 66 66 00 00 00 00 42 6E 7D AF
01 03 10
100 01 9C D9 00 00 00 00 00 00 8A CA 00 00 B9 30
43 6B 90 62
235.564
43 6B D5 3F
235.833
43 6C 03 12
236.012
43 CC 14 19
408.157
43 CC 4B 85
408.59
43 CC 2A 5E
408.331
40 E6 66 66
7.2
40 33 33 33
2.8
00 00 00 00
0
44 8C 00 00
1120
43 F0 00 00
480
00 00 00 00
0
44 C8 00 00
1600
43 A0 00 00
320
00 00 00 00
0
00 00 00 00
0
43 F0 00 00
480
44 D2 00 00
1680
44 20 00 00
640
00 00 00 00
0
44 D2 00 00
1680
3F 2B 02 0C
0.668
3F 2E 14 7B
0.68
00 00 00 00
0
3F 76 04 19
0.961
42 48 94 35
50.144733
43 E4 CC CD
457.6
42 16 66 66
37.6
43 90 99 9A
289.2
00 00 00 00
0
43 02 66 66
130.4
00 00 00 00
0
00 00 00 00
0
00 00 00 00
0
00 00 00 00
0
00 00 00 00
0
3E CC CC CD
0.4
00 00 00 00
0
3E CC CC CD
0.4
00 00 00 00
0
00 00 00 00
0
43 12 00 00
146
41 96 66 66
18.8
42 94 00 00
74
00 00 00 00
0
42 53 33 33
52.8
44 0E 99 9A
570.4
42 56 66 66
53.6
43 B2 00 00
356
00 00 00 00
0
43 20 00 00
160
00 00 00 00
0
00 00 00 00
0
00 00 00 00
0
00 00 00 00
0
00 00 00 00
0
3F CC CC CD
1.6
00 00 00 00
0
3F CC CC CD
1.6
00 00 00 00
0
00 00 00 00
0
43 33 33 33
179.2
41 C0 00 00
24
42 B7 33 33
91.6
00 00 00 00
0
42 7C CC CD
63.2
44 42 66 66
777.6
42 AF 33 33
87.6
43 F7 66 66
494.8
00 00 00 00
0
43 42 CC CD
194.8
00 00 00 00
0
00 00 00 00
0
00 00 00 00
0
00 00 00 00
0
00 00 00 00
0
42 21 99 9A
40.4
3F CC CC CD
1.6
41 F3 33 33
30.4
00 00 00 00
0
41 00 00 00
8
43 36 CC CD
182.8
41 DC CC CD
27.6
42 BE 66 66
95.2
00 00 00 00
0
42 6E 7D AF
59.622738
00 01 9C D9
105689
00 00 00 00
0
00 00 8A CA
35530
00 00 B9 30
47408
235.564235.833236.012408.157408.59408.3317.22.80112048001600320004801680640016800.6680.6800.96150.144733457.637.6289.20130.4000000.400.40014618.874052.8570.453.63560160000001.601.600179.22491.6063.2777.687.6494.80194.80000040.41.630.408182.827.695.2059.622738120171123163859105.689035.5347.408insert into tbl_power_info_v2(P_A_DIANYA,P_B_DIANYA,P_C_DIANYA,P_UAB_XIANDIANYA,P_UBC_XIANDIANYA,P_UCA_XIANDIANYA,P_A_DIANLIU,P_B_DIANLIU,P_C_DIANLIU,P_A_YGGL,P_B_YGGL,P_C_YGGL,P_HXYGGL,P_A_WGGL,P_B_WGGL,P_C_WGGL,P_HXWGGL,P_A_SZGL,P_B_SZGL,P_C_SZGL,P_HXSZGL,P_A_GLYS,P_B_GLYS,P_C_GLYS,P_HXGLYS,P_DWPL,P_BY_KwhZ,P_BY_KwhJ,P_BY_KwhF,P_BY_KwhP,P_BY_KwhG,P_BY_HKwhZ,P_BY_HKwhJ,P_BY_HKwhF,P_BY_HKwhP,P_BY_HKwhG, P_BY_KvarhZ,P_BY_KvarhJ,P_BY_KvarhF,P_BY_KvarhP,P_BY_KvarhG, P_BY_HKvarhZ,P_BY_HKvarhJ,P_BY_HKvarhF,P_BY_HKvarhP,P_BY_HKvarhG, P_SY_KwhZ,P_SY_KwhJ,P_SY_KwhF,P_SY_KwhP,P_SY_KwhG, P_SY_HKwhZ,P_SY_HKwhJ,P_SY_HKwhF,P_SY_HKwhP,P_SY_HKwhG, P_SY_KvarhZ,P_SY_KvarhJ,P_SY_KvarhF,P_SY_KvarhP,P_SY_KvarhG, P_SY_HKvarhZ,P_SY_HKvarhJ,P_SY_HKvarhF,P_SY_HKvarhP,P_SY_HKvarhG, P_SSY_KwhZ,P_SSY_KwhJ,P_SSY_KwhF,P_SSY_KwhP,P_SSY_KwhG, P_SSY_HKwhZ,P_SSY_HKwhJ,P_SSY_HKwhF,P_SSY_HKwhP,P_SSY_HKwhG, P_SSY_KvarhZ,P_SSY_KvarhJ,P_SSY_KvarhF,P_SSY_KvarhP,P_SSY_KvarhG, P_SSY_HKvarhZ,P_SSY_HKvarhJ,P_SSY_HKvarhF,P_SSY_HKvarhP,P_SSY_HKvarhG,P_CODE,P_TIME,P_ZXYGDN,P_FXYGDN,P_ZXWGDN,P_FXWGDN)values(235.564,235.833,236.012,408.157,408.59,408.331,7.2,2.8,0,1120,480,0,1600,320,0,0,480,1680,640,0,1680,0.668,0.68,0,0.961,50.144733,457.6,37.6,289.2,0,130.4,0,0,0,0,0,0.4,0,0.4,0,0,146,18.8,74,0,52.8,570.4,53.6,356,0,160,0,0,0,0,0,1.6,0,1.6,0,0,179.2,24,91.6,0,63.2,777.6,87.6,494.8,0,194.8,0,0,0,0,0,40.4,1.6,30.4,0,8,182.8,27.6,95.2,0,59.622738,1,20171123163859,105.689,0,35.53,47.408)
写入成功读取完毕一个
write:02 03 00 38 00 34 C5 E3
02 03 68
243 6B 85 1F 43 6C 02 8F 43 6B DE FA 43 CC 2A 5E 43 CC 4B 85 43 CC 14 19 40 23 D7 0A 40 D9 99 9A 40 23 D7 0A 44 0C 00 00 44 A0 00 00 44 0C 00 00 45 11 00 00 00 00 00 00 00 00 00 00 43 20 00 00 00 00 00 00 44 20 00 00 44 C8 00 00 44 0C 00 00 45 11 00 00 3F 5C 6A 7F 3F 48 72 B0 3F 65 A1 CB 3F 80 00 00 42 48 8A 9C
write:02 03 07 CF 00 78 74 90
02 03 F0
244 86 CC CD 42 DD 99 9A 44 1F 4C CD 00 00 00 00 43 A5 33 33 00 00 00 00 00 00 00 00 00 00 00 00 00 00 00 00 00 00 00 00 42 39 99 9A 40 B3 33 33 41 C3 33 33 00 00 00 00 41 80 00 00 42 29 99 9A 3F CC CC CD 41 F6 66 66 00 00 00 00 41 13 33 33 44 8E D9 9A 43 18 CC CD 44 1F E6 66 00 00 00 00 43 AF 00 00 00 00 00 00 00 00 00 00 00 00 00 00 00 00 00 00 00 00 00 00 42 21 99 9A 41 20 00 00 41 A9 99 9A 00 00 00 00 41 0C CC CD 42 30 00 00 40 4C CC CD 41 F3 33 33 00 00 00 00 41 19 99 9A 45 2F 66 66 43 E3 99 9A 44 DC 33 33 00 00 00 00 44 13 4C CD 00 00 00 00 00 00 00 00 00 00 00 00 00 00 00 00 00 00 00 00 44 77 E6 66 43 2E CC CD 44 24 B3 33 00 00 00 00 43 1D 99 9A 42 13 33 33 40 00 00 00 41 D9 99 9A 00 00 00 00 40 E6 87 AE
write:02 03 01 0F 00 08 75 C0
02 03 10
200 03 41 1E 00 00 00 05 00 01 30 C4 00 00 1F 37
43 6B 85 1F
235.52
43 6C 02 8F
236.01
43 6B DE FA
235.871
43 CC 2A 5E
408.331
43 CC 4B 85
408.59
43 CC 14 19
408.157
40 23 D7 0A
2.56
40 D9 99 9A
6.8
40 23 D7 0A
2.56
44 0C 00 00
560
44 A0 00 00
1280
44 0C 00 00
560
45 11 00 00
2320
00 00 00 00
0
00 00 00 00
0
43 20 00 00
160
00 00 00 00
0
44 20 00 00
640
44 C8 00 00
1600
44 0C 00 00
560
45 11 00 00
2320
3F 5C 6A 7F
0.861
3F 48 72 B0
0.783
3F 65 A1 CB
0.897
3F 80 00 00
1
42 48 8A 9C
50.13536
44 86 CC CD
1078.4
42 DD 99 9A
110.8
44 1F 4C CD
637.2
00 00 00 00
0
43 A5 33 33
330.4
00 00 00 00
0
00 00 00 00
0
00 00 00 00
0
00 00 00 00
0
00 00 00 00
0
42 39 99 9A
46.4
40 B3 33 33
5.6
41 C3 33 33
24.4
00 00 00 00
0
41 80 00 00
16
42 29 99 9A
42.4
3F CC CC CD
1.6
41 F6 66 66
30.8
00 00 00 00
0
41 13 33 33
9.2
44 8E D9 9A
1142.8
43 18 CC CD
152.8
44 1F E6 66
639.6
00 00 00 00
0
43 AF 00 00
350
00 00 00 00
0
00 00 00 00
0
00 00 00 00
0
00 00 00 00
0
00 00 00 00
0
42 21 99 9A
40.4
41 20 00 00
10
41 A9 99 9A
21.2
00 00 00 00
0
41 0C CC CD
8.8
42 30 00 00
44
40 4C CC CD
3.2
41 F3 33 33
30.4
00 00 00 00
0
41 19 99 9A
9.6
45 2F 66 66
2806.4
43 E3 99 9A
455.2
44 DC 33 33
1761.6
00 00 00 00
0
44 13 4C CD
589.2
00 00 00 00
0
00 00 00 00
0
00 00 00 00
0
00 00 00 00
0
00 00 00 00
0
44 77 E6 66
991.6
43 2E CC CD
174.8
44 24 B3 33
658.8
00 00 00 00
0
43 1D 99 9A
157.6
42 13 33 33
36.8
40 00 00 00
2
41 D9 99 9A
27.2
00 00 00 00
0
40 E6 87 AE
7.2040625
00 03 41 1E
213278
00 00 00 05
5
00 01 30 C4
78020
00 00 1F 37
7991
235.52236.01235.871408.331408.59408.1572.566.82.5656012805602320001600640160056023200.8610.7830.897150.135361078.4110.8637.20330.40000046.45.624.401642.41.630.809.21142.8152.8639.603500000040.41021.208.8443.230.409.62806.4455.21761.60589.200000991.6174.8658.80157.636.8227.207.2040625220171123164003213.2780.00578.027.991insert into tbl_power_info_v2(P_A_DIANYA,P_B_DIANYA,P_C_DIANYA,P_UAB_XIANDIANYA,P_UBC_XIANDIANYA,P_UCA_XIANDIANYA,P_A_DIANLIU,P_B_DIANLIU,P_C_DIANLIU,P_A_YGGL,P_B_YGGL,P_C_YGGL,P_HXYGGL,P_A_WGGL,P_B_WGGL,P_C_WGGL,P_HXWGGL,P_A_SZGL,P_B_SZGL,P_C_SZGL,P_HXSZGL,P_A_GLYS,P_B_GLYS,P_C_GLYS,P_HXGLYS,P_DWPL,P_BY_KwhZ,P_BY_KwhJ,P_BY_KwhF,P_BY_KwhP,P_BY_KwhG,P_BY_HKwhZ,P_BY_HKwhJ,P_BY_HKwhF,P_BY_HKwhP,P_BY_HKwhG, P_BY_KvarhZ,P_BY_KvarhJ,P_BY_KvarhF,P_BY_KvarhP,P_BY_KvarhG, P_BY_HKvarhZ,P_BY_HKvarhJ,P_BY_HKvarhF,P_BY_HKvarhP,P_BY_HKvarhG, P_SY_KwhZ,P_SY_KwhJ,P_SY_KwhF,P_SY_KwhP,P_SY_KwhG, P_SY_HKwhZ,P_SY_HKwhJ,P_SY_HKwhF,P_SY_HKwhP,P_SY_HKwhG, P_SY_KvarhZ,P_SY_KvarhJ,P_SY_KvarhF,P_SY_KvarhP,P_SY_KvarhG, P_SY_HKvarhZ,P_SY_HKvarhJ,P_SY_HKvarhF,P_SY_HKvarhP,P_SY_HKvarhG, P_SSY_KwhZ,P_SSY_KwhJ,P_SSY_KwhF,P_SSY_KwhP,P_SSY_KwhG, P_SSY_HKwhZ,P_SSY_HKwhJ,P_SSY_HKwhF,P_SSY_HKwhP,P_SSY_HKwhG, P_SSY_KvarhZ,P_SSY_KvarhJ,P_SSY_KvarhF,P_SSY_KvarhP,P_SSY_KvarhG, P_SSY_HKvarhZ,P_SSY_HKvarhJ,P_SSY_HKvarhF,P_SSY_HKvarhP,P_SSY_HKvarhG,P_CODE,P_TIME,P_ZXYGDN,P_FXYGDN,P_ZXWGDN,P_FXWGDN)values(235.52,236.01,235.871,408.331,408.59,408.157,2.56,6.8,2.56,560,1280,560,2320,0,0,160,0,640,1600,560,2320,0.861,0.783,0.897,1,50.13536,1078.4,110.8,637.2,0,330.4,0,0,0,0,0,46.4,5.6,24.4,0,16,42.4,1.6,30.8,0,9.2,1142.8,152.8,639.6,0,350,0,0,0,0,0,40.4,10,21.2,0,8.8,44,3.2,30.4,0,9.6,2806.4,455.2,1761.6,0,589.2,0,0,0,0,0,991.6,174.8,658.8,0,157.6,36.8,2,27.2,0,7.2040625,2,20171123164003,213.278,0.005,78.02,7.991)
写入成功读取完毕一个
write:03 03 00 38 00 34 C4 32
write:03 03 07 CF 00 78 75 41
03 03 68
343 6B C2 4E 43 6B EF 9E 43 6B FE 77 43 CC 35 60 43 CC 4B 85 43 CC 35 60 3F F1 EB 85 3F D7 0A 3D 00 00 00 00 43 87 00 00 43 C3 00 00 00 00 00 00 44 25 00 00 42 70 00 00 00 00 00 00 00 00 00 00 42 70 00 00 43 E1 00 00 43 C3 00 00 00 00 00 00 44 25 00 00 3F 22 0C 4A 3F 72 6E 98 00 00 00 00 3F 7E B8 52 42 48 EF 46
write:03 03 01 0F 00 08 74 11
FE 7F FF
heart:FE 7F FF EF DD 43 AA 2C CD 42 84 99 9A 43 3C 8C CD 00 00 00 00 42 AA B3 33 00 00 00 00 00 00 00 00 00 00 00 00 00 00 00 00 00 00 00 00 42 90 E6 66 41 5F 33 33 42 3A 99 9A 00 00 00 00 41 3B 33 33 40 66 66 66 3F 40 00 00 40 2C CC CD 00 00 00 00 3E 19 99 9A 43 EF 2C CD 42 F0 00 00 43 7D 33 33 00 00 00 00 42 D1 B3 33 00 00 00 00 00 00 00 00 00 00 00 00 00 00 00 00 00 00 00 00 42 9C E6 66 40 E6 66 66 42 5B 99 9A 00 00 00 00 41 80 66 66 41 68 CC CD 40 A8 00 00 40 F9 99 9A 00 00 00 00 3F AC CC CD 43 D8
60 00 42
heart:60 00 42 B5 80 00 43 81 86 66 00 00 00 00 42 A5 99 9A 00 00 00 00 00 00 00 00 00 00 00 00 00 00 00 00 00 00 00 00 42 F7 CC CD 41 90 00 00 42 A5 99 9A 00 00 00 00 41 B8 CC CD 40 EB 33 33 40 06 66 66 40 53 33 33 00 00 00 00 3F E6 E6 93
write:04 03 00 38 00 34 C5 85
04 03 68
443 6B CB 02 43 6B E4 19 43 6C 13 B6 43 CC 2A 3D 43 CC 4B 85 43 CC 40 83 3F 6B 85 1F 00 00 00 00 40 2E 14 7B 43 20 00 00 00 00 00 00 44 02 00 00 44 3E 00 00 00 00 00 00 00 00 00 00 42 F0 00 00 42 F0 00 00 43 48 00 00 42 A0 00 00 44 20 00 00 44 3E 00 00 3F 46 24 DD 3F 17 CE D9 3F 55 3F 7D 3F 7C 28 F6 42 48 8F 4E
write:04 03 07 CF 00 78 74 F6
04 03 F0
444 14 26 66 42 F6 00 00 43 A9 33 33 00 00 00 00 43 03 00 00 00 00 00 00 00 00 00 00 00 00 00 00 00 00 00 00 00 00 00 00 40 AC CC CD 3E 4C CC CD 3F B3 33 33 00 00 00 00 40 66 66 66 42 72 66 66 41 46 66 66 41 F0 00 00 00 00 00 00 41 90 00 00 44 1B 00 00 42 CE CC CD 43 AE 00 00 00 00 00 00 43 28 66 66 00 00 00 00 00 00 00 00 00 00 00 00 00 00 00 00 00 00 00 00 41 B0 00 00 40 26 66 66 40 C0 00 00 00 00 00 00 41 53 33 33 42 48 CC CD 41 06 66 66 41 D0 00 00 00 00 00 00 41 76 66 66 44 21 8C CD 42 DE CC CD 43 B0 99 9A 00 00 00 00 43 35 33 33 00 00 00 00 00 00 00 00 00 00 00 00 00 00 00 00 00 00 00 00 41 E8 00 00 40 B9 99 9A 40 E0 00 00 00 00 00 00 41 81 99 9A 42 14 CC CD 40 8C CC CD 41 9B 33 33 00 00 00 00 41 50 9A 85
write:04 03 01 0F 00 08 75 A6
04 03 10
400 02 8B 76 00 00 00 00 00 00 42 2F 00 00 59 8A
43 6B CB 02
235.793
43 6B E4 19
235.891
43 6C 13 B6
236.077
43 CC 2A 3D
408.33
43 CC 4B 85
408.59
43 CC 40 83
408.504
3F 6B 85 1F
0.92
00 00 00 00
0
40 2E 14 7B
2.72
43 20 00 00
160
00 00 00 00
0
44 02 00 00
520
44 3E 00 00
760
00 00 00 00
0
00 00 00 00
0
42 F0 00 00
120
42 F0 00 00
120
43 48 00 00
200
42 A0 00 00
80
44 20 00 00
640
44 3E 00 00
760
3F 46 24 DD
0.774
3F 17 CE D9
0.593
3F 55 3F 7D
0.833
3F 7C 28 F6
0.985
42 48 8F 4E
50.139946
44 14 26 66
592.6
42 F6 00 00
123
43 A9 33 33
338.4
00 00 00 00
0
43 03 00 00
131
00 00 00 00
0
00 00 00 00
0
00 00 00 00
0
00 00 00 00
0
00 00 00 00
0
40 AC CC CD
5.4
3E 4C CC CD
0.2
3F B3 33 33
1.4
00 00 00 00
0
40 66 66 66
3.6
42 72 66 66
60.6
41 46 66 66
12.4
41 F0 00 00
30
00 00 00 00
0
41 90 00 00
18
44 1B 00 00
620
42 CE CC CD
103.4
43 AE 00 00
348
00 00 00 00
0
43 28 66 66
168.4
00 00 00 00
0
00 00 00 00
0
00 00 00 00
0
00 00 00 00
0
00 00 00 00
0
41 B0 00 00
22
40 26 66 66
2.6
40 C0 00 00
6
00 00 00 00
0
41 53 33 33
13.2
42 48 CC CD
50.2
41 06 66 66
8.4
41 D0 00 00
26
00 00 00 00
0
41 76 66 66
15.4
44 21 8C CD
646.2
42 DE CC CD
111.4
43 B0 99 9A
353.2
00 00 00 00
0
43 35 33 33
181.2
00 00 00 00
0
00 00 00 00
0
00 00 00 00
0
00 00 00 00
0
00 00 00 00
0
41 E8 00 00
29
40 B9 99 9A
5.8
40 E0 00 00
7
00 00 00 00
0
41 81 99 9A
16.2
42 14 CC CD
37.2
40 8C CC CD
4.4
41 9B 33 33
19.4
00 00 00 00
0
41 50 9A 85
13.0377245
00 02 8B 76
166774
00 00 00 00
0
00 00 42 2F
16943
00 00 59 8A
22922
235.793235.891236.077408.33408.59408.5040.9202.72160052076000120120200806407600.7740.5930.8330.98550.139946592.6123338.40131000005.40.21.403.660.612.430018620103.43480168.400000222.66013.250.28.426015.4646.2111.4353.20181.200000295.87016.237.24.419.4013.0377245420171123164215166.774016.94322.922insert into tbl_power_info_v2(P_A_DIANYA,P_B_DIANYA,P_C_DIANYA,P_UAB_XIANDIANYA,P_UBC_XIANDIANYA,P_UCA_XIANDIANYA,P_A_DIANLIU,P_B_DIANLIU,P_C_DIANLIU,P_A_YGGL,P_B_YGGL,P_C_YGGL,P_HXYGGL,P_A_WGGL,P_B_WGGL,P_C_WGGL,P_HXWGGL,P_A_SZGL,P_B_SZGL,P_C_SZGL,P_HXSZGL,P_A_GLYS,P_B_GLYS,P_C_GLYS,P_HXGLYS,P_DWPL,P_BY_KwhZ,P_BY_KwhJ,P_BY_KwhF,P_BY_KwhP,P_BY_KwhG,P_BY_HKwhZ,P_BY_HKwhJ,P_BY_HKwhF,P_BY_HKwhP,P_BY_HKwhG, P_BY_KvarhZ,P_BY_KvarhJ,P_BY_KvarhF,P_BY_KvarhP,P_BY_KvarhG, P_BY_HKvarhZ,P_BY_HKvarhJ,P_BY_HKvarhF,P_BY_HKvarhP,P_BY_HKvarhG, P_SY_KwhZ,P_SY_KwhJ,P_SY_KwhF,P_SY_KwhP,P_SY_KwhG, P_SY_HKwhZ,P_SY_HKwhJ,P_SY_HKwhF,P_SY_HKwhP,P_SY_HKwhG, P_SY_KvarhZ,P_SY_KvarhJ,P_SY_KvarhF,P_SY_KvarhP,P_SY_KvarhG, P_SY_HKvarhZ,P_SY_HKvarhJ,P_SY_HKvarhF,P_SY_HKvarhP,P_SY_HKvarhG, P_SSY_KwhZ,P_SSY_KwhJ,P_SSY_KwhF,P_SSY_KwhP,P_SSY_KwhG, P_SSY_HKwhZ,P_SSY_HKwhJ,P_SSY_HKwhF,P_SSY_HKwhP,P_SSY_HKwhG, P_SSY_KvarhZ,P_SSY_KvarhJ,P_SSY_KvarhF,P_SSY_KvarhP,P_SSY_KvarhG, P_SSY_HKvarhZ,P_SSY_HKvarhJ,P_SSY_HKvarhF,P_SSY_HKvarhP,P_SSY_HKvarhG,P_CODE,P_TIME,P_ZXYGDN,P_FXYGDN,P_ZXWGDN,P_FXWGDN)values(235.793,235.891,236.077,408.33,408.59,408.504,0.92,0,2.72,160,0,520,760,0,0,120,120,200,80,640,760,0.774,0.593,0.833,0.985,50.139946,592.6,123,338.4,0,131,0,0,0,0,0,5.4,0.2,1.4,0,3.6,60.6,12.4,30,0,18,620,103.4,348,0,168.4,0,0,0,0,0,22,2.6,6,0,13.2,50.2,8.4,26,0,15.4,646.2,111.4,353.2,0,181.2,0,0,0,0,0,29,5.8,7,0,16.2,37.2,4.4,19.4,0,13.0377245,4,20171123164215,166.774,0,16.943,22.922)
写入成功读取完毕一个
write:05 03 00 38 00 34 C4 54
05 03 68
543 6C 17 4C 43 6C 33 33 43 6C 49 79 43 CC 77 F0 43 CC 8E 14 43 CC 77 F0 40 A3 D7 0A 41 4A E1 48 41 20 A3 D7 44 34 00 00 45 2F 00 00 45 0E 80 00 45 B5 40 00 43 20 00 00 43 70 00 00 43 48 00 00 44 16 00 00 44 96 00 00 45 3B 80 00 45 13 80 00 45 B6 80 00 3F 1C AC 08 3F 6D 91 68 3F 76 87 2B 3F 7E B8 52 42 48 A8 A7
write:05 03 07 CF 00 78 75 27
05 03 F0
544 9D 8C CD 43 95 E6 66 44 2F 4C CD 00 00 00 00 43 81 99 9A 00 00 00 00 00 00 00 00 00 00 00 00 00 00 00 00 00 00 00 00 00 00 00 00 00 00 00 00 00 00 00 00 00 00 00 00 00 00 00 00 43 42 33 33 42 28 CC CD 42 BC CC CD 00 00 00 00 42 65 99 9A 44 C1 06 66 43 AF 99 9A 44 5A 00 00 00 00 00 00 43 A0 66 66 00 00 00 00 00 00 00 00 00 00 00 00 00 00 00 00 00 00 00 00 3F CC CC CD 3F 19 99 9A 3F 4C CC CD 00 00 00 00 00 00 00 00 43 6F 99 9A 42 50 00 00 42 E7 33 33 00 00 00 00 42 8F 99 9A 44 D5 93 33 43 A4 B3 33 44 7E 19 9A 00 00 00 00 43 B5 33 33 00 00 00 00 00 00 00 00 00 00 00 00 00 00 00 00 00 00 00 00 42 A8 66 66 41 9B 33 33 42 69 99 9A 00 00 00 00 40 CC CC CD 43 26 33 33 41 FE 66 66 42 9E CC CD 00 00 00 00 42 5B BC 5F
write:05 03 01 0F 00 08 74 77
05 03 10
500 08 74 7F 00 00 00 00 00 00 D9 A8 00 00 9A F8
43 6C 17 4C
236.091
43 6C 33 33
236.2
43 6C 49 79
236.287
43 CC 77 F0
408.937
43 CC 8E 14
409.11
43 CC 77 F0
408.937
40 A3 D7 0A
5.12
41 4A E1 48
12.68
41 20 A3 D7
10.04
44 34 00 00
720
45 2F 00 00
2800
45 0E 80 00
2280
45 B5 40 00
5800
43 20 00 00
160
43 70 00 00
240
43 48 00 00
200
44 16 00 00
600
44 96 00 00
1200
45 3B 80 00
3000
45 13 80 00
2360
45 B6 80 00
5840
3F 1C AC 08
0.612
3F 6D 91 68
0.928
3F 76 87 2B
0.963
3F 7E B8 52
0.995
42 48 A8 A7
50.1647
44 9D 8C CD
1260.4
43 95 E6 66
299.8
44 2F 4C CD
701.2
00 00 00 00
0
43 81 99 9A
259.2
00 00 00 00
0
00 00 00 00
0
00 00 00 00
0
00 00 00 00
0
00 00 00 00
0
00 00 00 00
0
00 00 00 00
0
00 00 00 00
0
00 00 00 00
0
00 00 00 00
0
43 42 33 33
194.2
42 28 CC CD
42.2
42 BC CC CD
94.4
00 00 00 00
0
42 65 99 9A
57.4
44 C1 06 66
1544.2
43 AF 99 9A
351.2
44 5A 00 00
872
00 00 00 00
0
43 A0 66 66
320.8
00 00 00 00
0
00 00 00 00
0
00 00 00 00
0
00 00 00 00
0
00 00 00 00
0
3F CC CC CD
1.6
3F 19 99 9A
0.6
3F 4C CC CD
0.8
00 00 00 00
0
00 00 00 00
0
43 6F 99 9A
239.6
42 50 00 00
52
42 E7 33 33
115.6
00 00 00 00
0
42 8F 99 9A
71.8
44 D5 93 33
1708.6
43 A4 B3 33
329.4
44 7E 19 9A
1016.4
00 00 00 00
0
43 B5 33 33
362.4
00 00 00 00
0
00 00 00 00
0
00 00 00 00
0
00 00 00 00
0
00 00 00 00
0
42 A8 66 66
84.2
41 9B 33 33
19.4
42 69 99 9A
58.4
00 00 00 00
0
40 CC CC CD
6.4
43 26 33 33
166.2
41 FE 66 66
31.8
42 9E CC CD
79.4
00 00 00 00
0
42 5B BC 5F
54.933956
00 08 74 7F
554111
00 00 00 00
0
00 00 D9 A8
55720
00 00 9A F8
39672
236.091236.2236.287408.937409.11408.9375.1212.6810.0472028002280580016024020060012003000236058400.6120.9280.9630.99550.16471260.4299.8701.20259.20000000000194.242.294.4057.41544.2351.28720320.8000001.60.60.800239.652115.6071.81708.6329.41016.40362.40000084.219.458.406.4166.231.879.4054.933956520171123164335554.111055.7239.672insert into tbl_power_info_v2(P_A_DIANYA,P_B_DIANYA,P_C_DIANYA,P_UAB_XIANDIANYA,P_UBC_XIANDIANYA,P_UCA_XIANDIANYA,P_A_DIANLIU,P_B_DIANLIU,P_C_DIANLIU,P_A_YGGL,P_B_YGGL,P_C_YGGL,P_HXYGGL,P_A_WGGL,P_B_WGGL,P_C_WGGL,P_HXWGGL,P_A_SZGL,P_B_SZGL,P_C_SZGL,P_HXSZGL,P_A_GLYS,P_B_GLYS,P_C_GLYS,P_HXGLYS,P_DWPL,P_BY_KwhZ,P_BY_KwhJ,P_BY_KwhF,P_BY_KwhP,P_BY_KwhG,P_BY_HKwhZ,P_BY_HKwhJ,P_BY_HKwhF,P_BY_HKwhP,P_BY_HKwhG, P_BY_KvarhZ,P_BY_KvarhJ,P_BY_KvarhF,P_BY_KvarhP,P_BY_KvarhG, P_BY_HKvarhZ,P_BY_HKvarhJ,P_BY_HKvarhF,P_BY_HKvarhP,P_BY_HKvarhG, P_SY_KwhZ,P_SY_KwhJ,P_SY_KwhF,P_SY_KwhP,P_SY_KwhG, P_SY_HKwhZ,P_SY_HKwhJ,P_SY_HKwhF,P_SY_HKwhP,P_SY_HKwhG, P_SY_KvarhZ,P_SY_KvarhJ,P_SY_KvarhF,P_SY_KvarhP,P_SY_KvarhG, P_SY_HKvarhZ,P_SY_HKvarhJ,P_SY_HKvarhF,P_SY_HKvarhP,P_SY_HKvarhG, P_SSY_KwhZ,P_SSY_KwhJ,P_SSY_KwhF,P_SSY_KwhP,P_SSY_KwhG, P_SSY_HKwhZ,P_SSY_HKwhJ,P_SSY_HKwhF,P_SSY_HKwhP,P_SSY_HKwhG, P_SSY_KvarhZ,P_SSY_KvarhJ,P_SSY_KvarhF,P_SSY_KvarhP,P_SSY_KvarhG, P_SSY_HKvarhZ,P_SSY_HKvarhJ,P_SSY_HKvarhF,P_SSY_HKvarhP,P_SSY_HKvarhG,P_CODE,P_TIME,P_ZXYGDN,P_FXYGDN,P_ZXWGDN,P_FXWGDN)values(236.091,236.2,236.287,408.937,409.11,408.937,5.12,12.68,10.04,720,2800,2280,5800,160,240,200,600,1200,3000,2360,5840,0.612,0.928,0.963,0.995,50.1647,1260.4,299.8,701.2,0,259.2,0,0,0,0,0,0,0,0,0,0,194.2,42.2,94.4,0,57.4,1544.2,351.2,872,0,320.8,0,0,0,0,0,1.6,0.6,0.8,0,0,239.6,52,115.6,0,71.8,1708.6,329.4,1016.4,0,362.4,0,0,0,0,0,84.2,19.4,58.4,0,6.4,166.2,31.8,79.4,0,54.933956,5,20171123164335,554.111,0,55.72,39.672)
写入成功读取完毕一个
write:06 03 00 38 00 34 C4 67
06 03 68
643 6C 74 BC 43 6C 88 F6 43 6C AF 9E 43 CC C5 81 43 CC DB A6 43 CC D0 A4 40 A3 D7 0A 41 4E 14 7B 40 D8 51 EC 44 82 00 00 45 3B 80 00 44 A5 00 00 45 A8 C0 00 43 48 00 00 00 00 00 00 43 20 00 00 43 A0 00 00 44 96 00 00 45 3E 00 00 44 C8 00 00 45 A8 C0 00 3F 60 41 89 3F 7B E7 6D 3F 56 45 A2 3F 7F 7C EE 42 47 73 A3
write:06 03 07 CF 00 78 75 14
06 03 F0
06 03 F0
06 03 F0
06 03 F0
06 03 F0
06 03 F0
06 03 F0
06 03 F0
write:06 03 01 0F 00 08 74 44
06 03 F0
06 03 F0
06 03 F0
06 03 F0
06 03 F0
06 03 F0
06 03 F0
write:07 03 00 38 00 34 C5 B6
06 03 F0
06 03 F0
06 03 F0
06 03 F0
06 03 F0
06 03 F0
06 03 F0
06 03 F0
write:07 03 07 CF 00 78 74 C5
06 03 F0
06 03 F0
06 03 F0
06 03 F0
06 03 F0
06 03 F0
06 03 F0
06 03 F0
write:07 03 01 0F 00 08 75 95
06 03 F0
06 03 F0
06 03 F0
06 03 F0
06 03 F0
06 03 F0
06 03 F0
write:08 03 00 38 00 34 C5 49
06 03 F0
06 03 F0
06 03 F0
06 03 F0
06 03 F0
06 03 F0
06 03 F0
06 03 F0
write:08 03 07 CF 00 78 74 3A
06 03 F0
06 03 F0
06 03 F0
06 03 F0
06 03 F0
06 03 F0
06 03 F0
06 03 F0
write:08 03 01 0F 00 08 75 6A
06 03 F0
06 03 F0
06 03 F0
06 03 F0
06 03 F0
06 03 F0
06 03 F0
write:09 03 00 38 00 34 C4 98
06 03 F0
06 03 F0
06 03 F0
06 03 F0
06 03 F0
06 03 F0
06 03 F0
06 03 F0
write:09 03 07 CF 00 78 75 EB
06 03 F0
06 03 F0
06 03 F0
06 03 F0
06 03 F0
06 03 F0
06 03 F0
06 03 F0
write:09 03 01 0F 00 08 74 BB
06 03 F0
06 03 F0
06 03 F0
06 03 F0
06 03 F0
06 03 F0
06 03 F0
06 03 F0
06 03 F0
write:01 03 00 38 00 34 C5 D0
06 03 F0
06 03 F0
06 03 F0
06 03 F0
06 03 F0
06 03 F0
06 03 F0
06 03 F0
write:01 03 07 CF 00 78 74 A3
06 03 F0
06 03 F0
06 03 F0
06 03 F0
06 03 F0
06 03 F0
06 03 F0
write:01 03 01 0F 00 08 75 F3
06 03 F0
06 03 F0
06 03 F0
06 03 F0
06 03 F0
06 03 F0
06 03 F0
06 03 F0
write:02 03 00 38 00 34 C5 E3
06 03 F0
06 03 F0
06 03 F0
06 03 F0
06 03 F0
06 03 F0
06 03 F0
06 03 F0
write:02 03 07 CF 00 78 74 90
06 03 F0
06 03 F0
06 03 F0
06 03 F0
06 03 F0
06 03 F0
06 03 F0
write:02 03 01 0F 00 08 75 C0
06 03 F0
06 03 F0
06 03 F0
06 03 F0
06 03 F0
06 03 F0
06 03 F0
06 03 F0
write:03 03 00 38 00 34 C4 32
06 03 F0
06 03 F0
06 03 F0
06 03 F0
06 03 F0
06 03 F0
06 03 F0
06 03 F0
write:03 03 07 CF 00 78 75 41
06 03 F0
06 03 F0
06 03 F0
06 03 F0
06 03 F0
06 03 F0
06 03 F0
write:03 03 01 0F 00 08 74 11
06 03 F0
06 03 F0
06 03 F0
06 03 F0
06 03 F0
06 03 F0
06 03 F0
06 03 F0
write:04 03 00 38 00 34 C5 85
06 03 F0
06 03 F0
06 03 F0
06 03 F0
06 03 F0
06 03 F0
06 03 F0
06 03 F0
write:04 03 07 CF 00 78 74 F6
06 03 F0
06 03 F0
06 03 F0
06 03 F0
06 03 F0
06 03 F0
06 03 F0
write:04 03 01 0F 00 08 75 A6
06 03 F0
06 03 F0
06 03 F0
06 03 F0
06 03 F0
06 03 F0
06 03 F0
06 03 F0
write:05 03 00 38 00 34 C4 54
06 03 F0
06 03 F0
06 03 F0
06 03 F0
06 03 F0
06 03 F0
06 03 F0
06 03 F0
write:05 03 07 CF 00 78 75 27
06 03 F0
06 03 F0
06 03 F0
06 03 F0
06 03 F0
06 03 F0
06 03 F0
write:05 03 01 0F 00 08 74 77
06 03 F0
06 03 F0
06 03 F0
06 03 F0
06 03 F0
06 03 F0
06 03 F0
06 03 F0
write:06 03 00 38 00 34 C4 67
06 03 F0
06 03 F0
06 03 F0
06 03 F0
06 03 F0
06 03 F0
06 03 F0
06 03 F0
write:06 03 07 CF 00 78 75 14
06 03 F0
06 03 F0
06 03 F0
06 03 F0
06 03 F0
06 03 F0
06 03 F0
write:06 03 01 0F 00 08 74 44
06 03 F0
06 03 F0
06 03 F0
06 03 F0
06 03 F0
06 03 F0
06 03 F0
06 03 F0
write:07 03 00 38 00 34 C5 B6
06 03 F0
06 03 F0
06 03 F0
06 03 F0
06 03 F0
06 03 F0
06 03 F0
06 03 F0
write:07 03 07 CF 00 78 74 C5
06 03 F0
06 03 F0
06 03 F0
06 03 F0
06 03 F0
06 03 F0
06 03 F0
write:07 03 01 0F 00 08 75 95
06 03 F0
06 03 F0
06 03 F0
06 03 F0
06 03 F0
06 03 F0
06 03 F0
06 03 F0
write:08 03 00 38 00 34 C5 49
06 03 F0
06 03 F0
06 03 F0
06 03 F0
06 03 F0
06 03 F0
06 03 F0
06 03 F0
write:08 03 07 CF 00 78 74 3A
06 03 F0
06 03 F0
06 03 F0
06 03 F0
06 03 F0
06 03 F0
06 03 F0
write:08 03 01 0F 00 08 75 6A
06 03 F0
06 03 F0
06 03 F0
06 03 F0
06 03 F0
06 03 F0
06 03 F0
06 03 F0
write:09 03 00 38 00 34 C4 98
06 03 F0
06 03 F0
06 03 F0
06 03 F0
06 03 F0
06 03 F0
06 03 F0
06 03 F0
write:09 03 07 CF 00 78 75 EB
06 03 F0
06 03 F0
06 03 F0
06 03 F0
06 03 F0
06 03 F0
06 03 F0
write:09 03 01 0F 00 08 74 BB
06 03 F0
06 03 F0
06 03 F0
06 03 F0
06 03 F0
06 03 F0
06 03 F0
06 03 F0
06 03 F0
06 03 F0
write:01 03 00 38 00 34 C5 D0
06 03 F0
06 03 F0
06 03 F0
06 03 F0
06 03 F0
06 03 F0
06 03 F0
write:01 03 07 CF 00 78 74 A3
06 03 F0
06 03 F0
06 03 F0
06 03 F0
06 03 F0
06 03 F0
06 03 F0
06 03 F0
write:01 03 01 0F 00 08 75 F3
06 03 F0
06 03 F0
06 03 F0
06 03 F0
06 03 F0
06 03 F0
06 03 F0
06 03 F0
write:02 03 00 38 00 34 C5 E3
06 03 F0
06 03 F0
06 03 F0
06 03 F0
06 03 F0
06 03 F0
06 03 F0
write:02 03 07 CF 00 78 74 90
06 03 F0
06 03 F0
06 03 F0
06 03 F0
06 03 F0
06 03 F0
06 03 F0
06 03 F0
write:02 03 01 0F 00 08 75 C0
06 03 F0
06 03 F0
06 03 F0
06 03 F0
06 03 F0
06 03 F0
06 03 F0
06 03 F0
write:03 03 00 38 00 34 C4 32
06 03 F0
06 03 F0
06 03 F0
06 03 F0
06 03 F0
06 03 F0
06 03 F0
write:03 03 07 CF 00 78 75 41
06 03 F0
06 03 F0
06 03 F0
06 03 F0
06 03 F0
06 03 F0
06 03 F0
06 03 F0
write:03 03 01 0F 00 08 74 11
06 03 F0
06 03 F0
06 03 F0
06 03 F0
06 03 F0
06 03 F0
06 03 F0
06 03 F0
write:04 03 00 38 00 34 C5 85
06 03 F0
06 03 F0
06 03 F0
06 03 F0
06 03 F0
06 03 F0
06 03 F0
write:04 03 07 CF 00 78 74 F6
06 03 F0
06 03 F0
06 03 F0
06 03 F0
06 03 F0
06 03 F0
06 03 F0
06 03 F0
write:04 03 01 0F 00 08 75 A6
06 03 F0
06 03 F0
06 03 F0
06 03 F0
06 03 F0
06 03 F0
06 03 F0
06 03 F0
write:05 03 00 38 00 34 C4 54
06 03 F0
06 03 F0
06 03 F0
06 03 F0
06 03 F0
06 03 F0
06 03 F0
write:05 03 07 CF 00 78 75 27
06 03 F0
06 03 F0
06 03 F0
06 03 F0
06 03 F0
06 03 F0
06 03 F0
06 03 F0
write:05 03 01 0F 00 08 74 77
06 03 F0
06 03 F0
06 03 F0
06 03 F0
06 03 F0
06 03 F0
06 03 F0
06 03 F0
write:06 03 00 38 00 34 C4 67
06 03 F0
06 03 F0
06 03 F0
06 03 F0
06 03 F0
06 03 F0
06 03 F0
write:06 03 07 CF 00 78 75 14
06 03 F0
06 03 F0
06 03 F0
06 03 F0
06 03 F0
06 03 F0
