Listening on :6005
received messag ?->? 
 124.160.218.116:25896 172.16.246.153:6005
write:01 03 00 38 00 34 C5 D0
34 30 36
heart:34 30 36 36 32 33 30 31 30 31 30 35 30 32
01 03 68
143 6D FF 3B 43 6E 46 E9 43 6E 9B E7 43 CE 28 31 43 CE 75 E3 43 CE 54 9C 00 00 00 00 3F B8 51 EC 00 00 00 00 43 20 00 00 43 70 00 00 00 00 00 00 43 C8 00 00 00 00 00 00 00 00 00 00 00 00 00 00 43 70 00 00 43 70 00 00 43 A0 00 00 00 00 00 00 43 F0 00 00 3F 04 DD 2F 3F 2D 4F 00 00 00 00 00 00 00 00 00 00 00 00 00
DF 00 00
heart:DF 00 00 00 00 3F 58 51 EC 42 48 39 5E
write:01 03 07 CF 00 78 74 A3
01 03 F0
143 DD 00 00 42 16 66 66 43 8B 66 66 00 00 00 00 42 FA 66 66 00 00 00 00 00 00 00 00 00 00 00 00 00 00 00 00 00 00 00 00 3E CC CC CD 00 00 00 00 3E CC CC CD 00 00 00 00 00 00 00 00 43 0D 33 33 41 96 66 66 42 8E 66 66 00 00 00 00 42 49 99 9A 44 0E 99 9A 42 56 66 66 43 B2 00 00 00 00 00 00 43 20 00 00 00 00 00 00 00 00 00 00 00 00 00 00 00 00 00 00 00 00 00 00 3F CC CC CD 00 00 00 00 3F CC CC CD 00 00 00 00 00 00 00 00 43 33 33 33 41 C0 00 00 42 B7 33 33 00 00 00 00 42 7C CC CD 44 42 66 66 42 AF 33 33 43 F7 66 66 00 00 00 00 43 42 CC CD 00 00 00 00 00 00 00 00 00 00 00 00 00 00 00 00 00 00 00 00 42 21 99 9A 3F CC CC CD 41 F3 33 33 00 00 00 00 41 00 00 00 43 36 CC CD 41 DC CC CD 42 BE 66 66 00 00 00 00 42 6E 83 A2
write:01 03 01 0F 00 08 75 F3
01 03 10
100 01 9C 16 00 00 00 00 00 00 8A CA 00 00 75 27
43 6D FF 3B
237.997
43 6E 46 E9
238.277
43 6E 9B E7
238.609
43 CE 28 31
412.314
43 CE 75 E3
412.921
43 CE 54 9C
412.661
00 00 00 00
0
3F B8 51 EC
1.44
00 00 00 00
0
43 20 00 00
160
43 70 00 00
240
00 00 00 00
0
43 C8 00 00
400
00 00 00 00
0
00 00 00 00
0
00 00 00 00
0
43 70 00 00
240
43 70 00 00
240
43 A0 00 00
320
00 00 00 00
0
43 F0 00 00
480
3F 04 DD 2F
0.519
3F 2D 4F 00
0.6769867
00 00 00 00
0
00 00 00 00
0
00 00 00 00
0
43 DD 00 00
442
42 16 66 66
37.6
43 8B 66 66
278.8
00 00 00 00
0
42 FA 66 66
125.2
00 00 00 00
0
00 00 00 00
0
00 00 00 00
0
00 00 00 00
0
00 00 00 00
0
3E CC CC CD
0.4
00 00 00 00
0
3E CC CC CD
0.4
00 00 00 00
0
00 00 00 00
0
43 0D 33 33
141.2
41 96 66 66
18.8
42 8E 66 66
71.2
00 00 00 00
0
42 49 99 9A
50.4
44 0E 99 9A
570.4
42 56 66 66
53.6
43 B2 00 00
356
00 00 00 00
0
43 20 00 00
160
00 00 00 00
0
00 00 00 00
0
00 00 00 00
0
00 00 00 00
0
00 00 00 00
0
3F CC CC CD
1.6
00 00 00 00
0
3F CC CC CD
1.6
00 00 00 00
0
00 00 00 00
0
43 33 33 33
179.2
41 C0 00 00
24
42 B7 33 33
91.6
00 00 00 00
0
42 7C CC CD
63.2
44 42 66 66
777.6
42 AF 33 33
87.6
43 F7 66 66
494.8
00 00 00 00
0
43 42 CC CD
194.8
00 00 00 00
0
00 00 00 00
0
00 00 00 00
0
00 00 00 00
0
00 00 00 00
0
42 21 99 9A
40.4
3F CC CC CD
1.6
41 F3 33 33
30.4
00 00 00 00
0
41 00 00 00
8
43 36 CC CD
182.8
41 DC CC CD
27.6
42 BE 66 66
95.2
00 00 00 00
0
42 6E 83 A2
59.628548
00 01 9C 16
105494
00 00 00 00
0
00 00 8A CA
35530
00 00 75 27
29991
237.997238.277238.609412.314412.921412.66101.440160240040000024024032004800.5190.676986700044237.6278.80125.2000000.400.400141.218.871.2050.4570.453.63560160000001.601.600179.22491.6063.2777.687.6494.80194.80000040.41.630.408182.827.695.2059.628548120171123005532105.494035.5329.991insert into tbl_power_info_v2(P_A_DIANYA,P_B_DIANYA,P_C_DIANYA,P_UAB_XIANDIANYA,P_UBC_XIANDIANYA,P_UCA_XIANDIANYA,P_A_DIANLIU,P_B_DIANLIU,P_C_DIANLIU,P_A_YGGL,P_B_YGGL,P_C_YGGL,P_HXYGGL,P_A_WGGL,P_B_WGGL,P_C_WGGL,P_HXWGGL,P_A_SZGL,P_B_SZGL,P_C_SZGL,P_HXSZGL,P_A_GLYS,P_B_GLYS,P_C_GLYS,P_HXGLYS,P_DWPL,P_BY_KwhZ,P_BY_KwhJ,P_BY_KwhF,P_BY_KwhP,P_BY_KwhG,P_BY_HKwhZ,P_BY_HKwhJ,P_BY_HKwhF,P_BY_HKwhP,P_BY_HKwhG, P_BY_KvarhZ,P_BY_KvarhJ,P_BY_KvarhF,P_BY_KvarhP,P_BY_KvarhG, P_BY_HKvarhZ,P_BY_HKvarhJ,P_BY_HKvarhF,P_BY_HKvarhP,P_BY_HKvarhG, P_SY_KwhZ,P_SY_KwhJ,P_SY_KwhF,P_SY_KwhP,P_SY_KwhG, P_SY_HKwhZ,P_SY_HKwhJ,P_SY_HKwhF,P_SY_HKwhP,P_SY_HKwhG, P_SY_KvarhZ,P_SY_KvarhJ,P_SY_KvarhF,P_SY_KvarhP,P_SY_KvarhG, P_SY_HKvarhZ,P_SY_HKvarhJ,P_SY_HKvarhF,P_SY_HKvarhP,P_SY_HKvarhG, P_SSY_KwhZ,P_SSY_KwhJ,P_SSY_KwhF,P_SSY_KwhP,P_SSY_KwhG, P_SSY_HKwhZ,P_SSY_HKwhJ,P_SSY_HKwhF,P_SSY_HKwhP,P_SSY_HKwhG, P_SSY_KvarhZ,P_SSY_KvarhJ,P_SSY_KvarhF,P_SSY_KvarhP,P_SSY_KvarhG, P_SSY_HKvarhZ,P_SSY_HKvarhJ,P_SSY_HKvarhF,P_SSY_HKvarhP,P_SSY_HKvarhG,P_CODE,P_TIME,P_ZXYGDN,P_FXYGDN,P_ZXWGDN,P_FXWGDN)values(237.997,238.277,238.609,412.314,412.921,412.661,0,1.44,0,160,240,0,400,0,0,0,240,240,320,0,480,0.519,0.6769867,0,0,0,442,37.6,278.8,0,125.2,0,0,0,0,0,0.4,0,0.4,0,0,141.2,18.8,71.2,0,50.4,570.4,53.6,356,0,160,0,0,0,0,0,1.6,0,1.6,0,0,179.2,24,91.6,0,63.2,777.6,87.6,494.8,0,194.8,0,0,0,0,0,40.4,1.6,30.4,0,8,182.8,27.6,95.2,0,59.628548,1,20171123005532,105.494,0,35.53,29.991)
写入成功读取完毕一个
write:02 03 00 38 00 34 C5 E3
02 03 68
243 6D B6 46 43 6E 09 37 43 6E 57 CF 43 CD FB E7 43 CE 3E 56 43 CE 1D 2F 40 4C CC CD 3F AE 14 7B 00 00 00 00 44 34 00 00 43 70 00 00 43 20 00 00 44 96 00 00 00 00 00 00 43 20 00 00 00 00 00 00 00 00 00 00 44 34 00 00 43 A0 00 00 43 70 00 00 44 96 00 00 3F 7F 7C EE 3F 4C 08 31 3F 66 A7 F0 3F 7F 3B 64 42 48 FE 1E
write:02 03 07 CF 00 78 74 90
02 03 F0
244 7B 4C CD 42 DD 99 9A 44 14 00 00 00 00 00 00 43 97 33 33 00 00 00 00 00 00 00 00 00 00 00 00 00 00 00 00 00 00 00 00 41 D9 99 9A 40 B3 33 33 41 46 66 66 00 00 00 00 41 0C CC CD 42 29 99 9A 3F CC CC CD 41 F6 66 66 00 00 00 00 41 13 33 33 44 8E D9 9A 43 18 CC CD 44 1F E6 66 00 00 00 00 43 AF 00 00 00 00 00 00 00 00 00 00 00 00 00 00 00 00 00 00 00 00 00 00 42 21 99 9A 41 20 00 00 41 A9 99 9A 00 00 00 00 00 00 00 00 00 00 00 00 00 00 00 00 00 00 00 00 00 00 00 00 00 00 00 00 00 00 00 00 00 00 00 00 00 00 00 00 00 00 00 00 00 00 00 00 00 00 00 00 00 00 00 00 00 00 00 00 00 00 00 00 00 00 00 00 00 00 00 00 00 00 00 00 00 00 00 00 00 00 00 00 00 00 00 00 00 00 00 00 00 00 00 00 00 00 00 00 00 00 00 00 00 00 00 00
00 41 0C
heart:00 41 0C CC CD 42 30 00 00 40 4C CC CD 41 F3 33 33 00 00 00 00 41 19 99 9A 45 2F 66 66 43 E3 99 9A 44 DC 33 33 00 00 00 00 44 13 4C CD 00 00 00 00 00 00 00 00 00 00 00 00 00 00 00 00 00 00 00 00 44 77 E6 66 43 2E CC CD 44 24 B3 33 00 00 00 00 43 1D 99 9A 42 13 33 33 40 00 00 00 41 D9 99 9A 00 00 00 00 40 E6 60 89
write:02 03 01 0F 00 08 75 C0
02 03 10
200 03 3D 8D 00 00 00 05 00 01 2F D1 00 00 AA 0E
43 6D B6 46
237.712
43 6E 09 37
238.036
43 6E 57 CF
238.343
43 CD FB E7
411.968
43 CE 3E 56
412.487
43 CE 1D 2F
412.228
40 4C CC CD
3.2
3F AE 14 7B
1.36
00 00 00 00
0
44 34 00 00
720
43 70 00 00
240
43 20 00 00
160
44 96 00 00
1200
00 00 00 00
0
43 20 00 00
160
00 00 00 00
0
00 00 00 00
0
44 34 00 00
720
43 A0 00 00
320
43 70 00 00
240
44 96 00 00
1200
3F 7F 7C EE
0.998
3F 4C 08 31
0.797
3F 66 A7 F0
0.901
3F 7F 3B 64
0.997
42 48 FE 1E
50.24816
44 7B 4C CD
1005.2
42 DD 99 9A
110.8
44 14 00 00
592
00 00 00 00
0
43 97 33 33
302.4
00 00 00 00
0
00 00 00 00
0
00 00 00 00
0
00 00 00 00
0
00 00 00 00
0
41 D9 99 9A
27.2
40 B3 33 33
5.6
41 46 66 66
12.4
00 00 00 00
0
41 0C CC CD
8.8
42 29 99 9A
42.4
3F CC CC CD
1.6
41 F6 66 66
30.8
00 00 00 00
0
41 13 33 33
9.2
44 8E D9 9A
1142.8
43 18 CC CD
152.8
44 1F E6 66
639.6
00 00 00 00
0
43 AF 00 00
350
00 00 00 00
0
00 00 00 00
0
00 00 00 00
0
00 00 00 00
0
00 00 00 00
0
42 21 99 9A
40.4
41 20 00 00
10
41 A9 99 9A
21.2
00 00 00 00
0
00 00 00 00
0
00 00 00 00
0
00 00 00 00
0
00 00 00 00
0
00 00 00 00
0
00 00 00 00
0
00 00 00 00
0
00 00 00 00
0
00 00 00 00
0
00 00 00 00
0
00 00 00 00
0
00 00 00 00
0
00 00 00 00
0
00 00 00 00
0
00 00 00 00
0
00 00 00 00
0
00 00 00 00
0
00 00 00 00
0
00 00 00 00
0
00 00 00 00
0
00 00 00 00
0
00 00 00 00
0
00 00 00 00
0
00 00 00 00
0
00 00 00 00
0
00 00 00 00
0
00 03 3D 8D
212365
00 00 00 05
5
00 01 2F D1
77777
00 00 AA 0E
43534
237.712238.036238.343411.968412.487412.2283.21.360720240160120001600072032024012000.9980.7970.9010.99750.248161005.2110.85920302.40000027.25.612.408.842.41.630.809.21142.8152.8639.603500000040.41021.2000000000000000000000000000220171123005627212.3650.00577.77743.534insert into tbl_power_info_v2(P_A_DIANYA,P_B_DIANYA,P_C_DIANYA,P_UAB_XIANDIANYA,P_UBC_XIANDIANYA,P_UCA_XIANDIANYA,P_A_DIANLIU,P_B_DIANLIU,P_C_DIANLIU,P_A_YGGL,P_B_YGGL,P_C_YGGL,P_HXYGGL,P_A_WGGL,P_B_WGGL,P_C_WGGL,P_HXWGGL,P_A_SZGL,P_B_SZGL,P_C_SZGL,P_HXSZGL,P_A_GLYS,P_B_GLYS,P_C_GLYS,P_HXGLYS,P_DWPL,P_BY_KwhZ,P_BY_KwhJ,P_BY_KwhF,P_BY_KwhP,P_BY_KwhG,P_BY_HKwhZ,P_BY_HKwhJ,P_BY_HKwhF,P_BY_HKwhP,P_BY_HKwhG, P_BY_KvarhZ,P_BY_KvarhJ,P_BY_KvarhF,P_BY_KvarhP,P_BY_KvarhG, P_BY_HKvarhZ,P_BY_HKvarhJ,P_BY_HKvarhF,P_BY_HKvarhP,P_BY_HKvarhG, P_SY_KwhZ,P_SY_KwhJ,P_SY_KwhF,P_SY_KwhP,P_SY_KwhG, P_SY_HKwhZ,P_SY_HKwhJ,P_SY_HKwhF,P_SY_HKwhP,P_SY_HKwhG, P_SY_KvarhZ,P_SY_KvarhJ,P_SY_KvarhF,P_SY_KvarhP,P_SY_KvarhG, P_SY_HKvarhZ,P_SY_HKvarhJ,P_SY_HKvarhF,P_SY_HKvarhP,P_SY_HKvarhG, P_SSY_KwhZ,P_SSY_KwhJ,P_SSY_KwhF,P_SSY_KwhP,P_SSY_KwhG, P_SSY_HKwhZ,P_SSY_HKwhJ,P_SSY_HKwhF,P_SSY_HKwhP,P_SSY_HKwhG, P_SSY_KvarhZ,P_SSY_KvarhJ,P_SSY_KvarhF,P_SSY_KvarhP,P_SSY_KvarhG, P_SSY_HKvarhZ,P_SSY_HKvarhJ,P_SSY_HKvarhF,P_SSY_HKvarhP,P_SSY_HKvarhG,P_CODE,P_TIME,P_ZXYGDN,P_FXYGDN,P_ZXWGDN,P_FXWGDN)values(237.712,238.036,238.343,411.968,412.487,412.228,3.2,1.36,0,720,240,160,1200,0,160,0,0,720,320,240,1200,0.998,0.797,0.901,0.997,50.24816,1005.2,110.8,592,0,302.4,0,0,0,0,0,27.2,5.6,12.4,0,8.8,42.4,1.6,30.8,0,9.2,1142.8,152.8,639.6,0,350,0,0,0,0,0,40.4,10,21.2,0,0,0,0,0,0,0,0,0,0,0,0,0,0,0,0,0,0,0,0,0,0,0,0,0,0,0,2,20171123005627,212.365,0.005,77.777,43.534)
写入成功读取完毕一个
write:03 03 00 38 00 34 C4 32
03 03 68
343 6E 44 9C 43 6E 88 B4 43 6E CC 08 43 CE 6A C1 43 CE A2 2D 43 CE 80 E5 00 00 00 00 3F C7 AE 14 00 00 00 00 00 00 00 00 43 B4 00 00 00 00 00 00 43 C3 00 00 00 00 00 00 00 00 00 00 00 00 00 00 00 00 00 00 42 70 00 00 43 B4 00 00 00 00 00 00 43 C3 00 00 3F 2D 0E 56 3F 71 26 E9 00 00 00 00 3F 7F 3B 64 42 48 3C 4C
write:03 03 07 CF 00 78 75 41
03 03 F0
343 A5 99 9A 42 84 99 9A 43 37 99 9A 00 00 00 00 42 A2 4C CD 00 00 00 00 00 00 00 00 00 00 00 00 00 00 00 00 00 00 00 00 42 8C 66 66 41 5F 33 33 42 35 33 33 00 00 00 00 00 00 00 00 00 00 00 00 00 00 00 00 00 00 00 00 00 00 00 00 00 00 00 00 00 00 00 00 00 00 00 00 00 00 00 00 00 00 00 00 00 00 00 00 00 00 00 00 00 00 00 00 00 00 00 00 00 00 00 00 00 00 00 00 00 00 00 00 00 00 00 00 00 00 00 00 00 00 00 00 00 00 00 00 00 00 00 00 00 00 00 00 00 00 00 00 00 00 00 00 00 00 00 00 00 00 00 00 00 00 00 00 00 00 00 00 00 00 00 00 00 00 00 00 00 00 00 00 00 00 00 00 00 00 00 00 00 00 00 00 00 00 00 00 00 00 00 00 00 00 00 00 00 00 00 00 00 00 00 00 00 00 00 00 00 00 00 00 00 00 00 00 00 00 00 00 00 00 00 00 00 00 00 00
41 2C CC
heart:41 2C CC CD 40 66 66 66 3F 40 00 00 40 23 33 33 00 00 00 00 3E 19 99 9A 43 EF 2C CD 42 F0 00 00 43 7D 33 33 00 00 00 00 42 D1 B3 33 00 00 00 00 00 00 00 00 00 00 00 00 00 00 00 00 00 00 00 00 42 9C E6 66 40 E6 66 66 42 5B 99 9A 00 00 00 00 41 80 66 66 41 68 CC CD 40 A8 00 00 40 F9 99 9A 00 00 00 00 3F AC CC CD 43 D8 60 00 42 B5 80 00 43 81 86 66 00 00 00 00 42 A5 99 9A 00 00 00 00 00 00 00 00 00 00 00 00 00 00 00 00 00 00 00 00 42 F7 CC CD 41 90 00 00 42 A5 99 9A 00 00 00 00 41 B8 CC CD 40 EB 33 33 40 06 66 66 40 53 33 33 00 00 00 00 3F E6 6C 0F
write:03 03 01 0F 00 08 74 11
03 03 10
300 00 BD 0E 00 00 00 00 00 00 25 8A 00 00 2C 02
43 6E 44 9C
238.268
43 6E 88 B4
238.534
43 6E CC 08
238.797
43 CE 6A C1
412.834
43 CE A2 2D
413.267
43 CE 80 E5
413.007
00 00 00 00
0
3F C7 AE 14
1.56
00 00 00 00
0
00 00 00 00
0
43 B4 00 00
360
00 00 00 00
0
43 C3 00 00
390
00 00 00 00
0
00 00 00 00
0
00 00 00 00
0
00 00 00 00
0
42 70 00 00
60
43 B4 00 00
360
00 00 00 00
0
43 C3 00 00
390
3F 2D 0E 56
0.676
3F 71 26 E9
0.942
00 00 00 00
0
3F 7F 3B 64
0.997
42 48 3C 4C
50.058884
43 A5 99 9A
331.2
42 84 99 9A
66.3
43 37 99 9A
183.6
00 00 00 00
0
42 A2 4C CD
81.15
00 00 00 00
0
00 00 00 00
0
00 00 00 00
0
00 00 00 00
0
00 00 00 00
0
42 8C 66 66
70.2
41 5F 33 33
13.95
42 35 33 33
45.3
00 00 00 00
0
00 00 00 00
0
00 00 00 00
0
00 00 00 00
0
00 00 00 00
0
00 00 00 00
0
00 00 00 00
0
00 00 00 00
0
00 00 00 00
0
00 00 00 00
0
00 00 00 00
0
00 00 00 00
0
00 00 00 00
0
00 00 00 00
0
00 00 00 00
0
00 00 00 00
0
00 00 00 00
0
00 00 00 00
0
00 00 00 00
0
00 00 00 00
0
00 00 00 00
0
00 00 00 00
0
00 00 00 00
0
00 00 00 00
0
00 00 00 00
0
00 00 00 00
0
00 00 00 00
0
00 00 00 00
0
00 00 00 00
0
00 00 00 00
0
00 00 00 00
0
00 00 00 00
0
00 00 00 00
0
00 00 00 00
0
00 00 00 00
0
00 00 00 00
0
00 00 00 00
0
00 00 00 00
0
00 00 00 00
0
00 00 00 00
0
00 00 00 00
0
00 00 00 00
0
00 00 00 00
0
00 00 00 00
0
00 00 00 00
0
00 00 00 00
0
00 00 00 00
0
00 00 BD 0E
48398
00 00 00 00
0
00 00 25 8A
9610
00 00 2C 02
11266
238.268238.534238.797412.834413.267413.00701.5600360039000006036003900.6760.94200.99750.058884331.266.3183.6081.150000070.213.9545.30000000000000000000000000000000000000000000000032017112300572648.39809.6111.266insert into tbl_power_info_v2(P_A_DIANYA,P_B_DIANYA,P_C_DIANYA,P_UAB_XIANDIANYA,P_UBC_XIANDIANYA,P_UCA_XIANDIANYA,P_A_DIANLIU,P_B_DIANLIU,P_C_DIANLIU,P_A_YGGL,P_B_YGGL,P_C_YGGL,P_HXYGGL,P_A_WGGL,P_B_WGGL,P_C_WGGL,P_HXWGGL,P_A_SZGL,P_B_SZGL,P_C_SZGL,P_HXSZGL,P_A_GLYS,P_B_GLYS,P_C_GLYS,P_HXGLYS,P_DWPL,P_BY_KwhZ,P_BY_KwhJ,P_BY_KwhF,P_BY_KwhP,P_BY_KwhG,P_BY_HKwhZ,P_BY_HKwhJ,P_BY_HKwhF,P_BY_HKwhP,P_BY_HKwhG, P_BY_KvarhZ,P_BY_KvarhJ,P_BY_KvarhF,P_BY_KvarhP,P_BY_KvarhG, P_BY_HKvarhZ,P_BY_HKvarhJ,P_BY_HKvarhF,P_BY_HKvarhP,P_BY_HKvarhG, P_SY_KwhZ,P_SY_KwhJ,P_SY_KwhF,P_SY_KwhP,P_SY_KwhG, P_SY_HKwhZ,P_SY_HKwhJ,P_SY_HKwhF,P_SY_HKwhP,P_SY_HKwhG, P_SY_KvarhZ,P_SY_KvarhJ,P_SY_KvarhF,P_SY_KvarhP,P_SY_KvarhG, P_SY_HKvarhZ,P_SY_HKvarhJ,P_SY_HKvarhF,P_SY_HKvarhP,P_SY_HKvarhG, P_SSY_KwhZ,P_SSY_KwhJ,P_SSY_KwhF,P_SSY_KwhP,P_SSY_KwhG, P_SSY_HKwhZ,P_SSY_HKwhJ,P_SSY_HKwhF,P_SSY_HKwhP,P_SSY_HKwhG, P_SSY_KvarhZ,P_SSY_KvarhJ,P_SSY_KvarhF,P_SSY_KvarhP,P_SSY_KvarhG, P_SSY_HKvarhZ,P_SSY_HKvarhJ,P_SSY_HKvarhF,P_SSY_HKvarhP,P_SSY_HKvarhG,P_CODE,P_TIME,P_ZXYGDN,P_FXYGDN,P_ZXWGDN,P_FXWGDN)values(238.268,238.534,238.797,412.834,413.267,413.007,0,1.56,0,0,360,0,390,0,0,0,0,60,360,0,390,0.676,0.942,0,0.997,50.058884,331.2,66.3,183.6,0,81.15,0,0,0,0,0,70.2,13.95,45.3,0,0,0,0,0,0,0,0,0,0,0,0,0,0,0,0,0,0,0,0,0,0,0,0,0,0,0,0,0,0,0,0,0,0,0,0,0,0,0,0,0,0,0,0,0,0,0,3,20171123005726,48.398,0,9.61,11.266)
写入成功读取完毕一个
write:04 03 00 38 00 34 C5 85
04 03 68
443 6D 9B 23 43 6D D8 D5 43 6E 38 D5 43 CD DA A0 43 CE 1D 2F 43 CE 07 0A 3F 4C CC CD 00 00 00 00 3F AE 14 7B 42 A0 00 00 00 00 00 00 43 8C 00 00 43 C8 00 00 00 00 00 00 00 00 00 00 42 F0 00 00 43 20 00 00 43 20 00 00 42 A0 00 00 43 A0 00 00 43 DC 00 00 3F 05 60 42 3F 0F DF 3B 3F 57 0A 3D 3F 72 2D 0E 42 47 1B BC
write:04 03 07 CF 00 78 74 F6
04 03 F0
444 11 33 33 42 F6 00 00 43 A5 80 00 00 00 00 00 42 FD 33 33 00 00 00 00 00 00 00 00 00 00 00 00 00 00 00 00 00 00 00 00 40 AC CC CD 3E 4C CC CD 3F B3 33 33 00 00 00 00 40 66 66 66 42 6D 99 9A 41 46 66 66 41 EB 33 33 00 00 00 00 41 8B 33 33 44 1B 00 00 42 CE CC CD 43 AE 00 00 00 00 00 00 43 28 66 66 00 00 00 00 00 00 00 00 00 00 00 00 00 00 00 00 00 00 00 00 41 B0 00 00 40 26 66 66 40 C0 00 00 00 00 00 00 41 53 33 33 42 48 CC CD 41 06 66 66 41 D0 00 00 00 00 00 00 41 76 66 66 44 21 8C CD 42 DE CC CD 43 B0 99 9A 00 00 00 00 43 35 33 33 00 00 00 00 00 00 00 00 00 00 00 00 00 00 00 00 00 00 00 00 41 E8 00 00 40 B9 99 9A 40 E0 00 00 00 00 00 00 41 81 99 9A 42 14 CC CD 40 8C CC CD 41 9B 33 33 00 00 00 00 41 50 37 C1
write:04 03 01 0F 00 08 75 A6
04 03 10
400 02 8A 51 00 00 00 00 00 00 42 2D 00 00 B4 3D
43 6D 9B 23
237.606
43 6D D8 D5
237.847
43 6E 38 D5
238.222
43 CD DA A0
411.708
43 CE 1D 2F
412.228
43 CE 07 0A
412.055
3F 4C CC CD
0.8
00 00 00 00
0
3F AE 14 7B
1.36
42 A0 00 00
80
00 00 00 00
0
43 8C 00 00
280
43 C8 00 00
400
00 00 00 00
0
00 00 00 00
0
42 F0 00 00
120
43 20 00 00
160
43 20 00 00
160
42 A0 00 00
80
43 A0 00 00
320
43 DC 00 00
440
3F 05 60 42
0.521
3F 0F DF 3B
0.562
3F 57 0A 3D
0.84
3F 72 2D 0E
0.946
42 47 1B BC
49.777084
44 11 33 33
580.8
42 F6 00 00
123
43 A5 80 00
331
00 00 00 00
0
42 FD 33 33
126.6
00 00 00 00
0
00 00 00 00
0
00 00 00 00
0
00 00 00 00
0
00 00 00 00
0
40 AC CC CD
5.4
3E 4C CC CD
0.2
3F B3 33 33
1.4
00 00 00 00
0
40 66 66 66
3.6
42 6D 99 9A
59.4
41 46 66 66
12.4
41 EB 33 33
29.4
00 00 00 00
0
41 8B 33 33
17.4
44 1B 00 00
620
42 CE CC CD
103.4
43 AE 00 00
348
00 00 00 00
0
43 28 66 66
168.4
00 00 00 00
0
00 00 00 00
0
00 00 00 00
0
00 00 00 00
0
00 00 00 00
0
41 B0 00 00
22
40 26 66 66
2.6
40 C0 00 00
6
00 00 00 00
0
41 53 33 33
13.2
42 48 CC CD
50.2
41 06 66 66
8.4
41 D0 00 00
26
00 00 00 00
0
41 76 66 66
15.4
44 21 8C CD
646.2
42 DE CC CD
111.4
43 B0 99 9A
353.2
00 00 00 00
0
43 35 33 33
181.2
00 00 00 00
0
00 00 00 00
0
00 00 00 00
0
00 00 00 00
0
00 00 00 00
0
41 E8 00 00
29
40 B9 99 9A
5.8
40 E0 00 00
7
00 00 00 00
0
41 81 99 9A
16.2
42 14 CC CD
37.2
40 8C CC CD
4.4
41 9B 33 33
19.4
00 00 00 00
0
41 50 37 C1
13.013612
00 02 8A 51
166481
00 00 00 00
0
00 00 42 2D
16941
00 00 B4 3D
46141
237.606237.847238.222411.708412.228412.0550.801.3680028040000120160160803204400.5210.5620.840.94649.777084580.81233310126.6000005.40.21.403.659.412.429.4017.4620103.43480168.400000222.66013.250.28.426015.4646.2111.4353.20181.200000295.87016.237.24.419.4013.013612420171123005824166.481016.94146.141insert into tbl_power_info_v2(P_A_DIANYA,P_B_DIANYA,P_C_DIANYA,P_UAB_XIANDIANYA,P_UBC_XIANDIANYA,P_UCA_XIANDIANYA,P_A_DIANLIU,P_B_DIANLIU,P_C_DIANLIU,P_A_YGGL,P_B_YGGL,P_C_YGGL,P_HXYGGL,P_A_WGGL,P_B_WGGL,P_C_WGGL,P_HXWGGL,P_A_SZGL,P_B_SZGL,P_C_SZGL,P_HXSZGL,P_A_GLYS,P_B_GLYS,P_C_GLYS,P_HXGLYS,P_DWPL,P_BY_KwhZ,P_BY_KwhJ,P_BY_KwhF,P_BY_KwhP,P_BY_KwhG,P_BY_HKwhZ,P_BY_HKwhJ,P_BY_HKwhF,P_BY_HKwhP,P_BY_HKwhG, P_BY_KvarhZ,P_BY_KvarhJ,P_BY_KvarhF,P_BY_KvarhP,P_BY_KvarhG, P_BY_HKvarhZ,P_BY_HKvarhJ,P_BY_HKvarhF,P_BY_HKvarhP,P_BY_HKvarhG, P_SY_KwhZ,P_SY_KwhJ,P_SY_KwhF,P_SY_KwhP,P_SY_KwhG, P_SY_HKwhZ,P_SY_HKwhJ,P_SY_HKwhF,P_SY_HKwhP,P_SY_HKwhG, P_SY_KvarhZ,P_SY_KvarhJ,P_SY_KvarhF,P_SY_KvarhP,P_SY_KvarhG, P_SY_HKvarhZ,P_SY_HKvarhJ,P_SY_HKvarhF,P_SY_HKvarhP,P_SY_HKvarhG, P_SSY_KwhZ,P_SSY_KwhJ,P_SSY_KwhF,P_SSY_KwhP,P_SSY_KwhG, P_SSY_HKwhZ,P_SSY_HKwhJ,P_SSY_HKwhF,P_SSY_HKwhP,P_SSY_HKwhG, P_SSY_KvarhZ,P_SSY_KvarhJ,P_SSY_KvarhF,P_SSY_KvarhP,P_SSY_KvarhG, P_SSY_HKvarhZ,P_SSY_HKvarhJ,P_SSY_HKvarhF,P_SSY_HKvarhP,P_SSY_HKvarhG,P_CODE,P_TIME,P_ZXYGDN,P_FXYGDN,P_ZXWGDN,P_FXWGDN)values(237.606,237.847,238.222,411.708,412.228,412.055,0.8,0,1.36,80,0,280,400,0,0,120,160,160,80,320,440,0.521,0.562,0.84,0.946,49.777084,580.8,123,331,0,126.6,0,0,0,0,0,5.4,0.2,1.4,0,3.6,59.4,12.4,29.4,0,17.4,620,103.4,348,0,168.4,0,0,0,0,0,22,2.6,6,0,13.2,50.2,8.4,26,0,15.4,646.2,111.4,353.2,0,181.2,0,0,0,0,0,29,5.8,7,0,16.2,37.2,4.4,19.4,0,13.013612,4,20171123005824,166.481,0,16.941,46.141)
写入成功读取完毕一个
write:05 03 00 38 00 34 C4 54
05 03 68
543 6E 3D 71 43 6E 65 60 43 6E E7 F0 43 CE 54 9C 43 CE A2 2D 43 CE 97 0A 40 2E 14 7B 3F 4C CC CD 3F 9E B8 52 43 F0 00 00 42 F0 00 00 43 48 00 00 44 48 00 00 42 F0 00 00 00 00 00 00 42 F0 00 00 43 8C 00 00 44 20 00 00 43 48 00 00 43 A0 00 00 44 52 00 00 3F 43 53 F8 3F 0F 9D B2 3F 26 E9 79 3F 70 A3 D7 42 48 F3 5D
write:05 03 07 CF 00 78 75 27
05 03 F0
544 9A 99 9A 43 95 E6 66 44 2B 59 9A 00 00 00 00 43 7B 66 66 00 00 00 00 00 00 00 00 00 00 00 00 00 00 00 00 00 00 00 00 00 00 00 00 00 00 00 00 00 00 00 00 00 00 00 00 00 00 00 00 43 3D 99 9A 42 28 CC CD 42 B8 00 00 00 00 00 00 42 5C CC CD 44 C1 06 66 43 AF 99 9A 44 5A 00 00 00 00 00 00 43 A0 66 66 00 00 00 00 00 00 00 00 00 00 00 00 00 00 00 00 00 00 00 00 3F CC CC CD 3F 19 99 9A 3F 4C CC CD 00 00 00 00 00 00 00 00 43 6F 99 9A 42 50 00 00 42 E7 33 33 00 00 00 00 42 8F 99 9A 44 D5 93 33 43 A4 B3 33 44 7E 19 9A 00 00 00 00 43 B5 33 33 00 00 00 00 00 00 00 00 00 00 00 00 00 00 00 00 00 00 00 00 42 A8 66 66 41 9B 33 33 42 69 99 9A 00 00 00 00 40 CC CC CD 43 26 33 33 41 FE 66 66 42 9E CC CD 00 00 00 00 42 5B 22 DF
write:05 03 01 0F 00 08 74 77
05 03 10
500 08 72 2C 00 00 00 00 00 00 D9 A8 00 00 9C B5
43 6E 3D 71
238.24
43 6E 65 60
238.396
43 6E E7 F0
238.906
43 CE 54 9C
412.661
43 CE A2 2D
413.267
43 CE 97 0A
413.18
40 2E 14 7B
2.72
3F 4C CC CD
0.8
3F 9E B8 52
1.24
43 F0 00 00
480
42 F0 00 00
120
43 48 00 00
200
44 48 00 00
800
42 F0 00 00
120
00 00 00 00
0
42 F0 00 00
120
43 8C 00 00
280
44 20 00 00
640
43 48 00 00
200
43 A0 00 00
320
44 52 00 00
840
3F 43 53 F8
0.763
3F 0F 9D B2
0.561
3F 26 E9 79
0.652
3F 70 A3 D7
0.94
42 48 F3 5D
50.23766
44 9A 99 9A
1236.8
43 95 E6 66
299.8
44 2B 59 9A
685.4
00 00 00 00
0
43 7B 66 66
251.4
00 00 00 00
0
00 00 00 00
0
00 00 00 00
0
00 00 00 00
0
00 00 00 00
0
00 00 00 00
0
00 00 00 00
0
00 00 00 00
0
00 00 00 00
0
00 00 00 00
0
43 3D 99 9A
189.6
42 28 CC CD
42.2
42 B8 00 00
92
00 00 00 00
0
42 5C CC CD
55.2
44 C1 06 66
1544.2
43 AF 99 9A
351.2
44 5A 00 00
872
00 00 00 00
0
43 A0 66 66
320.8
00 00 00 00
0
00 00 00 00
0
00 00 00 00
0
00 00 00 00
0
00 00 00 00
0
3F CC CC CD
1.6
3F 19 99 9A
0.6
3F 4C CC CD
0.8
00 00 00 00
0
00 00 00 00
0
43 6F 99 9A
239.6
42 50 00 00
52
42 E7 33 33
115.6
00 00 00 00
0
42 8F 99 9A
71.8
44 D5 93 33
1708.6
43 A4 B3 33
329.4
44 7E 19 9A
1016.4
00 00 00 00
0
43 B5 33 33
362.4
00 00 00 00
0
00 00 00 00
0
00 00 00 00
0
00 00 00 00
0
00 00 00 00
0
42 A8 66 66
84.2
41 9B 33 33
19.4
42 69 99 9A
58.4
00 00 00 00
0
40 CC CC CD
6.4
43 26 33 33
166.2
41 FE 66 66
31.8
42 9E CC CD
79.4
00 00 00 00
0
42 5B 22 DF
54.784054
00 08 72 2C
553516
00 00 00 00
0
00 00 D9 A8
55720
00 00 9C B5
40117
238.24238.396238.906412.661413.267413.182.720.81.2448012020080012001202806402003208400.7630.5610.6520.9450.237661236.8299.8685.40251.40000000000189.642.292055.21544.2351.28720320.8000001.60.60.800239.652115.6071.81708.6329.41016.40362.40000084.219.458.406.4166.231.879.4054.784054520171123005932553.516055.7240.117insert into tbl_power_info_v2(P_A_DIANYA,P_B_DIANYA,P_C_DIANYA,P_UAB_XIANDIANYA,P_UBC_XIANDIANYA,P_UCA_XIANDIANYA,P_A_DIANLIU,P_B_DIANLIU,P_C_DIANLIU,P_A_YGGL,P_B_YGGL,P_C_YGGL,P_HXYGGL,P_A_WGGL,P_B_WGGL,P_C_WGGL,P_HXWGGL,P_A_SZGL,P_B_SZGL,P_C_SZGL,P_HXSZGL,P_A_GLYS,P_B_GLYS,P_C_GLYS,P_HXGLYS,P_DWPL,P_BY_KwhZ,P_BY_KwhJ,P_BY_KwhF,P_BY_KwhP,P_BY_KwhG,P_BY_HKwhZ,P_BY_HKwhJ,P_BY_HKwhF,P_BY_HKwhP,P_BY_HKwhG, P_BY_KvarhZ,P_BY_KvarhJ,P_BY_KvarhF,P_BY_KvarhP,P_BY_KvarhG, P_BY_HKvarhZ,P_BY_HKvarhJ,P_BY_HKvarhF,P_BY_HKvarhP,P_BY_HKvarhG, P_SY_KwhZ,P_SY_KwhJ,P_SY_KwhF,P_SY_KwhP,P_SY_KwhG, P_SY_HKwhZ,P_SY_HKwhJ,P_SY_HKwhF,P_SY_HKwhP,P_SY_HKwhG, P_SY_KvarhZ,P_SY_KvarhJ,P_SY_KvarhF,P_SY_KvarhP,P_SY_KvarhG, P_SY_HKvarhZ,P_SY_HKvarhJ,P_SY_HKvarhF,P_SY_HKvarhP,P_SY_HKvarhG, P_SSY_KwhZ,P_SSY_KwhJ,P_SSY_KwhF,P_SSY_KwhP,P_SSY_KwhG, P_SSY_HKwhZ,P_SSY_HKwhJ,P_SSY_HKwhF,P_SSY_HKwhP,P_SSY_HKwhG, P_SSY_KvarhZ,P_SSY_KvarhJ,P_SSY_KvarhF,P_SSY_KvarhP,P_SSY_KvarhG, P_SSY_HKvarhZ,P_SSY_HKvarhJ,P_SSY_HKvarhF,P_SSY_HKvarhP,P_SSY_HKvarhG,P_CODE,P_TIME,P_ZXYGDN,P_FXYGDN,P_ZXWGDN,P_FXWGDN)values(238.24,238.396,238.906,412.661,413.267,413.18,2.72,0.8,1.24,480,120,200,800,120,0,120,280,640,200,320,840,0.763,0.561,0.652,0.94,50.23766,1236.8,299.8,685.4,0,251.4,0,0,0,0,0,0,0,0,0,0,189.6,42.2,92,0,55.2,1544.2,351.2,872,0,320.8,0,0,0,0,0,1.6,0.6,0.8,0,0,239.6,52,115.6,0,71.8,1708.6,329.4,1016.4,0,362.4,0,0,0,0,0,84.2,19.4,58.4,0,6.4,166.2,31.8,79.4,0,54.784054,5,20171123005932,553.516,0,55.72,40.117)
写入成功读取完毕一个
write:06 03 00 38 00 34 C4 67
06 03 68
643 6E 3A A0 43 6E 41 CB 43 6E BC 29 43 CE 49 79 43 CE 80 E5 43 CE 80 E5 40 80 00 00 3F 57 0A 3D 3F BD 70 A4 44 16 00 00 42 F0 00 00 43 70 00 00 44 66 00 00 43 70 00 00 00 00 00 00 00 00 00 00 43 70 00 00 44 70 00 00 43 48 00 00 43 B4 00 00 44 70 00 00 3F 1C ED 91 3F 11 68 73 3F 27 EF 9E 3F 78 93 75 42 48 DC 8A
write:06 03 07 CF 00 78 75 14
write:06 03 01 0F 00 08 74 44
06 03 F0
644 B4 A6 66 43 8E 99 9A 44 55 B3 33 00 00 00 00 43 98 99 9A 00 00 00 00 00 00 00 00 00 00 00 00 00 00 00 00 00 00 00 00 3F B3 33 33 00 00 00 00 3F 80 00 00 00 00 00 00 3E 4C CC CD 43 07 00 00 41 D1 99 9A 42 7E 66 66 00 00 00 00 42 34 00 00 44 F8 A6 66 43 BF 33 33 44 93 80 00 00 00 00 00 43 D5 4C CD 00 00 00 00 00 00 00 00 00 00 00 00 00 00 00 00 00 00 00 00 40 C6 66 66 3E CC CC CD 40 A0 00 00 00 00 00 00 3F 19 99 9A 43 47 99 9A 42 16 66 66 42 BB 99 9A 00 00 00 00 42 88 00 00 45 15 00 00 43 EA 66 66 44 AC 53 33 00 00 00 00 44 06 0C CD 00 00 00 00 00 00 00 00 00 00 00 00 00 00 00 00 00 00 00 00 41 53 33 33 40 66 66 66 40 CC CC CD 00 00 00 00 40 40 00 00 43 38 33 33 42 10 00 00 42 A8 CC CD 00 00 00 00 42 7D 1A CD
06 03 10
600 0B 18 F3 00 00 00 00 00 00 17 8F 00 00 53 9E
43 6E 3A A0
238.229
43 6E 41 CB
238.257
43 6E BC 29
238.735
43 CE 49 79
412.574
43 CE 80 E5
413.007
43 CE 80 E5
413.007
40 80 00 00
4
3F 57 0A 3D
0.84
3F BD 70 A4
1.48
44 16 00 00
600
42 F0 00 00
120
43 70 00 00
240
44 66 00 00
920
43 70 00 00
240
00 00 00 00
0
00 00 00 00
0
43 70 00 00
240
44 70 00 00
960
43 48 00 00
200
43 B4 00 00
360
44 70 00 00
960
3F 1C ED 91
0.613
3F 11 68 73
0.568
3F 27 EF 9E
0.656
3F 78 93 75
0.971
42 48 DC 8A
50.21537
44 B4 A6 66
1445.2
43 8E 99 9A
285.2
44 55 B3 33
854.8
00 00 00 00
0
43 98 99 9A
305.2
00 00 00 00
0
00 00 00 00
0
00 00 00 00
0
00 00 00 00
0
00 00 00 00
0
3F B3 33 33
1.4
00 00 00 00
0
3F 80 00 00
1
00 00 00 00
0
3E 4C CC CD
0.2
43 07 00 00
135
41 D1 99 9A
26.2
42 7E 66 66
63.6
00 00 00 00
0
42 34 00 00
45
44 F8 A6 66
1989.2
43 BF 33 33
382.4
44 93 80 00
1180
00 00 00 00
0
43 D5 4C CD
426.6
00 00 00 00
0
00 00 00 00
0
00 00 00 00
0
00 00 00 00
0
00 00 00 00
0
40 C6 66 66
6.2
3E CC CC CD
0.4
40 A0 00 00
5
00 00 00 00
0
3F 19 99 9A
0.6
43 47 99 9A
199.6
42 16 66 66
37.6
42 BB 99 9A
93.8
00 00 00 00
0
42 88 00 00
68
45 15 00 00
2384
43 EA 66 66
468.8
44 AC 53 33
1378.6
00 00 00 00
0
44 06 0C CD
536.2
00 00 00 00
0
00 00 00 00
0
00 00 00 00
0
00 00 00 00
0
00 00 00 00
0
41 53 33 33
13.2
40 66 66 66
3.6
40 CC CC CD
6.4
00 00 00 00
0
40 40 00 00
3
43 38 33 33
184.2
42 10 00 00
36
42 A8 CC CD
84.4
00 00 00 00
0
42 7D 1A CD
63.276173
00 0B 18 F3
727283
00 00 00 00
0
00 00 17 8F
6031
00 00 53 9E
21406
238.229238.257238.735412.574413.007413.00740.841.48600120240920240002409602003609600.6130.5680.6560.97150.215371445.2285.2854.80305.2000001.40100.213526.263.60451989.2382.411800426.6000006.20.4500.6199.637.693.80682384468.81378.60536.20000013.23.66.403184.23684.4063.276173620171123010041727.28306.03121.406insert into tbl_power_info_v2(P_A_DIANYA,P_B_DIANYA,P_C_DIANYA,P_UAB_XIANDIANYA,P_UBC_XIANDIANYA,P_UCA_XIANDIANYA,P_A_DIANLIU,P_B_DIANLIU,P_C_DIANLIU,P_A_YGGL,P_B_YGGL,P_C_YGGL,P_HXYGGL,P_A_WGGL,P_B_WGGL,P_C_WGGL,P_HXWGGL,P_A_SZGL,P_B_SZGL,P_C_SZGL,P_HXSZGL,P_A_GLYS,P_B_GLYS,P_C_GLYS,P_HXGLYS,P_DWPL,P_BY_KwhZ,P_BY_KwhJ,P_BY_KwhF,P_BY_KwhP,P_BY_KwhG,P_BY_HKwhZ,P_BY_HKwhJ,P_BY_HKwhF,P_BY_HKwhP,P_BY_HKwhG, P_BY_KvarhZ,P_BY_KvarhJ,P_BY_KvarhF,P_BY_KvarhP,P_BY_KvarhG, P_BY_HKvarhZ,P_BY_HKvarhJ,P_BY_HKvarhF,P_BY_HKvarhP,P_BY_HKvarhG, P_SY_KwhZ,P_SY_KwhJ,P_SY_KwhF,P_SY_KwhP,P_SY_KwhG, P_SY_HKwhZ,P_SY_HKwhJ,P_SY_HKwhF,P_SY_HKwhP,P_SY_HKwhG, P_SY_KvarhZ,P_SY_KvarhJ,P_SY_KvarhF,P_SY_KvarhP,P_SY_KvarhG, P_SY_HKvarhZ,P_SY_HKvarhJ,P_SY_HKvarhF,P_SY_HKvarhP,P_SY_HKvarhG, P_SSY_KwhZ,P_SSY_KwhJ,P_SSY_KwhF,P_SSY_KwhP,P_SSY_KwhG, P_SSY_HKwhZ,P_SSY_HKwhJ,P_SSY_HKwhF,P_SSY_HKwhP,P_SSY_HKwhG, P_SSY_KvarhZ,P_SSY_KvarhJ,P_SSY_KvarhF,P_SSY_KvarhP,P_SSY_KvarhG, P_SSY_HKvarhZ,P_SSY_HKvarhJ,P_SSY_HKvarhF,P_SSY_HKvarhP,P_SSY_HKvarhG,P_CODE,P_TIME,P_ZXYGDN,P_FXYGDN,P_ZXWGDN,P_FXWGDN)values(238.229,238.257,238.735,412.574,413.007,413.007,4,0.84,1.48,600,120,240,920,240,0,0,240,960,200,360,960,0.613,0.568,0.656,0.971,50.21537,1445.2,285.2,854.8,0,305.2,0,0,0,0,0,1.4,0,1,0,0.2,135,26.2,63.6,0,45,1989.2,382.4,1180,0,426.6,0,0,0,0,0,6.2,0.4,5,0,0.6,199.6,37.6,93.8,0,68,2384,468.8,1378.6,0,536.2,0,0,0,0,0,13.2,3.6,6.4,0,3,184.2,36,84.4,0,63.276173,6,20171123010041,727.283,0,6.031,21.406)
写入成功读取完毕一个
write:07 03 00 38 00 34 C5 B6
write:07 03 07 CF 00 78 74 C5
write:07 03 01 0F 00 08 75 95
write:08 03 00 38 00 34 C5 49
08 03 68
843 6F 09 BA 43 6F 29 37 43 6F 8E 98 43 CF 05 E3 43 CF 3D 50 43 CF 32 4E 00 00 00 00 00 00 00 00 00 00 00 00 00 00 00 00 00 00 00 00 00 00 00 00 00 00 00 00 00 00 00 00 00 00 00 00 00 00 00 00 00 00 00 00 00 00 00 00 42 70 00 00 00 00 00 00 00 00 00 00 00 00 00 00 3F 0D 91 68 00 00 00 00 00 00 00 00 42 48 9D 42
write:08 03 07 CF 00 78 74 3A
08 03 F0
842 59 33 33 00 00 00 00 42 10 00 00 00 00 00 00 41 91 33 33 00 00 00 00 00 00 00 00 00 00 00 00 00 00 00 00 00 00 00 00 00 00 00 00 00 00 00 00 00 00 00 00 00 00 00 00 00 00 00 00 00 00 00 00 00 00 00 00 00 00 00 00 00 00 00 00 00 00 00 00 00 00 00 00 00 00 00 00 00 00 00 00 00 00 00 00 00 00 00 00 00 00 00 00 00 00 00 00 00 00 00 00 00 00 00 00 00 00 00 00 00 00 00 00 00 00 00 00 00 00 00 00 00 00 00 00 00 00 00 00 00 00 00 00 00 00 00 00 00 00 00 00 00 00 00 00 00 00 00 00 00 00 00 00 00 00 00 00 00 00 00 00 00 00 00 00 00 00 00 00 00 00 00 00 00 00 00 00 00 00 00 00 00 00 00 00 00 00 00 00 00 00 00 00 00 00 00 00 00 00 00 00 00 00 00 00 00 00 00 00 00 00 00 00 00 00 00 00 00 00 00 00 00 00 00 00 00 00 00 00
00 00 00
heart:00 00 00 00 00 00 00 00 41 23 33 33 00 00 00 00 40 C9 99 9A 00 00 00 00 40 70 00 00 42 67 00 00 00 00 00 00 42 28 00 00 00 00 00 00 41 79 99 9A 00 00 00 00 00 00 00 00 00 00 00 00 00 00 00 00 00 00 00 00 00 00 00 00 00 00 00 00 00 00 00 00 00 00 00 00 00 00 00 00 41 1E 66 66 00 00 00 00 40 DC CC CD 00 00 00 00 40 40 00 00 42 95 19 9A 00 00 00 00 42 3B CC CD 00 00 00 00 41 DB 99 9A 00 00 00 00 00 00 00 00 00 00 00 00 00 00 00 00 00 00 00 00 00 00 00 00 00 00 00 00 00 00 00 00 00 00 00 00 00 00 00 00 41 4E 66 66 00 00 00 00 41 06 66 66 00 00 00 00 40 8B 62 70
write:08 03 01 0F 00 08 75 6A
08 03 10
800 00 48 4B 00 00 00 00 00 00 00 00 00 00 AB C1
43 6F 09 BA
239.038
43 6F 29 37
239.161
43 6F 8E 98
239.557
43 CF 05 E3
414.046
43 CF 3D 50
414.479
43 CF 32 4E
414.393
00 00 00 00
0
00 00 00 00
0
00 00 00 00
0
00 00 00 00
0
00 00 00 00
0
00 00 00 00
0
00 00 00 00
0
00 00 00 00
0
00 00 00 00
0
00 00 00 00
0
00 00 00 00
0
00 00 00 00
0
42 70 00 00
60
00 00 00 00
0
00 00 00 00
0
00 00 00 00
0
3F 0D 91 68
0.553
00 00 00 00
0
00 00 00 00
0
42 48 9D 42
50.153572
42 59 33 33
54.3
00 00 00 00
0
42 10 00 00
36
00 00 00 00
0
41 91 33 33
18.15
00 00 00 00
0
00 00 00 00
0
00 00 00 00
0
00 00 00 00
0
00 00 00 00
0
00 00 00 00
0
00 00 00 00
0
00 00 00 00
0
00 00 00 00
0
00 00 00 00
0
00 00 00 00
0
00 00 00 00
0
00 00 00 00
0
00 00 00 00
0
00 00 00 00
0
00 00 00 00
0
00 00 00 00
0
00 00 00 00
0
00 00 00 00
0
00 00 00 00
0
00 00 00 00
0
00 00 00 00
0
00 00 00 00
0
00 00 00 00
0
00 00 00 00
0
00 00 00 00
0
00 00 00 00
0
00 00 00 00
0
00 00 00 00
0
00 00 00 00
0
00 00 00 00
0
00 00 00 00
0
00 00 00 00
0
00 00 00 00
0
00 00 00 00
0
00 00 00 00
0
00 00 00 00
0
00 00 00 00
0
00 00 00 00
0
00 00 00 00
0
00 00 00 00
0
00 00 00 00
0
00 00 00 00
0
00 00 00 00
0
00 00 00 00
0
00 00 00 00
0
00 00 00 00
0
00 00 00 00
0
00 00 00 00
0
00 00 00 00
0
00 00 00 00
0
00 00 00 00
0
00 00 00 00
0
00 00 00 00
0
00 00 00 00
0
00 00 48 4B
18507
00 00 00 00
0
00 00 00 00
0
00 00 AB C1
43969
239.038239.161239.557414.046414.479414.393000000000000600000.5530050.15357254.3036018.15000000000000000000000000000000000000000000000000000000082017112301022518.5070043.969insert into tbl_power_info_v2(P_A_DIANYA,P_B_DIANYA,P_C_DIANYA,P_UAB_XIANDIANYA,P_UBC_XIANDIANYA,P_UCA_XIANDIANYA,P_A_DIANLIU,P_B_DIANLIU,P_C_DIANLIU,P_A_YGGL,P_B_YGGL,P_C_YGGL,P_HXYGGL,P_A_WGGL,P_B_WGGL,P_C_WGGL,P_HXWGGL,P_A_SZGL,P_B_SZGL,P_C_SZGL,P_HXSZGL,P_A_GLYS,P_B_GLYS,P_C_GLYS,P_HXGLYS,P_DWPL,P_BY_KwhZ,P_BY_KwhJ,P_BY_KwhF,P_BY_KwhP,P_BY_KwhG,P_BY_HKwhZ,P_BY_HKwhJ,P_BY_HKwhF,P_BY_HKwhP,P_BY_HKwhG, P_BY_KvarhZ,P_BY_KvarhJ,P_BY_KvarhF,P_BY_KvarhP,P_BY_KvarhG, P_BY_HKvarhZ,P_BY_HKvarhJ,P_BY_HKvarhF,P_BY_HKvarhP,P_BY_HKvarhG, P_SY_KwhZ,P_SY_KwhJ,P_SY_KwhF,P_SY_KwhP,P_SY_KwhG, P_SY_HKwhZ,P_SY_HKwhJ,P_SY_HKwhF,P_SY_HKwhP,P_SY_HKwhG, P_SY_KvarhZ,P_SY_KvarhJ,P_SY_KvarhF,P_SY_KvarhP,P_SY_KvarhG, P_SY_HKvarhZ,P_SY_HKvarhJ,P_SY_HKvarhF,P_SY_HKvarhP,P_SY_HKvarhG, P_SSY_KwhZ,P_SSY_KwhJ,P_SSY_KwhF,P_SSY_KwhP,P_SSY_KwhG, P_SSY_HKwhZ,P_SSY_HKwhJ,P_SSY_HKwhF,P_SSY_HKwhP,P_SSY_HKwhG, P_SSY_KvarhZ,P_SSY_KvarhJ,P_SSY_KvarhF,P_SSY_KvarhP,P_SSY_KvarhG, P_SSY_HKvarhZ,P_SSY_HKvarhJ,P_SSY_HKvarhF,P_SSY_HKvarhP,P_SSY_HKvarhG,P_CODE,P_TIME,P_ZXYGDN,P_FXYGDN,P_ZXWGDN,P_FXWGDN)values(239.038,239.161,239.557,414.046,414.479,414.393,0,0,0,0,0,0,0,0,0,0,0,0,60,0,0,0,0.553,0,0,50.153572,54.3,0,36,0,18.15,0,0,0,0,0,0,0,0,0,0,0,0,0,0,0,0,0,0,0,0,0,0,0,0,0,0,0,0,0,0,0,0,0,0,0,0,0,0,0,0,0,0,0,0,0,0,0,0,0,0,0,0,0,0,0,8,20171123010225,18.507,0,0,43.969)
写入成功读取完毕一个
write:09 03 00 38 00 34 C4 98
09 03 68
943 00 00 00 00 00 00 00 00 00 00 00 00 00 00 00 00 00 00 00 00 00 00 00 00 00 00 00 00 00 00 00 00 00 00 00 00 00 00 00 00 00 00 00 00 00 00 00 00 00 00 00 00 00 00 00 00 00 00 00 00 00 00 00 00 00 00 00 00 00 00 00 00 00 00 00 00 00 00 00 00 00 00 00 00 00 00 00 00 00 00 00 00 00 00 00 00 00 00 00 00 00 00 00
6E 94 BC
heart:6E 94 BC 43 6E D6 46 43 6F 22 0C 43 CE B8 52 43 CE EF BE 43 CE D9 9A 3E E6 66 66 00 00 00 00 3F 5E B8 52 42 70 00 00 00 00 00 00 43 34 00 00 43 70 00 00 42 B4 00 00 42 70 00 00 42 B4 00 00 43 52 00 00 42 F0 00 00 42 70 00 00 43 52 00 00 43 A5 00 00 3E E5 60 42 3D 9D B2 2D 3F 5C AC 08 3F 3C 28 F6 42 47 29 B3
write:09 03 07 CF 00 78 75 EB
09 03 F0
943 0D 00 00 41 93 99 9A 42 8E 80 00 00 00 00 00 42 4C 99 9A 00 00 00 00 00 00 00 00 00 00 00 00 00 00 00 00 00 00 00 00 00 00 00 00 00 00 00 00 00 00 00 00 00 00 00 00 00 00 00 00 42 E6 66 66 41 96 00 00 42 41 33 33 00 00 00 00 42 40 00 00 43 BC 2C CD 41 E7 99 9A 43 4D CC CD 00 00 00 00 43 0D 73 33 00 00 00 00 00 00 00 00 00 00 00 00 00 00 00 00 00 00 00 00 40 A3 33 33 00 00 00 00 40 19 99 9A 00 00 00 00 40 23 33 33 43 2C 33 33 41 D6 CC CD 42 95 19 9A 00 00 00 00 42 8D 4C CD 43 CA B9 9A 42 5D 66 66 43 44 33 33 00 00 00 00 43 19 C0 00 00 00 00 00 00 00 00 00 00 00 00 00 00 00 00 00 00 00 00 00 43 18 B3 33 41 B1 99 9A 42 8B 80 00 00 00 00 00 42 72 66 66 43 0F 8C CD 41 BC 66 66 42 72 66 66 00 00 00 00 42 6D 21 F1
write:09 03 01 0F 00 08 74 BB
09 03 10
900 00 93 08 00 00 00 00 00 00 18 DA 00 00 CC 86
43 00 00 00
128
00 00 00 00
0
00 00 00 00
0
00 00 00 00
0
00 00 00 00
0
00 00 00 00
0
00 00 00 00
0
00 00 00 00
0
00 00 00 00
0
00 00 00 00
0
00 00 00 00
0
00 00 00 00
0
00 00 00 00
0
00 00 00 00
0
00 00 00 00
0
00 00 00 00
0
00 00 00 00
0
00 00 00 00
0
00 00 00 00
0
00 00 00 00
0
00 00 00 00
0
00 00 00 00
0
00 00 00 00
0
00 00 00 00
0
00 00 00 00
0
00 00 00 00
0
43 0D 00 00
141
41 93 99 9A
18.45
42 8E 80 00
71.25
00 00 00 00
0
42 4C 99 9A
51.15
00 00 00 00
0
00 00 00 00
0
00 00 00 00
0
00 00 00 00
0
00 00 00 00
0
00 00 00 00
0
00 00 00 00
0
00 00 00 00
0
00 00 00 00
0
00 00 00 00
0
42 E6 66 66
115.2
41 96 00 00
18.75
42 41 33 33
48.3
00 00 00 00
0
42 40 00 00
48
43 BC 2C CD
376.35
41 E7 99 9A
28.95
43 4D CC CD
205.8
00 00 00 00
0
43 0D 73 33
141.45
00 00 00 00
0
00 00 00 00
0
00 00 00 00
0
00 00 00 00
0
00 00 00 00
0
40 A3 33 33
5.1
00 00 00 00
0
40 19 99 9A
2.4
00 00 00 00
0
40 23 33 33
2.55
43 2C 33 33
172.2
41 D6 CC CD
26.85
42 95 19 9A
74.55
00 00 00 00
0
42 8D 4C CD
70.65
43 CA B9 9A
405.45
42 5D 66 66
55.35
43 44 33 33
196.2
00 00 00 00
0
43 19 C0 00
153.75
00 00 00 00
0
00 00 00 00
0
00 00 00 00
0
00 00 00 00
0
00 00 00 00
0
43 18 B3 33
152.7
41 B1 99 9A
22.2
42 8B 80 00
69.75
00 00 00 00
0
42 72 66 66
60.6
43 0F 8C CD
143.55
41 BC 66 66
23.55
42 72 66 66
60.6
00 00 00 00
0
42 6D 21 F1
59.283146
00 00 93 08
37640
00 00 00 00
0
00 00 18 DA
6362
00 00 CC 86
52358
128000000000000000000000000014118.4571.25051.150000000000115.218.7548.3048376.3528.95205.80141.45000005.102.402.55172.226.8574.55070.65405.4555.35196.20153.7500000152.722.269.75060.6143.5523.5560.6059.28314692017112301032537.6406.36252.358insert into tbl_power_info_v2(P_A_DIANYA,P_B_DIANYA,P_C_DIANYA,P_UAB_XIANDIANYA,P_UBC_XIANDIANYA,P_UCA_XIANDIANYA,P_A_DIANLIU,P_B_DIANLIU,P_C_DIANLIU,P_A_YGGL,P_B_YGGL,P_C_YGGL,P_HXYGGL,P_A_WGGL,P_B_WGGL,P_C_WGGL,P_HXWGGL,P_A_SZGL,P_B_SZGL,P_C_SZGL,P_HXSZGL,P_A_GLYS,P_B_GLYS,P_C_GLYS,P_HXGLYS,P_DWPL,P_BY_KwhZ,P_BY_KwhJ,P_BY_KwhF,P_BY_KwhP,P_BY_KwhG,P_BY_HKwhZ,P_BY_HKwhJ,P_BY_HKwhF,P_BY_HKwhP,P_BY_HKwhG, P_BY_KvarhZ,P_BY_KvarhJ,P_BY_KvarhF,P_BY_KvarhP,P_BY_KvarhG, P_BY_HKvarhZ,P_BY_HKvarhJ,P_BY_HKvarhF,P_BY_HKvarhP,P_BY_HKvarhG, P_SY_KwhZ,P_SY_KwhJ,P_SY_KwhF,P_SY_KwhP,P_SY_KwhG, P_SY_HKwhZ,P_SY_HKwhJ,P_SY_HKwhF,P_SY_HKwhP,P_SY_HKwhG, P_SY_KvarhZ,P_SY_KvarhJ,P_SY_KvarhF,P_SY_KvarhP,P_SY_KvarhG, P_SY_HKvarhZ,P_SY_HKvarhJ,P_SY_HKvarhF,P_SY_HKvarhP,P_SY_HKvarhG, P_SSY_KwhZ,P_SSY_KwhJ,P_SSY_KwhF,P_SSY_KwhP,P_SSY_KwhG, P_SSY_HKwhZ,P_SSY_HKwhJ,P_SSY_HKwhF,P_SSY_HKwhP,P_SSY_HKwhG, P_SSY_KvarhZ,P_SSY_KvarhJ,P_SSY_KvarhF,P_SSY_KvarhP,P_SSY_KvarhG, P_SSY_HKvarhZ,P_SSY_HKvarhJ,P_SSY_HKvarhF,P_SSY_HKvarhP,P_SSY_HKvarhG,P_CODE,P_TIME,P_ZXYGDN,P_FXYGDN,P_ZXWGDN,P_FXWGDN)values(128,0,0,0,0,0,0,0,0,0,0,0,0,0,0,0,0,0,0,0,0,0,0,0,0,0,141,18.45,71.25,0,51.15,0,0,0,0,0,0,0,0,0,0,115.2,18.75,48.3,0,48,376.35,28.95,205.8,0,141.45,0,0,0,0,0,5.1,0,2.4,0,2.55,172.2,26.85,74.55,0,70.65,405.45,55.35,196.2,0,153.75,0,0,0,0,0,152.7,22.2,69.75,0,60.6,143.55,23.55,60.6,0,59.283146,9,20171123010325,37.64,0,6.362,52.358)
写入成功读取完毕一个
write:01 03 00 38 00 34 C5 D0
01 03 68
143 6E 4F 1B 43 6E A8 73 43 6E F0 E5 43 CE 80 E5 43 CE C3 75 43 CE A2 2D 00 00 00 00 00 00 00 00 00 00 00 00 00 00 00 00 00 00 00 00 00 00 00 00 00 00 00 00 00 00 00 00 00 00 00 00 00 00 00 00 00 00 00 00 00 00 00 00 00 00 00 00 00 00 00 00 00 00 00 00 00 00 00 00 00 00 00 00 00 00 00 00 00 00 00 00 00 00 00 00
write:01 03 07 CF 00 78 74 A3
00 00 3F
heart:00 00 3F B8 51 EC 00 00 00 00 43 20 00 00 43 70 00 00 00 00 00 00 43 C8 00 00 00 00 00 00 00 00 00 00 00 00 00 00 43 70 00 00 43 70 00 00 43 A0 00 00 00 00 00 00 43 F0 00 00 3F 02 0C 4A 3F 2D 91 68 00 00 00 00 3F 5E B8 52 42 48 91 A1
01 03 F0
143 DD 00 00 42 16 66 66 43 8B 66 66 00 00 00 00 42 FA 66 66 00 00 00 00 00 00 00 00 00 00 00 00 00 00 00 00 00 00 00 00 3E CC CC CD 00 00 00 00 3E CC CC CD 00 00 00 00 00 00 00 00 43 0D 33 33 41 96 66 66 42 8E 66 66 00 00 00 00 42 4B 33 33 44 0E 99 9A 42 56 66 66 43 B2 00 00 00 00 00 00 43 20 00 00 00 00 00 00 00 00 00 00 00 00 00 00 00 00 00 00 00 00 00 00 3F CC CC CD 00 00 00 00 3F CC CC CD 00 00 00 00 00 00 00 00 43 33 33 33 41 C0 00 00 42 B7 33 33 00 00 00 00 42 7C CC CD 44 42 66 66 42 AF 33 33 43 F7 66 66 00 00 00 00 43 42 CC CD 00 00 00 00 00 00 00 00 00 00 00 00 00 00 00 00 00 00 00 00 42 21 99 9A 3F CC CC CD 41 F3 33 33 00 00 00 00 41 00 00 00 43 36 CC CD 41 DC CC CD 42 BE 66 66 00 00 00 00 00 00 00 00
00 00 00
heart:00 00 00 42 6E 05 6E
write:01 03 01 0F 00 08 75 F3
01 03 10
100 01 9C 17 00 00 00 00 00 00 8A CA 00 00 71 DB
43 6E 4F 1B
238.309
43 6E A8 73
238.658
43 6E F0 E5
238.941
43 CE 80 E5
413.007
43 CE C3 75
413.527
43 CE A2 2D
413.267
00 00 00 00
0
00 00 00 00
0
00 00 00 00
0
00 00 00 00
0
00 00 00 00
0
00 00 00 00
0
00 00 00 00
0
00 00 00 00
0
00 00 00 00
0
00 00 00 00
0
00 00 00 00
0
00 00 00 00
0
00 00 00 00
0
00 00 00 00
0
00 00 00 00
0
00 00 00 00
0
00 00 00 00
0
00 00 00 00
0
00 00 00 00
0
00 00 00 00
0
43 DD 00 00
442
42 16 66 66
37.6
43 8B 66 66
278.8
00 00 00 00
0
42 FA 66 66
125.2
00 00 00 00
0
00 00 00 00
0
00 00 00 00
0
00 00 00 00
0
00 00 00 00
0
3E CC CC CD
0.4
00 00 00 00
0
3E CC CC CD
0.4
00 00 00 00
0
00 00 00 00
0
43 0D 33 33
141.2
41 96 66 66
18.8
42 8E 66 66
71.2
00 00 00 00
0
42 4B 33 33
50.8
44 0E 99 9A
570.4
42 56 66 66
53.6
43 B2 00 00
356
00 00 00 00
0
43 20 00 00
160
00 00 00 00
0
00 00 00 00
0
00 00 00 00
0
00 00 00 00
0
00 00 00 00
0
3F CC CC CD
1.6
00 00 00 00
0
3F CC CC CD
1.6
00 00 00 00
0
00 00 00 00
0
43 33 33 33
179.2
41 C0 00 00
24
42 B7 33 33
91.6
00 00 00 00
0
42 7C CC CD
63.2
44 42 66 66
777.6
42 AF 33 33
87.6
43 F7 66 66
494.8
00 00 00 00
0
43 42 CC CD
194.8
00 00 00 00
0
00 00 00 00
0
00 00 00 00
0
00 00 00 00
0
00 00 00 00
0
42 21 99 9A
40.4
3F CC CC CD
1.6
41 F3 33 33
30.4
00 00 00 00
0
41 00 00 00
8
43 36 CC CD
182.8
41 DC CC CD
27.6
42 BE 66 66
95.2
00 00 00 00
0
00 00 00 00
0
00 01 9C 17
105495
00 00 00 00
0
00 00 8A CA
35530
00 00 71 DB
29147
238.309238.658238.941413.007413.527413.2670000000000000000000044237.6278.80125.2000000.400.400141.218.871.2050.8570.453.63560160000001.601.600179.22491.6063.2777.687.6494.80194.80000040.41.630.408182.827.695.200120171123010435105.495035.5329.147insert into tbl_power_info_v2(P_A_DIANYA,P_B_DIANYA,P_C_DIANYA,P_UAB_XIANDIANYA,P_UBC_XIANDIANYA,P_UCA_XIANDIANYA,P_A_DIANLIU,P_B_DIANLIU,P_C_DIANLIU,P_A_YGGL,P_B_YGGL,P_C_YGGL,P_HXYGGL,P_A_WGGL,P_B_WGGL,P_C_WGGL,P_HXWGGL,P_A_SZGL,P_B_SZGL,P_C_SZGL,P_HXSZGL,P_A_GLYS,P_B_GLYS,P_C_GLYS,P_HXGLYS,P_DWPL,P_BY_KwhZ,P_BY_KwhJ,P_BY_KwhF,P_BY_KwhP,P_BY_KwhG,P_BY_HKwhZ,P_BY_HKwhJ,P_BY_HKwhF,P_BY_HKwhP,P_BY_HKwhG, P_BY_KvarhZ,P_BY_KvarhJ,P_BY_KvarhF,P_BY_KvarhP,P_BY_KvarhG, P_BY_HKvarhZ,P_BY_HKvarhJ,P_BY_HKvarhF,P_BY_HKvarhP,P_BY_HKvarhG, P_SY_KwhZ,P_SY_KwhJ,P_SY_KwhF,P_SY_KwhP,P_SY_KwhG, P_SY_HKwhZ,P_SY_HKwhJ,P_SY_HKwhF,P_SY_HKwhP,P_SY_HKwhG, P_SY_KvarhZ,P_SY_KvarhJ,P_SY_KvarhF,P_SY_KvarhP,P_SY_KvarhG, P_SY_HKvarhZ,P_SY_HKvarhJ,P_SY_HKvarhF,P_SY_HKvarhP,P_SY_HKvarhG, P_SSY_KwhZ,P_SSY_KwhJ,P_SSY_KwhF,P_SSY_KwhP,P_SSY_KwhG, P_SSY_HKwhZ,P_SSY_HKwhJ,P_SSY_HKwhF,P_SSY_HKwhP,P_SSY_HKwhG, P_SSY_KvarhZ,P_SSY_KvarhJ,P_SSY_KvarhF,P_SSY_KvarhP,P_SSY_KvarhG, P_SSY_HKvarhZ,P_SSY_HKvarhJ,P_SSY_HKvarhF,P_SSY_HKvarhP,P_SSY_HKvarhG,P_CODE,P_TIME,P_ZXYGDN,P_FXYGDN,P_ZXWGDN,P_FXWGDN)values(238.309,238.658,238.941,413.007,413.527,413.267,0,0,0,0,0,0,0,0,0,0,0,0,0,0,0,0,0,0,0,0,442,37.6,278.8,0,125.2,0,0,0,0,0,0.4,0,0.4,0,0,141.2,18.8,71.2,0,50.8,570.4,53.6,356,0,160,0,0,0,0,0,1.6,0,1.6,0,0,179.2,24,91.6,0,63.2,777.6,87.6,494.8,0,194.8,0,0,0,0,0,40.4,1.6,30.4,0,8,182.8,27.6,95.2,0,0,1,20171123010435,105.495,0,35.53,29.147)
写入成功读取完毕一个
write:02 03 00 38 00 34 C5 E3
02 03 68
243 6E 33 75 43 6E 93 B6 43 6E EC 8B 43 CE 6A C1 43 CE B8 52 43 CE 97 0A 3F 99 99 9A 3F B8 51 EC 00 00 00 00 43 A0 00 00 43 70 00 00 43 20 00 00 44 34 00 00 00 00 00 00 43 20 00 00 00 00 00 00 00 00 00 00 43 A0 00 00 43 A0 00 00 43 70 00 00 44 34 00 00 3F 7D 70 A4 3F 4C CC CD 3F 63 12 6F 3F 7D 70 A4 42 48 7A 28
write:02 03 07 CF 00 78 74 90
02 03 F0
244 7B 66 66 42 DD 99 9A 44 14 00 00 00 00 00 00 43 97 33 33 00 00 00 00 00 00 00 00 00 00 00 00 00 00 00 00 00 00 00 00 41 D9 99 9A 40 B3 33 33 41 46 66 66 00 00 00 00 41 0C CC CD 42 29 99 9A 3F CC CC CD 41 F6 66 66 00 00 00 00 41 13 33 33 44 8E D9 9A 43 18 CC CD 44 1F E6 66 00 00 00 00 43 AF 00 00 00 00 00 00 00 00 00 00 00 00 00 00 00 00 00 00 00 00 00 00 42 21 99 9A 41 20 00 00 41 A9 99 9A 00 00 00 00 41 0C CC CD 42 30 00 00 40 4C CC CD 41 F3 33 33 00 00 00 00 41 19 99 9A 45 2F 66 66 43 E3 99 9A 44 DC 33 33 00 00 00 00 44 13 4C CD 00 00 00 00 00 00 00 00 00 00 00 00 00 00 00 00 00 00 00 00 44 77 E6 66 43 2E CC CD 44 24 B3 33 00 00 00 00 43 1D 99 9A 42 13 33 33 40 00 00 00 41 D9 99 9A 00 00 00 00 40 E6 07 ED
write:02 03 01 0F 00 08 75 C0
02 03 10
200 03 3D 8E 00 00 00 05 00 01 2F D1 00 00 A5 4A
43 6E 33 75
238.201
43 6E 93 B6
238.577
43 6E EC 8B
238.924
43 CE 6A C1
412.834
43 CE B8 52
413.44
43 CE 97 0A
413.18
3F 99 99 9A
1.2
3F B8 51 EC
1.44
00 00 00 00
0
43 A0 00 00
320
43 70 00 00
240
43 20 00 00
160
44 34 00 00
720
00 00 00 00
0
43 20 00 00
160
00 00 00 00
0
00 00 00 00
0
43 A0 00 00
320
43 A0 00 00
320
43 70 00 00
240
44 34 00 00
720
3F 7D 70 A4
0.99
3F 4C CC CD
0.8
3F 63 12 6F
0.887
3F 7D 70 A4
0.99
42 48 7A 28
50.119293
44 7B 66 66
1005.6
42 DD 99 9A
110.8
44 14 00 00
592
00 00 00 00
0
43 97 33 33
302.4
00 00 00 00
0
00 00 00 00
0
00 00 00 00
0
00 00 00 00
0
00 00 00 00
0
41 D9 99 9A
27.2
40 B3 33 33
5.6
41 46 66 66
12.4
00 00 00 00
0
41 0C CC CD
8.8
42 29 99 9A
42.4
3F CC CC CD
1.6
41 F6 66 66
30.8
00 00 00 00
0
41 13 33 33
9.2
44 8E D9 9A
1142.8
43 18 CC CD
152.8
44 1F E6 66
639.6
00 00 00 00
0
43 AF 00 00
350
00 00 00 00
0
00 00 00 00
0
00 00 00 00
0
00 00 00 00
0
00 00 00 00
0
42 21 99 9A
40.4
41 20 00 00
10
41 A9 99 9A
21.2
00 00 00 00
0
41 0C CC CD
8.8
42 30 00 00
44
40 4C CC CD
3.2
41 F3 33 33
30.4
00 00 00 00
0
41 19 99 9A
9.6
45 2F 66 66
2806.4
43 E3 99 9A
455.2
44 DC 33 33
1761.6
00 00 00 00
0
44 13 4C CD
589.2
00 00 00 00
0
00 00 00 00
0
00 00 00 00
0
00 00 00 00
0
00 00 00 00
0
44 77 E6 66
991.6
43 2E CC CD
174.8
44 24 B3 33
658.8
00 00 00 00
0
43 1D 99 9A
157.6
42 13 33 33
36.8
40 00 00 00
2
41 D9 99 9A
27.2
00 00 00 00
0
40 E6 07 ED
7.1884675
00 03 3D 8E
212366
00 00 00 05
5
00 01 2F D1
77777
00 00 A5 4A
42314
238.201238.577238.924412.834413.44413.181.21.4403202401607200160003203202407200.990.80.8870.9950.1192931005.6110.85920302.40000027.25.612.408.842.41.630.809.21142.8152.8639.603500000040.41021.208.8443.230.409.62806.4455.21761.60589.200000991.6174.8658.80157.636.8227.207.1884675220171123010529212.3660.00577.77742.314insert into tbl_power_info_v2(P_A_DIANYA,P_B_DIANYA,P_C_DIANYA,P_UAB_XIANDIANYA,P_UBC_XIANDIANYA,P_UCA_XIANDIANYA,P_A_DIANLIU,P_B_DIANLIU,P_C_DIANLIU,P_A_YGGL,P_B_YGGL,P_C_YGGL,P_HXYGGL,P_A_WGGL,P_B_WGGL,P_C_WGGL,P_HXWGGL,P_A_SZGL,P_B_SZGL,P_C_SZGL,P_HXSZGL,P_A_GLYS,P_B_GLYS,P_C_GLYS,P_HXGLYS,P_DWPL,P_BY_KwhZ,P_BY_KwhJ,P_BY_KwhF,P_BY_KwhP,P_BY_KwhG,P_BY_HKwhZ,P_BY_HKwhJ,P_BY_HKwhF,P_BY_HKwhP,P_BY_HKwhG, P_BY_KvarhZ,P_BY_KvarhJ,P_BY_KvarhF,P_BY_KvarhP,P_BY_KvarhG, P_BY_HKvarhZ,P_BY_HKvarhJ,P_BY_HKvarhF,P_BY_HKvarhP,P_BY_HKvarhG, P_SY_KwhZ,P_SY_KwhJ,P_SY_KwhF,P_SY_KwhP,P_SY_KwhG, P_SY_HKwhZ,P_SY_HKwhJ,P_SY_HKwhF,P_SY_HKwhP,P_SY_HKwhG, P_SY_KvarhZ,P_SY_KvarhJ,P_SY_KvarhF,P_SY_KvarhP,P_SY_KvarhG, P_SY_HKvarhZ,P_SY_HKvarhJ,P_SY_HKvarhF,P_SY_HKvarhP,P_SY_HKvarhG, P_SSY_KwhZ,P_SSY_KwhJ,P_SSY_KwhF,P_SSY_KwhP,P_SSY_KwhG, P_SSY_HKwhZ,P_SSY_HKwhJ,P_SSY_HKwhF,P_SSY_HKwhP,P_SSY_HKwhG, P_SSY_KvarhZ,P_SSY_KvarhJ,P_SSY_KvarhF,P_SSY_KvarhP,P_SSY_KvarhG, P_SSY_HKvarhZ,P_SSY_HKvarhJ,P_SSY_HKvarhF,P_SSY_HKvarhP,P_SSY_HKvarhG,P_CODE,P_TIME,P_ZXYGDN,P_FXYGDN,P_ZXWGDN,P_FXWGDN)values(238.201,238.577,238.924,412.834,413.44,413.18,1.2,1.44,0,320,240,160,720,0,160,0,0,320,320,240,720,0.99,0.8,0.887,0.99,50.119293,1005.6,110.8,592,0,302.4,0,0,0,0,0,27.2,5.6,12.4,0,8.8,42.4,1.6,30.8,0,9.2,1142.8,152.8,639.6,0,350,0,0,0,0,0,40.4,10,21.2,0,8.8,44,3.2,30.4,0,9.6,2806.4,455.2,1761.6,0,589.2,0,0,0,0,0,991.6,174.8,658.8,0,157.6,36.8,2,27.2,0,7.1884675,2,20171123010529,212.366,0.005,77.777,42.314)
写入成功读取完毕一个
write:03 03 00 38 00 34 C4 32
03 03 68
343 6E 96 04 43 6E C4 DD 43 6F 5F BE 43 CE A2 2D 43 CE FA E1 43 CE E4 BC 00 00 00 00 3F 21 47 AE 00 00 00 00 00 00 00 00 43 16 00 00 00 00 00 00 43 34 00 00 00 00 00 00 00 00 00 00 00 00 00 00 00 00 00 00 42 70 00 00 43 16 00 00 00 00 00 00 43 34 00 00 3F 2A 7E FA 3F 72 F1 AA 00 00 00 00 3F 80 00 00 42 47 08 1D
write:03 03 07 CF 00 78 75 41
03 03 F0
343 A5 AC CD 42 84 99 9A 43 37 99 9A 00 00 00 00 42 A2 99 9A 00 00 00 00 00 00 00 00 00 00 00 00 00 00 00 00 00 00 00 00 42 8C 66 66 41 5F 33 33 42 35 33 33 00 00 00 00 41 2C CC CD 40 66 66 66 3F 40 00 00 40 23 33 33 00 00 00 00 3E 19 99 9A 43 EF 2C CD 42 F0 00 00 43 7D 33 33 00 00 00 00 42 D1 B3 33 00 00 00 00 00 00 00 00 00 00 00 00 00 00 00 00 00 00 00 00 00 00 00 00 00 00 00 00 00 00 00 00 00 00 00 00 00 00 00 00 00 00 00 00 00 00 00 00 00 00 00 00 00 00 00 00 00 00 00 00 00 00 00 00 00 00 00 00 00 00 00 00 00 00 00 00 00 00 00 00 00 00 00 00 00 00 00 00 00 00 00 00 00 00 00 00 00 00 00 00 00 00 00 00 00 00 00 00 00 00 00 00 00 00 00 00 00 00 00 00 00 00 00 00 00 00 00 00 00 00 00 00 00 00 00 00 00 00 00 00
00 00 00
heart:00 00 00 00 00 00 00 00 00 00 00 00 00 00 42 9C E6 66 40 E6 66 66 42 5B 99 9A 00 00 00 00 41 80 66 66 41 68 CC CD 40 A8 00 00 40 F9 99 9A 00 00 00 00 3F AC CC CD 43 D8 60 00 42 B5 80 00 43 81 86 66 00 00 00 00 42 A5 99 9A 00 00 00 00 00 00 00 00 00 00 00 00 00 00 00 00 00 00 00 00 42 F7 CC CD 41 90 00 00 42 A5 99 9A 00 00 00 00 41 B8 CC CD 40 EB 33 33 40 06 66 66 40 53 33 33 00 00 00 00 3F E6 98 5F
write:03 03 01 0F 00 08 74 11
03 03 10
300 00 BD 10 00 00 00 00 00 00 25 8A 00 00 4C 2A
43 6E 96 04
238.586
43 6E C4 DD
238.769
43 6F 5F BE
239.374
43 CE A2 2D
413.267
43 CE FA E1
413.96
43 CE E4 BC
413.787
00 00 00 00
0
3F 21 47 AE
0.63
00 00 00 00
0
00 00 00 00
0
43 16 00 00
150
00 00 00 00
0
43 34 00 00
180
00 00 00 00
0
00 00 00 00
0
00 00 00 00
0
00 00 00 00
0
42 70 00 00
60
43 16 00 00
150
00 00 00 00
0
43 34 00 00
180
3F 2A 7E FA
0.666
3F 72 F1 AA
0.949
00 00 00 00
0
3F 80 00 00
1
42 47 08 1D
49.757923
43 A5 AC CD
331.35
42 84 99 9A
66.3
43 37 99 9A
183.6
00 00 00 00
0
42 A2 99 9A
81.3
00 00 00 00
0
00 00 00 00
0
00 00 00 00
0
00 00 00 00
0
00 00 00 00
0
42 8C 66 66
70.2
41 5F 33 33
13.95
42 35 33 33
45.3
00 00 00 00
0
41 2C CC CD
10.8
40 66 66 66
3.6
3F 40 00 00
0.75
40 23 33 33
2.55
00 00 00 00
0
3E 19 99 9A
0.15
43 EF 2C CD
478.35
42 F0 00 00
120
43 7D 33 33
253.2
00 00 00 00
0
42 D1 B3 33
104.85
00 00 00 00
0
00 00 00 00
0
00 00 00 00
0
00 00 00 00
0
00 00 00 00
0
00 00 00 00
0
00 00 00 00
0
00 00 00 00
0
00 00 00 00
0
00 00 00 00
0
00 00 00 00
0
00 00 00 00
0
00 00 00 00
0
00 00 00 00
0
00 00 00 00
0
00 00 00 00
0
00 00 00 00
0
00 00 00 00
0
00 00 00 00
0
00 00 00 00
0
00 00 00 00
0
00 00 00 00
0
00 00 00 00
0
00 00 00 00
0
00 00 00 00
0
00 00 00 00
0
00 00 00 00
0
00 00 00 00
0
00 00 00 00
0
00 00 00 00
0
00 00 00 00
0
00 00 00 00
0
00 00 00 00
0
00 00 00 00
0
00 00 00 00
0
00 00 BD 10
48400
00 00 00 00
0
00 00 25 8A
9610
00 00 4C 2A
19498
238.586238.769239.374413.267413.96413.78700.6300150018000006015001800.6660.9490149.757923331.3566.3183.6081.30000070.213.9545.3010.83.60.752.5500.15478.35120253.20104.850000000000000000000000000000000000032017112301063348.409.6119.498insert into tbl_power_info_v2(P_A_DIANYA,P_B_DIANYA,P_C_DIANYA,P_UAB_XIANDIANYA,P_UBC_XIANDIANYA,P_UCA_XIANDIANYA,P_A_DIANLIU,P_B_DIANLIU,P_C_DIANLIU,P_A_YGGL,P_B_YGGL,P_C_YGGL,P_HXYGGL,P_A_WGGL,P_B_WGGL,P_C_WGGL,P_HXWGGL,P_A_SZGL,P_B_SZGL,P_C_SZGL,P_HXSZGL,P_A_GLYS,P_B_GLYS,P_C_GLYS,P_HXGLYS,P_DWPL,P_BY_KwhZ,P_BY_KwhJ,P_BY_KwhF,P_BY_KwhP,P_BY_KwhG,P_BY_HKwhZ,P_BY_HKwhJ,P_BY_HKwhF,P_BY_HKwhP,P_BY_HKwhG, P_BY_KvarhZ,P_BY_KvarhJ,P_BY_KvarhF,P_BY_KvarhP,P_BY_KvarhG, P_BY_HKvarhZ,P_BY_HKvarhJ,P_BY_HKvarhF,P_BY_HKvarhP,P_BY_HKvarhG, P_SY_KwhZ,P_SY_KwhJ,P_SY_KwhF,P_SY_KwhP,P_SY_KwhG, P_SY_HKwhZ,P_SY_HKwhJ,P_SY_HKwhF,P_SY_HKwhP,P_SY_HKwhG, P_SY_KvarhZ,P_SY_KvarhJ,P_SY_KvarhF,P_SY_KvarhP,P_SY_KvarhG, P_SY_HKvarhZ,P_SY_HKvarhJ,P_SY_HKvarhF,P_SY_HKvarhP,P_SY_HKvarhG, P_SSY_KwhZ,P_SSY_KwhJ,P_SSY_KwhF,P_SSY_KwhP,P_SSY_KwhG, P_SSY_HKwhZ,P_SSY_HKwhJ,P_SSY_HKwhF,P_SSY_HKwhP,P_SSY_HKwhG, P_SSY_KvarhZ,P_SSY_KvarhJ,P_SSY_KvarhF,P_SSY_KvarhP,P_SSY_KvarhG, P_SSY_HKvarhZ,P_SSY_HKvarhJ,P_SSY_HKvarhF,P_SSY_HKvarhP,P_SSY_HKvarhG,P_CODE,P_TIME,P_ZXYGDN,P_FXYGDN,P_ZXWGDN,P_FXWGDN)values(238.586,238.769,239.374,413.267,413.96,413.787,0,0.63,0,0,150,0,180,0,0,0,0,60,150,0,180,0.666,0.949,0,1,49.757923,331.35,66.3,183.6,0,81.3,0,0,0,0,0,70.2,13.95,45.3,0,10.8,3.6,0.75,2.55,0,0.15,478.35,120,253.2,0,104.85,0,0,0,0,0,0,0,0,0,0,0,0,0,0,0,0,0,0,0,0,0,0,0,0,0,0,0,0,0,0,0,0,0,0,0,3,20171123010633,48.4,0,9.61,19.498)
写入成功读取完毕一个
write:04 03 00 38 00 34 C5 85
04 03 68
443 6E 55 3F 43 6E 86 66 43 6F 1F BE 43 CE 75 C3 43 CE CE 77 43 CE B8 52 40 40 00 00 00 00 00 00 3F 42 8F 5C 44 2A 00 00 00 00 00 00 42 F0 00 00 44 5C 00 00 42 A0 00 00 00 00 00 00 42 F0 00 00 42 F0 00 00 44 34 00 00 42 A0 00 00 43 48 00 00 44 5C 00 00 3F 78 51 EC 3F 18 D4 FE 3F 32 6E 98 3F 7D 2F 1B 42 48 59 86
write:04 03 07 CF 00 78 74 F6
04 03 F0
444 11 40 00 42 F6 00 00 43 A5 80 00 00 00 00 00 42 FD 99 9A 00 00 00 00 00 00 00 00 00 00 00 00 00 00 00 00 00 00 00 00 40 AC CC CD 3E 4C CC CD 3F B3 33 33 00 00 00 00 40 66 66 66 42 6D 99 9A 41 46 66 66 41 EB 33 33 00 00 00 00 41 8B 33 33 44 1B 00 00 42 CE CC CD 43 AE 00 00 00 00 00 00 43 28 66 66 00 00 00 00 00 00 00 00 00 00 00 00 00 00 00 00 00 00 00 00 41 B0 00 00 40 26 66 66 40 C0 00 00 00 00 00 00 41 53 33 33 42 48 CC CD 41 06 66 66 41 D0 00 00 00 00 00 00 41 76 66 66 44 21 8C CD 42 DE CC CD 43 B0 99 9A 00 00 00 00 43 35 33 33 00 00 00 00 00 00 00 00 00 00 00 00 00 00 00 00 00 00 00 00 41 E8 00 00 40 B9 99 9A 40 E0 00 00 00 00 00 00 41 81 99 9A 42 14 CC CD 40 8C CC CD 41 9B 33 33 00 00 00 00 41 50 F0 C1
write:04 03 01 0F 00 08 75 A6
04 03 10
400 02 8A 53 00 00 00 00 00 00 42 2D 00 00 BF 85
43 6E 55 3F
238.333
43 6E 86 66
238.525
43 6F 1F BE
239.124
43 CE 75 C3
412.92
43 CE CE 77
413.613
43 CE B8 52
413.44
40 40 00 00
3
00 00 00 00
0
3F 42 8F 5C
0.76
44 2A 00 00
680
00 00 00 00
0
42 F0 00 00
120
44 5C 00 00
880
42 A0 00 00
80
00 00 00 00
0
42 F0 00 00
120
42 F0 00 00
120
44 34 00 00
720
42 A0 00 00
80
43 48 00 00
200
44 5C 00 00
880
3F 78 51 EC
0.97
3F 18 D4 FE
0.597
3F 32 6E 98
0.697
3F 7D 2F 1B
0.989
42 48 59 86
50.087425
44 11 40 00
581
42 F6 00 00
123
43 A5 80 00
331
00 00 00 00
0
42 FD 99 9A
126.8
00 00 00 00
0
00 00 00 00
0
00 00 00 00
0
00 00 00 00
0
00 00 00 00
0
40 AC CC CD
5.4
3E 4C CC CD
0.2
3F B3 33 33
1.4
00 00 00 00
0
40 66 66 66
3.6
42 6D 99 9A
59.4
41 46 66 66
12.4
41 EB 33 33
29.4
00 00 00 00
0
41 8B 33 33
17.4
44 1B 00 00
620
42 CE CC CD
103.4
43 AE 00 00
348
00 00 00 00
0
43 28 66 66
168.4
00 00 00 00
0
00 00 00 00
0
00 00 00 00
0
00 00 00 00
0
00 00 00 00
0
41 B0 00 00
22
40 26 66 66
2.6
40 C0 00 00
6
00 00 00 00
0
41 53 33 33
13.2
42 48 CC CD
50.2
41 06 66 66
8.4
41 D0 00 00
26
00 00 00 00
0
41 76 66 66
15.4
44 21 8C CD
646.2
42 DE CC CD
111.4
43 B0 99 9A
353.2
00 00 00 00
0
43 35 33 33
181.2
00 00 00 00
0
00 00 00 00
0
00 00 00 00
0
00 00 00 00
0
00 00 00 00
0
41 E8 00 00
29
40 B9 99 9A
5.8
40 E0 00 00
7
00 00 00 00
0
41 81 99 9A
16.2
42 14 CC CD
37.2
40 8C CC CD
4.4
41 9B 33 33
19.4
00 00 00 00
0
41 50 F0 C1
13.058778
00 02 8A 53
166483
00 00 00 00
0
00 00 42 2D
16941
00 00 BF 85
49029
238.333238.525239.124412.92413.613413.44300.766800120880800120120720802008800.970.5970.6970.98950.0874255811233310126.8000005.40.21.403.659.412.429.4017.4620103.43480168.400000222.66013.250.28.426015.4646.2111.4353.20181.200000295.87016.237.24.419.4013.058778420171123010729166.483016.94149.029insert into tbl_power_info_v2(P_A_DIANYA,P_B_DIANYA,P_C_DIANYA,P_UAB_XIANDIANYA,P_UBC_XIANDIANYA,P_UCA_XIANDIANYA,P_A_DIANLIU,P_B_DIANLIU,P_C_DIANLIU,P_A_YGGL,P_B_YGGL,P_C_YGGL,P_HXYGGL,P_A_WGGL,P_B_WGGL,P_C_WGGL,P_HXWGGL,P_A_SZGL,P_B_SZGL,P_C_SZGL,P_HXSZGL,P_A_GLYS,P_B_GLYS,P_C_GLYS,P_HXGLYS,P_DWPL,P_BY_KwhZ,P_BY_KwhJ,P_BY_KwhF,P_BY_KwhP,P_BY_KwhG,P_BY_HKwhZ,P_BY_HKwhJ,P_BY_HKwhF,P_BY_HKwhP,P_BY_HKwhG, P_BY_KvarhZ,P_BY_KvarhJ,P_BY_KvarhF,P_BY_KvarhP,P_BY_KvarhG, P_BY_HKvarhZ,P_BY_HKvarhJ,P_BY_HKvarhF,P_BY_HKvarhP,P_BY_HKvarhG, P_SY_KwhZ,P_SY_KwhJ,P_SY_KwhF,P_SY_KwhP,P_SY_KwhG, P_SY_HKwhZ,P_SY_HKwhJ,P_SY_HKwhF,P_SY_HKwhP,P_SY_HKwhG, P_SY_KvarhZ,P_SY_KvarhJ,P_SY_KvarhF,P_SY_KvarhP,P_SY_KvarhG, P_SY_HKvarhZ,P_SY_HKvarhJ,P_SY_HKvarhF,P_SY_HKvarhP,P_SY_HKvarhG, P_SSY_KwhZ,P_SSY_KwhJ,P_SSY_KwhF,P_SSY_KwhP,P_SSY_KwhG, P_SSY_HKwhZ,P_SSY_HKwhJ,P_SSY_HKwhF,P_SSY_HKwhP,P_SSY_HKwhG, P_SSY_KvarhZ,P_SSY_KvarhJ,P_SSY_KvarhF,P_SSY_KvarhP,P_SSY_KvarhG, P_SSY_HKvarhZ,P_SSY_HKvarhJ,P_SSY_HKvarhF,P_SSY_HKvarhP,P_SSY_HKvarhG,P_CODE,P_TIME,P_ZXYGDN,P_FXYGDN,P_ZXWGDN,P_FXWGDN)values(238.333,238.525,239.124,412.92,413.613,413.44,3,0,0.76,680,0,120,880,80,0,120,120,720,80,200,880,0.97,0.597,0.697,0.989,50.087425,581,123,331,0,126.8,0,0,0,0,0,5.4,0.2,1.4,0,3.6,59.4,12.4,29.4,0,17.4,620,103.4,348,0,168.4,0,0,0,0,0,22,2.6,6,0,13.2,50.2,8.4,26,0,15.4,646.2,111.4,353.2,0,181.2,0,0,0,0,0,29,5.8,7,0,16.2,37.2,4.4,19.4,0,13.058778,4,20171123010729,166.483,0,16.941,49.029)
写入成功读取完毕一个
write:05 03 00 38 00 34 C4 54
05 03 68
543 6F 20 C5 43 6F 17 0A 43 6F A8 73 43 CF 05 E3 43 CF 3D 50 43 CF 48 73 40 14 7A E1 40 FD 70 A4 3F A8 F5 C3 43 A0 00 00 44 EB 00 00 43 48 00 00 45 18 80 00 42 F0 00 00 00 00 00 00 42 F0 00 00 43 A0 00 00 44 0C 00 00 44 EB 00 00 43 A0 00 00 45 18 80 00 3F 1A 1C AC 3F 7F 3B 64 3F 27 AE 14 3F 7D F3 B6 42 48 5B F5
write:05 03 07 CF 00 78 75 27
05 03 F0
544 9A 99 9A 43 95 E6 66 44 2B 59 9A 00 00 00 00 43 7B 99 9A 00 00 00 00 00 00 00 00 00 00 00 00 00 00 00 00 00 00 00 00 00 00 00 00 00 00 00 00 00 00 00 00 00 00 00 00 00 00 00 00 43 3D 99 9A 42 28 CC 00 00 00 00 00 00 00 00 00 00 00 00 00 00 00 00 00 00 00 00 00 00 00 00 00 00 00 00 00 00 00 00 00 00 00 00 00 00 00 00 00 00 00 00 00 00 00 00 00 00 00 00 00 00 00 00 00 00 00 00 00 00 00 00 00 00 00 00 00 00 00 00 00 00 00 00 00 00 00 00 00 00 00 00 00 00 00 00 00 00 00 00 00 00 00 00 00 00 00 00 00 00 00 00 00 00 00 00 00 00 00 00 00 00 00 00 00 00 00 00 00 00 00 00 00 00 00 00 00 00 00 00 00 00 00 00 00 00 00 00 00 00 00 00 00 00 00 00 00 00 00 00 00 00 00 00 00 00 00 00 00 00 00 00 00 00 00 00 00 00 00 00 00
CD 42 B8
heart:CD 42 B8 00 00 00 00 00 00 42 5C CC CD 44 C1 06 66 43 AF 99 9A 44 5A 00 00 00 00 00 00 43 A0 66 66 00 00 00 00 00 00 00 00 00 00 00 00 00 00 00 00 00 00 00 00 3F CC CC CD 3F 19 99 9A 3F 4C CC CD 00 00 00 00 00 00 00 00 43 6F 99 9A 42 50 00 00 42 E7 33 33 00 00 00 00 42 8F 99 9A 44 D5 93 33 43 A4 B3 33 44 7E 19 9A 00 00 00 00 43 B5 33 33 00 00 00 00 00 00 00 00 00 00 00 00 00 00 00 00 00 00 00 00 42 A8 66 66 41 9B 33 33 42 69 99 9A 00 00 00 00 40 CC CC CD 43 26 33 33 41 FE 66 66 42 9E CC CD 00 00 00 00 42 5B D9 3C
write:05 03 01 0F 00 08 74 77
05 03 10
500 08 72 30 00 00 00 00 00 00 D9 A8 00 00 F7 25
43 6F 20 C5
239.128
43 6F 17 0A
239.09
43 6F A8 73
239.658
43 CF 05 E3
414.046
43 CF 3D 50
414.479
43 CF 48 73
414.566
40 14 7A E1
2.32
40 FD 70 A4
7.92
3F A8 F5 C3
1.32
43 A0 00 00
320
44 EB 00 00
1880
43 48 00 00
200
45 18 80 00
2440
42 F0 00 00
120
00 00 00 00
0
42 F0 00 00
120
43 A0 00 00
320
44 0C 00 00
560
44 EB 00 00
1880
43 A0 00 00
320
45 18 80 00
2440
3F 1A 1C AC
0.602
3F 7F 3B 64
0.997
3F 27 AE 14
0.655
3F 7D F3 B6
0.992
42 48 5B F5
50.0898
44 9A 99 9A
1236.8
43 95 E6 66
299.8
44 2B 59 9A
685.4
00 00 00 00
0
43 7B 99 9A
251.6
00 00 00 00
0
00 00 00 00
0
00 00 00 00
0
00 00 00 00
0
00 00 00 00
0
00 00 00 00
0
00 00 00 00
0
00 00 00 00
0
00 00 00 00
0
00 00 00 00
0
43 3D 99 9A
189.6
42 28 CC 00
42.19922
00 00 00 00
0
00 00 00 00
0
00 00 00 00
0
00 00 00 00
0
00 00 00 00
0
00 00 00 00
0
00 00 00 00
0
00 00 00 00
0
00 00 00 00
0
00 00 00 00
0
00 00 00 00
0
00 00 00 00
0
00 00 00 00
0
00 00 00 00
0
00 00 00 00
0
00 00 00 00
0
00 00 00 00
0
00 00 00 00
0
00 00 00 00
0
00 00 00 00
0
00 00 00 00
0
00 00 00 00
0
00 00 00 00
0
00 00 00 00
0
00 00 00 00
0
00 00 00 00
0
00 00 00 00
0
00 00 00 00
0
00 00 00 00
0
00 00 00 00
0
00 00 00 00
0
00 00 00 00
0
00 00 00 00
0
00 00 00 00
0
00 00 00 00
0
00 00 00 00
0
00 00 00 00
0
00 00 00 00
0
00 00 00 00
0
00 00 00 00
0
00 00 00 00
0
00 00 00 00
0
00 00 00 00
0
00 08 72 30
553520
00 00 00 00
0
00 00 D9 A8
55720
00 00 F7 25
63269
239.128239.09239.658414.046414.479414.5662.327.921.32320188020024401200120320560188032024400.6020.9970.6550.99250.08981236.8299.8685.40251.60000000000189.642.199220000000000000000000000000000000000000000000520171123010830553.52055.7263.269insert into tbl_power_info_v2(P_A_DIANYA,P_B_DIANYA,P_C_DIANYA,P_UAB_XIANDIANYA,P_UBC_XIANDIANYA,P_UCA_XIANDIANYA,P_A_DIANLIU,P_B_DIANLIU,P_C_DIANLIU,P_A_YGGL,P_B_YGGL,P_C_YGGL,P_HXYGGL,P_A_WGGL,P_B_WGGL,P_C_WGGL,P_HXWGGL,P_A_SZGL,P_B_SZGL,P_C_SZGL,P_HXSZGL,P_A_GLYS,P_B_GLYS,P_C_GLYS,P_HXGLYS,P_DWPL,P_BY_KwhZ,P_BY_KwhJ,P_BY_KwhF,P_BY_KwhP,P_BY_KwhG,P_BY_HKwhZ,P_BY_HKwhJ,P_BY_HKwhF,P_BY_HKwhP,P_BY_HKwhG, P_BY_KvarhZ,P_BY_KvarhJ,P_BY_KvarhF,P_BY_KvarhP,P_BY_KvarhG, P_BY_HKvarhZ,P_BY_HKvarhJ,P_BY_HKvarhF,P_BY_HKvarhP,P_BY_HKvarhG, P_SY_KwhZ,P_SY_KwhJ,P_SY_KwhF,P_SY_KwhP,P_SY_KwhG, P_SY_HKwhZ,P_SY_HKwhJ,P_SY_HKwhF,P_SY_HKwhP,P_SY_HKwhG, P_SY_KvarhZ,P_SY_KvarhJ,P_SY_KvarhF,P_SY_KvarhP,P_SY_KvarhG, P_SY_HKvarhZ,P_SY_HKvarhJ,P_SY_HKvarhF,P_SY_HKvarhP,P_SY_HKvarhG, P_SSY_KwhZ,P_SSY_KwhJ,P_SSY_KwhF,P_SSY_KwhP,P_SSY_KwhG, P_SSY_HKwhZ,P_SSY_HKwhJ,P_SSY_HKwhF,P_SSY_HKwhP,P_SSY_HKwhG, P_SSY_KvarhZ,P_SSY_KvarhJ,P_SSY_KvarhF,P_SSY_KvarhP,P_SSY_KvarhG, P_SSY_HKvarhZ,P_SSY_HKvarhJ,P_SSY_HKvarhF,P_SSY_HKvarhP,P_SSY_HKvarhG,P_CODE,P_TIME,P_ZXYGDN,P_FXYGDN,P_ZXWGDN,P_FXWGDN)values(239.128,239.09,239.658,414.046,414.479,414.566,2.32,7.92,1.32,320,1880,200,2440,120,0,120,320,560,1880,320,2440,0.602,0.997,0.655,0.992,50.0898,1236.8,299.8,685.4,0,251.6,0,0,0,0,0,0,0,0,0,0,189.6,42.19922,0,0,0,0,0,0,0,0,0,0,0,0,0,0,0,0,0,0,0,0,0,0,0,0,0,0,0,0,0,0,0,0,0,0,0,0,0,0,0,0,0,0,0,5,20171123010830,553.52,0,55.72,63.269)
写入成功读取完毕一个
write:06 03 00 38 00 34 C4 67
06 03 68
643 6E FC 6A 43 6F 3E FA 43 6F B5 3F 43 CF 05 E3 43 CF 5E 98 43 CF 3D 50 40 6E 14 7B 3F 4C CC CD 3F C2 8F 5C 44 02 00 00 42 F0 00 00 43 70 00 00 44 5C 00 00 43 48 00 00 00 00 00 00 00 00 00 00 43 48 00 00 44 5C 00 00 43 48 00 00 43 B4 00 00 44 66 00 00 3F 19 DB 23 3F 16 C8 B4 3F 23 D7 0A 3F 78 D4 FE 42 48 A1 06
write:06 03 07 CF 00 78 75 14
06 03 F0
644 B4 AC CD 43 8E 99 9A 44 55 B3 33 00 00 00 00 43 98 B3 33 00 00 00 00 00 00 00 00 00 00 00 00 00 00 00 00 00 00 00 00 3F B3 33 33 00 00 00 00 3F 80 00 00 00 00 00 00 3E 4C CC CD 43 07 00 00 41 D1 99 9A 42 7E 66 66 00 00 00 00 42 34 00 00 44 F8 A6 66 43 BF 33 33 44 93 80 00 00 00 00 00 43 D5 4C CD 00 00 00 00 00 00 00 00 00 00 00 00 00 00 00 00 00 00 00 00 40 C6 66 66 3E CC CC CD 40 A0 00 00 00 00 00 00 3F 19 99 9A 43 47 99 9A 42 16 66 66 42 BB 99 9A 00 00 00 00 42 88 00 00 45 15 00 00 43 EA 66 66 44 AC 53 33 00 00 00 00 44 06 0C CD 00 00 00 00 00 00 00 00 00 00 00 00 00 00 00 00 00 00 00 00 41 53 33 33 40 66 66 66 40 CC CC CD 00 00 00 00 40 40 00 00 43 38 33 33 42 10 00 00 42 A8 CC CD 00 00 00 00 42 7D BC 9E
write:06 03 01 0F 00 08 74 44
write:07 03 00 38 00 34 C5 B6
06 03 10
600 0B 18 F7 00 00 00 00 00 00 17 8F 00 00 46 AE
43 6E FC 6A
238.986
43 6F 3E FA
239.246
43 6F B5 3F
239.708
43 CF 05 E3
414.046
43 CF 5E 98
414.739
43 CF 3D 50
414.479
40 6E 14 7B
3.72
3F 4C CC CD
0.8
3F C2 8F 5C
1.52
44 02 00 00
520
42 F0 00 00
120
43 70 00 00
240
44 5C 00 00
880
43 48 00 00
200
00 00 00 00
0
00 00 00 00
0
43 48 00 00
200
44 5C 00 00
880
43 48 00 00
200
43 B4 00 00
360
44 66 00 00
920
3F 19 DB 23
0.601
3F 16 C8 B4
0.589
3F 23 D7 0A
0.64
3F 78 D4 FE
0.972
42 48 A1 06
50.15725
44 B4 AC CD
1445.4
43 8E 99 9A
285.2
44 55 B3 33
854.8
00 00 00 00
0
43 98 B3 33
305.4
00 00 00 00
0
00 00 00 00
0
00 00 00 00
0
00 00 00 00
0
00 00 00 00
0
3F B3 33 33
1.4
00 00 00 00
0
3F 80 00 00
1
00 00 00 00
0
3E 4C CC CD
0.2
43 07 00 00
135
41 D1 99 9A
26.2
42 7E 66 66
63.6
00 00 00 00
0
42 34 00 00
45
44 F8 A6 66
1989.2
43 BF 33 33
382.4
44 93 80 00
1180
00 00 00 00
0
43 D5 4C CD
426.6
00 00 00 00
0
00 00 00 00
0
00 00 00 00
0
00 00 00 00
0
00 00 00 00
0
40 C6 66 66
6.2
3E CC CC CD
0.4
40 A0 00 00
5
00 00 00 00
0
3F 19 99 9A
0.6
43 47 99 9A
199.6
42 16 66 66
37.6
42 BB 99 9A
93.8
00 00 00 00
0
42 88 00 00
68
45 15 00 00
2384
43 EA 66 66
468.8
44 AC 53 33
1378.6
00 00 00 00
0
44 06 0C CD
536.2
00 00 00 00
0
00 00 00 00
0
00 00 00 00
0
00 00 00 00
0
00 00 00 00
0
41 53 33 33
13.2
40 66 66 66
3.6
40 CC CC CD
6.4
00 00 00 00
0
40 40 00 00
3
43 38 33 33
184.2
42 10 00 00
36
42 A8 CC CD
84.4
00 00 00 00
0
42 7D BC 9E
63.434196
00 0B 18 F7
727287
00 00 00 00
0
00 00 17 8F
6031
00 00 46 AE
18094
238.986239.246239.708414.046414.739414.4793.720.81.52520120240880200002008802003609200.6010.5890.640.97250.157251445.4285.2854.80305.4000001.40100.213526.263.60451989.2382.411800426.6000006.20.4500.6199.637.693.80682384468.81378.60536.20000013.23.66.403184.23684.4063.434196620171123010948727.28706.03118.094insert into tbl_power_info_v2(P_A_DIANYA,P_B_DIANYA,P_C_DIANYA,P_UAB_XIANDIANYA,P_UBC_XIANDIANYA,P_UCA_XIANDIANYA,P_A_DIANLIU,P_B_DIANLIU,P_C_DIANLIU,P_A_YGGL,P_B_YGGL,P_C_YGGL,P_HXYGGL,P_A_WGGL,P_B_WGGL,P_C_WGGL,P_HXWGGL,P_A_SZGL,P_B_SZGL,P_C_SZGL,P_HXSZGL,P_A_GLYS,P_B_GLYS,P_C_GLYS,P_HXGLYS,P_DWPL,P_BY_KwhZ,P_BY_KwhJ,P_BY_KwhF,P_BY_KwhP,P_BY_KwhG,P_BY_HKwhZ,P_BY_HKwhJ,P_BY_HKwhF,P_BY_HKwhP,P_BY_HKwhG, P_BY_KvarhZ,P_BY_KvarhJ,P_BY_KvarhF,P_BY_KvarhP,P_BY_KvarhG, P_BY_HKvarhZ,P_BY_HKvarhJ,P_BY_HKvarhF,P_BY_HKvarhP,P_BY_HKvarhG, P_SY_KwhZ,P_SY_KwhJ,P_SY_KwhF,P_SY_KwhP,P_SY_KwhG, P_SY_HKwhZ,P_SY_HKwhJ,P_SY_HKwhF,P_SY_HKwhP,P_SY_HKwhG, P_SY_KvarhZ,P_SY_KvarhJ,P_SY_KvarhF,P_SY_KvarhP,P_SY_KvarhG, P_SY_HKvarhZ,P_SY_HKvarhJ,P_SY_HKvarhF,P_SY_HKvarhP,P_SY_HKvarhG, P_SSY_KwhZ,P_SSY_KwhJ,P_SSY_KwhF,P_SSY_KwhP,P_SSY_KwhG, P_SSY_HKwhZ,P_SSY_HKwhJ,P_SSY_HKwhF,P_SSY_HKwhP,P_SSY_HKwhG, P_SSY_KvarhZ,P_SSY_KvarhJ,P_SSY_KvarhF,P_SSY_KvarhP,P_SSY_KvarhG, P_SSY_HKvarhZ,P_SSY_HKvarhJ,P_SSY_HKvarhF,P_SSY_HKvarhP,P_SSY_HKvarhG,P_CODE,P_TIME,P_ZXYGDN,P_FXYGDN,P_ZXWGDN,P_FXWGDN)values(238.986,239.246,239.708,414.046,414.739,414.479,3.72,0.8,1.52,520,120,240,880,200,0,0,200,880,200,360,920,0.601,0.589,0.64,0.972,50.15725,1445.4,285.2,854.8,0,305.4,0,0,0,0,0,1.4,0,1,0,0.2,135,26.2,63.6,0,45,1989.2,382.4,1180,0,426.6,0,0,0,0,0,6.2,0.4,5,0,0.6,199.6,37.6,93.8,0,68,2384,468.8,1378.6,0,536.2,0,0,0,0,0,13.2,3.6,6.4,0,3,184.2,36,84.4,0,63.434196,6,20171123010948,727.287,0,6.031,18.094)
写入成功读取完毕一个
write:07 03 07 CF 00 78 74 C5
write:07 03 01 0F 00 08 75 95
write:08 03 00 38 00 34 C5 49
08 03 68
843 6F 31 27 43 6F 4D D3 43 6F CD 0E 43 CF 27 2B 43 CF 74 BC 43 CF 5E 98 00 00 00 00 00 00 00 00 00 00 00 00 00 00 00 00 00 00 00 00 00 00 00 00 00 00 00 00 00 00 00 00 00 00 00 00 00 00 00 00 00 00 00 00 00 00 00 00 42 70 00 00 00 00 00 00 00 00 00 00 00 00 00 00 3F 0E 56 04 00 00 00 00 00 00 00 00 42 48 6D CD
write:08 03 07 CF 00 78 74 3A
08 03 F0
842 59 33 33 00 00 00 00 42 10 00 00 00 00 00 00 41 91 33 33 00 00 00 00 00 00 00 00 00 00 00 00 00 00 00 00 00 00 00 00 00 00 00 00 00 00 00 00 00 00 00 00 00 00 00 00 00 00 00 00 41 23 33 33 00 00 00 00 40 C9 99 9A 00 00 00 00 40 70 00 00 42 67 00 00 00 00 00 00 42 28 00 00 00 00 00 00 41 79 99 9A 00 00 00 00 00 00 00 00 00 00 00 00 00 00 00 00 00 00 00 00 00 00 00 00 00 00 00 00 00 00 00 00 00 00 00 00 00 00 00 00 41 1E 66 66 00 00 00 00 40 DC CC CD 00 00 00 00 40 40 00 00 42 95 19 9A 00 00 00 00 42 3B CC CD 00 00 00 00 41 DB 99 9A 00 00 00 00 00 00 00 00 00 00 00 00 00 00 00 00 00 00 00 00 00 00 00 00 00 00 00 00 00 00 00 00 00 00 00 00 00 00 00 00 41 4E 66 66 00 00 00 00 41 06 66 66 00 00 00 00 40 8B 62 70
write:08 03 01 0F 00 08 75 6A
08 03 10
800 00 48 4B 00 00 00 00 00 00 00 00 00 00 AB C1
43 6F 31 27
239.192
43 6F 4D D3
239.304
43 6F CD 0E
239.801
43 CF 27 2B
414.306
43 CF 74 BC
414.912
43 CF 5E 98
414.739
00 00 00 00
0
00 00 00 00
0
00 00 00 00
0
00 00 00 00
0
00 00 00 00
0
00 00 00 00
0
00 00 00 00
0
00 00 00 00
0
00 00 00 00
0
00 00 00 00
0
00 00 00 00
0
00 00 00 00
0
42 70 00 00
60
00 00 00 00
0
00 00 00 00
0
00 00 00 00
0
3F 0E 56 04
0.556
00 00 00 00
0
00 00 00 00
0
42 48 6D CD
50.107227
42 59 33 33
54.3
00 00 00 00
0
42 10 00 00
36
00 00 00 00
0
41 91 33 33
18.15
00 00 00 00
0
00 00 00 00
0
00 00 00 00
0
00 00 00 00
0
00 00 00 00
0
00 00 00 00
0
00 00 00 00
0
00 00 00 00
0
00 00 00 00
0
00 00 00 00
0
41 23 33 33
10.2
00 00 00 00
0
40 C9 99 9A
6.3
00 00 00 00
0
40 70 00 00
3.75
42 67 00 00
57.75
00 00 00 00
0
42 28 00 00
42
00 00 00 00
0
41 79 99 9A
15.6
00 00 00 00
0
00 00 00 00
0
00 00 00 00
0
00 00 00 00
0
00 00 00 00
0
00 00 00 00
0
00 00 00 00
0
00 00 00 00
0
00 00 00 00
0
00 00 00 00
0
41 1E 66 66
9.9
00 00 00 00
0
40 DC CC CD
6.9
00 00 00 00
0
40 40 00 00
3
42 95 19 9A
74.55
00 00 00 00
0
42 3B CC CD
46.95
00 00 00 00
0
41 DB 99 9A
27.45
00 00 00 00
0
00 00 00 00
0
00 00 00 00
0
00 00 00 00
0
00 00 00 00
0
00 00 00 00
0
00 00 00 00
0
00 00 00 00
0
00 00 00 00
0
00 00 00 00
0
41 4E 66 66
12.9
00 00 00 00
0
41 06 66 66
8.4
00 00 00 00
0
40 8B 62 70
4.3557663
00 00 48 4B
18507
00 00 00 00
0
00 00 00 00
0
00 00 AB C1
43969
239.192239.304239.801414.306414.912414.739000000000000600000.5560050.10722754.3036018.15000000000010.206.303.7557.75042015.600000000009.906.90374.55046.95027.45000000000012.908.404.355766382017112301112918.5070043.969insert into tbl_power_info_v2(P_A_DIANYA,P_B_DIANYA,P_C_DIANYA,P_UAB_XIANDIANYA,P_UBC_XIANDIANYA,P_UCA_XIANDIANYA,P_A_DIANLIU,P_B_DIANLIU,P_C_DIANLIU,P_A_YGGL,P_B_YGGL,P_C_YGGL,P_HXYGGL,P_A_WGGL,P_B_WGGL,P_C_WGGL,P_HXWGGL,P_A_SZGL,P_B_SZGL,P_C_SZGL,P_HXSZGL,P_A_GLYS,P_B_GLYS,P_C_GLYS,P_HXGLYS,P_DWPL,P_BY_KwhZ,P_BY_KwhJ,P_BY_KwhF,P_BY_KwhP,P_BY_KwhG,P_BY_HKwhZ,P_BY_HKwhJ,P_BY_HKwhF,P_BY_HKwhP,P_BY_HKwhG, P_BY_KvarhZ,P_BY_KvarhJ,P_BY_KvarhF,P_BY_KvarhP,P_BY_KvarhG, P_BY_HKvarhZ,P_BY_HKvarhJ,P_BY_HKvarhF,P_BY_HKvarhP,P_BY_HKvarhG, P_SY_KwhZ,P_SY_KwhJ,P_SY_KwhF,P_SY_KwhP,P_SY_KwhG, P_SY_HKwhZ,P_SY_HKwhJ,P_SY_HKwhF,P_SY_HKwhP,P_SY_HKwhG, P_SY_KvarhZ,P_SY_KvarhJ,P_SY_KvarhF,P_SY_KvarhP,P_SY_KvarhG, P_SY_HKvarhZ,P_SY_HKvarhJ,P_SY_HKvarhF,P_SY_HKvarhP,P_SY_HKvarhG, P_SSY_KwhZ,P_SSY_KwhJ,P_SSY_KwhF,P_SSY_KwhP,P_SSY_KwhG, P_SSY_HKwhZ,P_SSY_HKwhJ,P_SSY_HKwhF,P_SSY_HKwhP,P_SSY_HKwhG, P_SSY_KvarhZ,P_SSY_KvarhJ,P_SSY_KvarhF,P_SSY_KvarhP,P_SSY_KvarhG, P_SSY_HKvarhZ,P_SSY_HKvarhJ,P_SSY_HKvarhF,P_SSY_HKvarhP,P_SSY_HKvarhG,P_CODE,P_TIME,P_ZXYGDN,P_FXYGDN,P_ZXWGDN,P_FXWGDN)values(239.192,239.304,239.801,414.306,414.912,414.739,0,0,0,0,0,0,0,0,0,0,0,0,60,0,0,0,0.556,0,0,50.107227,54.3,0,36,0,18.15,0,0,0,0,0,0,0,0,0,0,10.2,0,6.3,0,3.75,57.75,0,42,0,15.6,0,0,0,0,0,0,0,0,0,0,9.9,0,6.9,0,3,74.55,0,46.95,0,27.45,0,0,0,0,0,0,0,0,0,0,12.9,0,8.4,0,4.3557663,8,20171123011129,18.507,0,0,43.969)
写入成功读取完毕一个
write:09 03 00 38 00 34 C4 98
09 03 68
943 6E EC 08 43 6F 56 46 43 6F C1 48 43 CF 11 06 43 CF 69 BA 43 CF 3D 50 00 00 00 00 00 00 00 00 3F 5E B8 52 42 70 00 00 00 00 00 00 43 34 00 00 43 70 00 00 42 B4 00 00 42 70 00 00 42 B4 00 00 43 52 00 00 42 B4 00 00 42 70 00 00 43 52 00 00 43 A5 00 00 3E EE 14 7B 3E 18 93 75 3F 5A 5E 35 3F 3C 28 F6 42 48 09 77
write:09 03 07 CF 00 78 75 EB
09 03 F0
943 0D 00 00 41 93 99 9A 42 8E 80 00 00 00 00 00 42 4C 99 9A 00 00 00 00 00 00 00 00 00 00 00 00 00 00 00 00 00 00 00 00 00 00 00 00 00 00 00 00 00 00 00 00 00 00 00 00 00 00 00 00 42 E6 B3 33 41 96 00 00 42 41 33 00 00 00 00 00 00 00 00 00 00 00 00 00 00 00 00 00 00 00 00 00 00 00 00 00 00 00 00 00 00 00 00 00 00 00 00 00 00 00 00 00 00 00 00 00 00 00 00 00 00 00 00 00 00 00 00 00 00 00 00 00 00 00 00 00 00 00 00 00 00 00 00 00 00 00 00 00 00 00 00 00 00 00 00 00 00 00 00 00 00 00 00 00 00 00 00 00 00 00 00 00 00 00 00 00 00 00 00 00 00 00 00 00 00 00 00 00 00 00 00 00 00 00 00 00 00 00 00 00 00 00 00 00 00 00 00 00 00 00 00 00 00 00 00 00 00 00 00 00 00 00 00 00 00 00 00 00 00 00 00 00 00 00 00 00 00 00 00 00
33 00 00
heart:33 00 00 00 00 42 40 00 00 43 BC 2C CD 41 E7 99 9A 43 4D CC CD 00 00 00 00 43 0D 73 33 00 00 00 00 00 00 00 00 00 00 00 00 00 00 00 00 00 00 00 00 40 A3 33 33 00 00 00 00 40 19 99 9A 00 00 00 00 40 23 33 33 43 2C 33 33 41 D6 CC CD 42 95 19 9A 00 00 00 00 42 8D 4C CD 43 CA B9 9A 42 5D 66 66 43 44 33 33 00 00 00 00 43 19 C0 00 00 00 00 00 00 00 00 00 00 00 00 00 00 00 00 00 00 00 00 00 43 18 B3 33 41 B1 99 9A 42 8B 80 00 00 00 00 00 42 72 66 66 43 0F 8C CD 41 BC 66 66 42 72 66 66 00 00 00 00 42 6D 53 72
write:09 03 01 0F 00 08 74 BB
09 03 10
900 00 93 09 00 00 00 00 00 00 18 DA 00 00 C8 7A
43 6E EC 08
238.922
43 6F 56 46
239.337
43 6F C1 48
239.755
43 CF 11 06
414.133
43 CF 69 BA
414.826
43 CF 3D 50
414.479
00 00 00 00
0
00 00 00 00
0
3F 5E B8 52
0.87
42 70 00 00
60
00 00 00 00
0
43 34 00 00
180
43 70 00 00
240
42 B4 00 00
90
42 70 00 00
60
42 B4 00 00
90
43 52 00 00
210
42 B4 00 00
90
42 70 00 00
60
43 52 00 00
210
43 A5 00 00
330
3E EE 14 7B
0.465
3E 18 93 75
0.149
3F 5A 5E 35
0.853
3F 3C 28 F6
0.735
42 48 09 77
50.009243
43 0D 00 00
141
41 93 99 9A
18.45
42 8E 80 00
71.25
00 00 00 00
0
42 4C 99 9A
51.15
00 00 00 00
0
00 00 00 00
0
00 00 00 00
0
00 00 00 00
0
00 00 00 00
0
00 00 00 00
0
00 00 00 00
0
00 00 00 00
0
00 00 00 00
0
00 00 00 00
0
42 E6 B3 33
115.35
41 96 00 00
18.75
42 41 33 00
48.299805
00 00 00 00
0
00 00 00 00
0
00 00 00 00
0
00 00 00 00
0
00 00 00 00
0
00 00 00 00
0
00 00 00 00
0
00 00 00 00
0
00 00 00 00
0
00 00 00 00
0
00 00 00 00
0
00 00 00 00
0
00 00 00 00
0
00 00 00 00
0
00 00 00 00
0
00 00 00 00
0
00 00 00 00
0
00 00 00 00
0
00 00 00 00
0
00 00 00 00
0
00 00 00 00
0
00 00 00 00
0
00 00 00 00
0
00 00 00 00
0
00 00 00 00
0
00 00 00 00
0
00 00 00 00
0
00 00 00 00
0
00 00 00 00
0
00 00 00 00
0
00 00 00 00
0
00 00 00 00
0
00 00 00 00
0
00 00 00 00
0
00 00 00 00
0
00 00 00 00
0
00 00 00 00
0
00 00 00 00
0
00 00 00 00
0
00 00 00 00
0
00 00 00 00
0
00 00 00 00
0
00 00 93 09
37641
00 00 00 00
0
00 00 18 DA
6362
00 00 C8 7A
51322
238.922239.337239.755414.133414.826414.479000.8760018024090609021090602103300.4650.1490.8530.73550.00924314118.4571.25051.150000000000115.3518.7548.29980500000000000000000000000000000000000000000092017112301124237.64106.36251.322insert into tbl_power_info_v2(P_A_DIANYA,P_B_DIANYA,P_C_DIANYA,P_UAB_XIANDIANYA,P_UBC_XIANDIANYA,P_UCA_XIANDIANYA,P_A_DIANLIU,P_B_DIANLIU,P_C_DIANLIU,P_A_YGGL,P_B_YGGL,P_C_YGGL,P_HXYGGL,P_A_WGGL,P_B_WGGL,P_C_WGGL,P_HXWGGL,P_A_SZGL,P_B_SZGL,P_C_SZGL,P_HXSZGL,P_A_GLYS,P_B_GLYS,P_C_GLYS,P_HXGLYS,P_DWPL,P_BY_KwhZ,P_BY_KwhJ,P_BY_KwhF,P_BY_KwhP,P_BY_KwhG,P_BY_HKwhZ,P_BY_HKwhJ,P_BY_HKwhF,P_BY_HKwhP,P_BY_HKwhG, P_BY_KvarhZ,P_BY_KvarhJ,P_BY_KvarhF,P_BY_KvarhP,P_BY_KvarhG, P_BY_HKvarhZ,P_BY_HKvarhJ,P_BY_HKvarhF,P_BY_HKvarhP,P_BY_HKvarhG, P_SY_KwhZ,P_SY_KwhJ,P_SY_KwhF,P_SY_KwhP,P_SY_KwhG, P_SY_HKwhZ,P_SY_HKwhJ,P_SY_HKwhF,P_SY_HKwhP,P_SY_HKwhG, P_SY_KvarhZ,P_SY_KvarhJ,P_SY_KvarhF,P_SY_KvarhP,P_SY_KvarhG, P_SY_HKvarhZ,P_SY_HKvarhJ,P_SY_HKvarhF,P_SY_HKvarhP,P_SY_HKvarhG, P_SSY_KwhZ,P_SSY_KwhJ,P_SSY_KwhF,P_SSY_KwhP,P_SSY_KwhG, P_SSY_HKwhZ,P_SSY_HKwhJ,P_SSY_HKwhF,P_SSY_HKwhP,P_SSY_HKwhG, P_SSY_KvarhZ,P_SSY_KvarhJ,P_SSY_KvarhF,P_SSY_KvarhP,P_SSY_KvarhG, P_SSY_HKvarhZ,P_SSY_HKvarhJ,P_SSY_HKvarhF,P_SSY_HKvarhP,P_SSY_HKvarhG,P_CODE,P_TIME,P_ZXYGDN,P_FXYGDN,P_ZXWGDN,P_FXWGDN)values(238.922,239.337,239.755,414.133,414.826,414.479,0,0,0.87,60,0,180,240,90,60,90,210,90,60,210,330,0.465,0.149,0.853,0.735,50.009243,141,18.45,71.25,0,51.15,0,0,0,0,0,0,0,0,0,0,115.35,18.75,48.299805,0,0,0,0,0,0,0,0,0,0,0,0,0,0,0,0,0,0,0,0,0,0,0,0,0,0,0,0,0,0,0,0,0,0,0,0,0,0,0,0,0,0,9,20171123011242,37.641,0,6.362,51.322)
写入成功读取完毕一个
write:01 03 00 38 00 34 C5 D0
01 03 68
143 6E C3 D7 43 6F 00 83 43 6F 7D F4 43 CE D9 9A 43 CF 27 2B 43 CF 05 E3 00 00 00 00 3F B8 51 EC 00 00 00 00 43 20 00 00 43 70 00 00 00 00 00 00 43 C8 00 00 00 00 00 00 00 00 00 00 00 00 00 00 43 70 00 00 43 70 00 00 43 A0 00 00 00 00 00 00 43 F0 00 00 3E FD F3 B6 3F 32 B0 21 00 00 00 00 3F 5F 7C EE 42 48 C8 67
write:01 03 07 CF 00 78 74 A3
01 03 F0
143 DD 00 00 42 16 66 66 43 8B 66 66 00 00 00 00 42 FA 66 66 00 00 00 00 00 00 00 00 00 00 00 00 00 00 00 00 00 00 00 00 3E CC CC CD 00 00 00 00 3E CC CC CD 00 00 00 00 00 00 00 00 43 0D 33 33 41 96 66 66 42 8E 66 66 00 00 00 00 42 4B 33 33 44 0E 99 9A 42 56 66 66 43 B2 00 00 00 00 00 00 43 20 00 00 00 00 00 00 00 00 00 00 00 00 00 00 00 00 00 00 00 00 00 00 3F CC CC CD 00 00 00 00 3F CC CC CD 00 00 00 00 00 00 00 00 43 33 33 33 41 C0 00 00 42 B7 33 33 00 00 00 00 42 7C CC CD 44 42 66 66 42 AF 33 33 43 F7 66 66 00 00 00 00 43 42 CC CD 00 00 00 00 00 00 00 00 00 00 00 00 00 00 00 00 00 00 00 00 42 21 99 9A 3F CC CC CD 41 F3 33 33 00 00 00 00 41 00 00 00 43 36 CC CD 41 DC CC CD 00 00 00 00 00 00 00 00 00 00 00 00
42 BE 66
heart:42 BE 66 66 00 00 00 00 42 6E 05 6E
write:01 03 01 0F 00 08 75 F3
01 03 10
100 01 9C 17 00 00 00 00 00 00 8A CA 00 00 71 DB
43 6E C3 D7
238.765
43 6F 00 83
239.002
43 6F 7D F4
239.492
43 CE D9 9A
413.7
43 CF 27 2B
414.306
43 CF 05 E3
414.046
00 00 00 00
0
3F B8 51 EC
1.44
00 00 00 00
0
43 20 00 00
160
43 70 00 00
240
00 00 00 00
0
43 C8 00 00
400
00 00 00 00
0
00 00 00 00
0
00 00 00 00
0
43 70 00 00
240
43 70 00 00
240
43 A0 00 00
320
00 00 00 00
0
43 F0 00 00
480
3E FD F3 B6
0.496
3F 32 B0 21
0.698
00 00 00 00
0
3F 5F 7C EE
0.873
42 48 C8 67
50.195705
43 DD 00 00
442
42 16 66 66
37.6
43 8B 66 66
278.8
00 00 00 00
0
42 FA 66 66
125.2
00 00 00 00
0
00 00 00 00
0
00 00 00 00
0
00 00 00 00
0
00 00 00 00
0
3E CC CC CD
0.4
00 00 00 00
0
3E CC CC CD
0.4
00 00 00 00
0
00 00 00 00
0
43 0D 33 33
141.2
41 96 66 66
18.8
42 8E 66 66
71.2
00 00 00 00
0
42 4B 33 33
50.8
44 0E 99 9A
570.4
42 56 66 66
53.6
43 B2 00 00
356
00 00 00 00
0
43 20 00 00
160
00 00 00 00
0
00 00 00 00
0
00 00 00 00
0
00 00 00 00
0
00 00 00 00
0
3F CC CC CD
1.6
00 00 00 00
0
3F CC CC CD
1.6
00 00 00 00
0
00 00 00 00
0
43 33 33 33
179.2
41 C0 00 00
24
42 B7 33 33
91.6
00 00 00 00
0
42 7C CC CD
63.2
44 42 66 66
777.6
42 AF 33 33
87.6
43 F7 66 66
494.8
00 00 00 00
0
43 42 CC CD
194.8
00 00 00 00
0
00 00 00 00
0
00 00 00 00
0
00 00 00 00
0
00 00 00 00
0
42 21 99 9A
40.4
3F CC CC CD
1.6
41 F3 33 33
30.4
00 00 00 00
0
41 00 00 00
8
43 36 CC CD
182.8
41 DC CC CD
27.6
00 00 00 00
0
00 00 00 00
0
00 00 00 00
0
00 01 9C 17
105495
00 00 00 00
0
00 00 8A CA
35530
00 00 71 DB
29147
238.765239.002239.492413.7414.306414.04601.440160240040000024024032004800.4960.69800.87350.19570544237.6278.80125.2000000.400.400141.218.871.2050.8570.453.63560160000001.601.600179.22491.6063.2777.687.6494.80194.80000040.41.630.408182.827.6000120171123011334105.495035.5329.147insert into tbl_power_info_v2(P_A_DIANYA,P_B_DIANYA,P_C_DIANYA,P_UAB_XIANDIANYA,P_UBC_XIANDIANYA,P_UCA_XIANDIANYA,P_A_DIANLIU,P_B_DIANLIU,P_C_DIANLIU,P_A_YGGL,P_B_YGGL,P_C_YGGL,P_HXYGGL,P_A_WGGL,P_B_WGGL,P_C_WGGL,P_HXWGGL,P_A_SZGL,P_B_SZGL,P_C_SZGL,P_HXSZGL,P_A_GLYS,P_B_GLYS,P_C_GLYS,P_HXGLYS,P_DWPL,P_BY_KwhZ,P_BY_KwhJ,P_BY_KwhF,P_BY_KwhP,P_BY_KwhG,P_BY_HKwhZ,P_BY_HKwhJ,P_BY_HKwhF,P_BY_HKwhP,P_BY_HKwhG, P_BY_KvarhZ,P_BY_KvarhJ,P_BY_KvarhF,P_BY_KvarhP,P_BY_KvarhG, P_BY_HKvarhZ,P_BY_HKvarhJ,P_BY_HKvarhF,P_BY_HKvarhP,P_BY_HKvarhG, P_SY_KwhZ,P_SY_KwhJ,P_SY_KwhF,P_SY_KwhP,P_SY_KwhG, P_SY_HKwhZ,P_SY_HKwhJ,P_SY_HKwhF,P_SY_HKwhP,P_SY_HKwhG, P_SY_KvarhZ,P_SY_KvarhJ,P_SY_KvarhF,P_SY_KvarhP,P_SY_KvarhG, P_SY_HKvarhZ,P_SY_HKvarhJ,P_SY_HKvarhF,P_SY_HKvarhP,P_SY_HKvarhG, P_SSY_KwhZ,P_SSY_KwhJ,P_SSY_KwhF,P_SSY_KwhP,P_SSY_KwhG, P_SSY_HKwhZ,P_SSY_HKwhJ,P_SSY_HKwhF,P_SSY_HKwhP,P_SSY_HKwhG, P_SSY_KvarhZ,P_SSY_KvarhJ,P_SSY_KvarhF,P_SSY_KvarhP,P_SSY_KvarhG, P_SSY_HKvarhZ,P_SSY_HKvarhJ,P_SSY_HKvarhF,P_SSY_HKvarhP,P_SSY_HKvarhG,P_CODE,P_TIME,P_ZXYGDN,P_FXYGDN,P_ZXWGDN,P_FXWGDN)values(238.765,239.002,239.492,413.7,414.306,414.046,0,1.44,0,160,240,0,400,0,0,0,240,240,320,0,480,0.496,0.698,0,0.873,50.195705,442,37.6,278.8,0,125.2,0,0,0,0,0,0.4,0,0.4,0,0,141.2,18.8,71.2,0,50.8,570.4,53.6,356,0,160,0,0,0,0,0,1.6,0,1.6,0,0,179.2,24,91.6,0,63.2,777.6,87.6,494.8,0,194.8,0,0,0,0,0,40.4,1.6,30.4,0,8,182.8,27.6,0,0,0,1,20171123011334,105.495,0,35.53,29.147)
写入成功读取完毕一个
write:02 03 00 38 00 34 C5 E3
02 03 68
243 6E D5 3F 43 6F 4A 3D 43 6F 99 DB 43 CE FA E1 43 CF 53 96 43 CF 27 2B 3F 99 99 9A 3F B8 51 EC 00 00 00 00 43 A0 00 00 43 70 00 00 43 20 00 00 44 34 00 00 00 00 00 00 43 20 00 00 00 00 00 00 00 00 00 00 43 A0 00 00 43 A0 00 00 43 70 00 00 44 48 00 00 3F 7D B2 2D 3F 4C 49 BA 3F 63 95 81 3F 7D 70 A4 42 48 42 EB
write:02 03 07 CF 00 78 74 90
02 03 F0
244 7B 66 66 42 DD 99 9A 44 14 00 00 00 00 00 00 43 97 66 66 00 00 00 00 00 00 00 00 00 00 00 00 00 00 00 00 00 00 00 00 41 D9 99 9A 40 B3 33 33 41 46 66 66 00 00 00 00 41 0C CC CD 42 29 99 9A 3F CC CC CD 41 F6 66 66 00 00 00 00 41 13 33 33 44 8E D9 9A 43 18 CC CD 44 1F E6 66 00 00 00 00 43 AF 00 00 00 00 00 00 00 00 00 00 00 00 00 00 00 00 00 00 00 00 00 00 42 21 99 9A 41 20 00 00 41 A9 99 9A 00 00 00 00 41 0C CC CD 42 30 00 00 40 4C CC CD 41 F3 33 33 00 00 00 00 41 19 99 9A 45 2F 66 66 43 E3 99 9A 44 DC 33 33 00 00 00 00 44 13 4C CD 00 00 00 00 00 00 00 00 00 00 00 00 00 00 00 00 00 00 00 00 44 77 E6 66 43 2E CC CD 44 24 B3 33 00 00 00 00 43 1D 99 9A 42 13 33 33 40 00 00 00 41 D9 99 9A 00 00 00 00 40 E6 D4 BF
write:02 03 01 0F 00 08 75 C0
02 03 10
200 03 3D 90 00 00 00 05 00 01 2F D1 00 00 C5 62
43 6E D5 3F
238.833
43 6F 4A 3D
239.29
43 6F 99 DB
239.601
43 CE FA E1
413.96
43 CF 53 96
414.653
43 CF 27 2B
414.306
3F 99 99 9A
1.2
3F B8 51 EC
1.44
00 00 00 00
0
43 A0 00 00
320
43 70 00 00
240
43 20 00 00
160
44 34 00 00
720
00 00 00 00
0
43 20 00 00
160
00 00 00 00
0
00 00 00 00
0
43 A0 00 00
320
43 A0 00 00
320
43 70 00 00
240
44 48 00 00
800
3F 7D B2 2D
0.991
3F 4C 49 BA
0.798
3F 63 95 81
0.889
3F 7D 70 A4
0.99
42 48 42 EB
50.06535
44 7B 66 66
1005.6
42 DD 99 9A
110.8
44 14 00 00
592
00 00 00 00
0
43 97 66 66
302.8
00 00 00 00
0
00 00 00 00
0
00 00 00 00
0
00 00 00 00
0
00 00 00 00
0
41 D9 99 9A
27.2
40 B3 33 33
5.6
41 46 66 66
12.4
00 00 00 00
0
41 0C CC CD
8.8
42 29 99 9A
42.4
3F CC CC CD
1.6
41 F6 66 66
30.8
00 00 00 00
0
41 13 33 33
9.2
44 8E D9 9A
1142.8
43 18 CC CD
152.8
44 1F E6 66
639.6
00 00 00 00
0
43 AF 00 00
350
00 00 00 00
0
00 00 00 00
0
00 00 00 00
0
00 00 00 00
0
00 00 00 00
0
42 21 99 9A
40.4
41 20 00 00
10
41 A9 99 9A
21.2
00 00 00 00
0
41 0C CC CD
8.8
42 30 00 00
44
40 4C CC CD
3.2
41 F3 33 33
30.4
00 00 00 00
0
41 19 99 9A
9.6
45 2F 66 66
2806.4
43 E3 99 9A
455.2
44 DC 33 33
1761.6
00 00 00 00
0
44 13 4C CD
589.2
00 00 00 00
0
00 00 00 00
0
00 00 00 00
0
00 00 00 00
0
00 00 00 00
0
44 77 E6 66
991.6
43 2E CC CD
174.8
44 24 B3 33
658.8
00 00 00 00
0
43 1D 99 9A
157.6
42 13 33 33
36.8
40 00 00 00
2
41 D9 99 9A
27.2
00 00 00 00
0
40 E6 D4 BF
7.21347
00 03 3D 90
212368
00 00 00 05
5
00 01 2F D1
77777
00 00 C5 62
50530
238.833239.29239.601413.96414.653414.3061.21.4403202401607200160003203202408000.9910.7980.8890.9950.065351005.6110.85920302.80000027.25.612.408.842.41.630.809.21142.8152.8639.603500000040.41021.208.8443.230.409.62806.4455.21761.60589.200000991.6174.8658.80157.636.8227.207.21347220171123011434212.3680.00577.77750.53insert into tbl_power_info_v2(P_A_DIANYA,P_B_DIANYA,P_C_DIANYA,P_UAB_XIANDIANYA,P_UBC_XIANDIANYA,P_UCA_XIANDIANYA,P_A_DIANLIU,P_B_DIANLIU,P_C_DIANLIU,P_A_YGGL,P_B_YGGL,P_C_YGGL,P_HXYGGL,P_A_WGGL,P_B_WGGL,P_C_WGGL,P_HXWGGL,P_A_SZGL,P_B_SZGL,P_C_SZGL,P_HXSZGL,P_A_GLYS,P_B_GLYS,P_C_GLYS,P_HXGLYS,P_DWPL,P_BY_KwhZ,P_BY_KwhJ,P_BY_KwhF,P_BY_KwhP,P_BY_KwhG,P_BY_HKwhZ,P_BY_HKwhJ,P_BY_HKwhF,P_BY_HKwhP,P_BY_HKwhG, P_BY_KvarhZ,P_BY_KvarhJ,P_BY_KvarhF,P_BY_KvarhP,P_BY_KvarhG, P_BY_HKvarhZ,P_BY_HKvarhJ,P_BY_HKvarhF,P_BY_HKvarhP,P_BY_HKvarhG, P_SY_KwhZ,P_SY_KwhJ,P_SY_KwhF,P_SY_KwhP,P_SY_KwhG, P_SY_HKwhZ,P_SY_HKwhJ,P_SY_HKwhF,P_SY_HKwhP,P_SY_HKwhG, P_SY_KvarhZ,P_SY_KvarhJ,P_SY_KvarhF,P_SY_KvarhP,P_SY_KvarhG, P_SY_HKvarhZ,P_SY_HKvarhJ,P_SY_HKvarhF,P_SY_HKvarhP,P_SY_HKvarhG, P_SSY_KwhZ,P_SSY_KwhJ,P_SSY_KwhF,P_SSY_KwhP,P_SSY_KwhG, P_SSY_HKwhZ,P_SSY_HKwhJ,P_SSY_HKwhF,P_SSY_HKwhP,P_SSY_HKwhG, P_SSY_KvarhZ,P_SSY_KvarhJ,P_SSY_KvarhF,P_SSY_KvarhP,P_SSY_KvarhG, P_SSY_HKvarhZ,P_SSY_HKvarhJ,P_SSY_HKvarhF,P_SSY_HKvarhP,P_SSY_HKvarhG,P_CODE,P_TIME,P_ZXYGDN,P_FXYGDN,P_ZXWGDN,P_FXWGDN)values(238.833,239.29,239.601,413.96,414.653,414.306,1.2,1.44,0,320,240,160,720,0,160,0,0,320,320,240,800,0.991,0.798,0.889,0.99,50.06535,1005.6,110.8,592,0,302.8,0,0,0,0,0,27.2,5.6,12.4,0,8.8,42.4,1.6,30.8,0,9.2,1142.8,152.8,639.6,0,350,0,0,0,0,0,40.4,10,21.2,0,8.8,44,3.2,30.4,0,9.6,2806.4,455.2,1761.6,0,589.2,0,0,0,0,0,991.6,174.8,658.8,0,157.6,36.8,2,27.2,0,7.21347,2,20171123011434,212.368,0.005,77.777,50.53)
写入成功读取完毕一个
write:03 03 00 38 00 34 C4 32
03 03 68
343 6F 4E 56 43 6F 81 48 43 70 01 CB 43 CF 53 75 43 CF A1 27 43 CF 8B 02 00 00 00 00 3F 21 47 AE 00 00 00 00 00 00 00 00 43 16 00 00 00 00 00 00 43 34 00 00 00 00 00 00 00 00 00 00 00 00 00 00 00 00 00 00 00 00 00 00 00 00 00 00 00 00 00 00 00 00 00 00 00 00 00 00 00 00 00 00 00 00 00 00 00 00 00 00 00 00 00 00
00 00 00
heart:00 00 00 00 00 00 00 00 00 00 00 00 00 00 00 00 42 70 00 00 43 16 00 00 00 00 00 00 43 34 00 00 3F 2B 02 0C 3F 72 B0 21 00 00 00 00 3F 80 00 00 42 48 A4 D0
write:03 03 07 CF 00 78 75 41
03 03 F0
343 A5 AC CD 42 84 99 9A 43 37 99 9A 00 00 00 00 42 A2 99 9A 00 00 00 00 00 00 00 00 00 00 00 00 00 00 00 00 00 00 00 00 42 8C 66 66 41 5F 33 33 42 00 00 00 00 00 00 00 00 00 00 00 00 00 00 00 00 00 00 00 00 00 00 00 00 00 00 00 00 00 00 00 00 00 00 00 00 00 00 00 00 00 00 00 00 00 00 00 00 00 00 00 00 00 00 00 00 00 00 00 00 00 00 00 00 00 00 00 00 00 00 00 00 00 00 00 00 00 00 00 00 00 00 00 00 00 00 00 00 00 00 00 00 00 00 00 00 00 00 00 00 00 00 00 00 00 00 00 00 00 00 00 00 00 00 00 00 00 00 00 00 00 00 00 00 00 00 00 00 00 00 00 00 00 00 00 00 00 00 00 00 00 00 00 00 00 00 00 00 00 00 00 00 00 00 00 00 00 00 00 00 00 00 00 00 00 00 00 00 00 00 00 00 00 00 00 00 00 00 00 00 00 00 00 00 00 00 00 00 00 00 00
35 33 33
heart:35 33 33 00 00 00 00 41 2C CC CD 40 66 66 66 3F 40 00 00 40 23 33 33 00 00 00 00 3E 19 99 9A 43 EF 2C CD 42 F0 00 00 43 7D 33 33 00 00 00 00 42 D1 B3 33 00 00 00 00 00 00 00 00 00 00 00 00 00 00 00 00 00 00 00 00 42 9C E6 66 40 E6 66 66 42 5B 99 9A 00 00 00 00 41 80 66 66 41 68 CC CD 40 A8 00 00 40 F9 99 9A 00 00 00 00 3F AC CC CD 43 D8 60 00 42 B5 80 00 43 81 86 66 00 00 00 00 42 A5 99 9A 00 00 00 00 00 00 00 00 00 00 00 00 00 00 00 00 00 00 00 00 42 F7 CC CD 41 90 00 00 42 A5 99 9A 00 00 00 00 41 B8 CC CD 40 EB 33 33 40 06 66 66 40 53 33 33 00 00 00 00 3F E6 98 5F
write:03 03 01 0F 00 08 74 11
03 03 10
300 00 BD 11 00 00 00 00 00 00 25 8A 00 00 48 D6
43 6F 4E 56
239.306
43 6F 81 48
239.505
43 70 01 CB
240.007
43 CF 53 75
414.652
43 CF A1 27
415.259
43 CF 8B 02
415.086
00 00 00 00
0
3F 21 47 AE
0.63
00 00 00 00
0
00 00 00 00
0
43 16 00 00
150
00 00 00 00
0
43 34 00 00
180
00 00 00 00
0
00 00 00 00
0
00 00 00 00
0
00 00 00 00
0
00 00 00 00
0
00 00 00 00
0
00 00 00 00
0
00 00 00 00
0
00 00 00 00
0
00 00 00 00
0
00 00 00 00
0
00 00 00 00
0
00 00 00 00
0
43 A5 AC CD
331.35
42 84 99 9A
66.3
43 37 99 9A
183.6
00 00 00 00
0
42 A2 99 9A
81.3
00 00 00 00
0
00 00 00 00
0
00 00 00 00
0
00 00 00 00
0
00 00 00 00
0
42 8C 66 66
70.2
41 5F 33 33
13.95
42 00 00 00
32
00 00 00 00
0
00 00 00 00
0
00 00 00 00
0
00 00 00 00
0
00 00 00 00
0
00 00 00 00
0
00 00 00 00
0
00 00 00 00
0
00 00 00 00
0
00 00 00 00
0
00 00 00 00
0
00 00 00 00
0
00 00 00 00
0
00 00 00 00
0
00 00 00 00
0
00 00 00 00
0
00 00 00 00
0
00 00 00 00
0
00 00 00 00
0
00 00 00 00
0
00 00 00 00
0
00 00 00 00
0
00 00 00 00
0
00 00 00 00
0
00 00 00 00
0
00 00 00 00
0
00 00 00 00
0
00 00 00 00
0
00 00 00 00
0
00 00 00 00
0
00 00 00 00
0
00 00 00 00
0
00 00 00 00
0
00 00 00 00
0
00 00 00 00
0
00 00 00 00
0
00 00 00 00
0
00 00 00 00
0
00 00 00 00
0
00 00 00 00
0
00 00 00 00
0
00 00 00 00
0
00 00 00 00
0
00 00 00 00
0
00 00 00 00
0
00 00 00 00
0
00 00 00 00
0
00 00 BD 11
48401
00 00 00 00
0
00 00 25 8A
9610
00 00 48 D6
18646
239.306239.505240.007414.652415.259415.08600.630015001800000000000000331.3566.3183.6081.30000070.213.95320000000000000000000000000000000000000000000000032017112301153448.40109.6118.646insert into tbl_power_info_v2(P_A_DIANYA,P_B_DIANYA,P_C_DIANYA,P_UAB_XIANDIANYA,P_UBC_XIANDIANYA,P_UCA_XIANDIANYA,P_A_DIANLIU,P_B_DIANLIU,P_C_DIANLIU,P_A_YGGL,P_B_YGGL,P_C_YGGL,P_HXYGGL,P_A_WGGL,P_B_WGGL,P_C_WGGL,P_HXWGGL,P_A_SZGL,P_B_SZGL,P_C_SZGL,P_HXSZGL,P_A_GLYS,P_B_GLYS,P_C_GLYS,P_HXGLYS,P_DWPL,P_BY_KwhZ,P_BY_KwhJ,P_BY_KwhF,P_BY_KwhP,P_BY_KwhG,P_BY_HKwhZ,P_BY_HKwhJ,P_BY_HKwhF,P_BY_HKwhP,P_BY_HKwhG, P_BY_KvarhZ,P_BY_KvarhJ,P_BY_KvarhF,P_BY_KvarhP,P_BY_KvarhG, P_BY_HKvarhZ,P_BY_HKvarhJ,P_BY_HKvarhF,P_BY_HKvarhP,P_BY_HKvarhG, P_SY_KwhZ,P_SY_KwhJ,P_SY_KwhF,P_SY_KwhP,P_SY_KwhG, P_SY_HKwhZ,P_SY_HKwhJ,P_SY_HKwhF,P_SY_HKwhP,P_SY_HKwhG, P_SY_KvarhZ,P_SY_KvarhJ,P_SY_KvarhF,P_SY_KvarhP,P_SY_KvarhG, P_SY_HKvarhZ,P_SY_HKvarhJ,P_SY_HKvarhF,P_SY_HKvarhP,P_SY_HKvarhG, P_SSY_KwhZ,P_SSY_KwhJ,P_SSY_KwhF,P_SSY_KwhP,P_SSY_KwhG, P_SSY_HKwhZ,P_SSY_HKwhJ,P_SSY_HKwhF,P_SSY_HKwhP,P_SSY_HKwhG, P_SSY_KvarhZ,P_SSY_KvarhJ,P_SSY_KvarhF,P_SSY_KvarhP,P_SSY_KvarhG, P_SSY_HKvarhZ,P_SSY_HKvarhJ,P_SSY_HKvarhF,P_SSY_HKvarhP,P_SSY_HKvarhG,P_CODE,P_TIME,P_ZXYGDN,P_FXYGDN,P_ZXWGDN,P_FXWGDN)values(239.306,239.505,240.007,414.652,415.259,415.086,0,0.63,0,0,150,0,180,0,0,0,0,0,0,0,0,0,0,0,0,0,331.35,66.3,183.6,0,81.3,0,0,0,0,0,70.2,13.95,32,0,0,0,0,0,0,0,0,0,0,0,0,0,0,0,0,0,0,0,0,0,0,0,0,0,0,0,0,0,0,0,0,0,0,0,0,0,0,0,0,0,0,0,0,0,0,0,3,20171123011534,48.401,0,9.61,18.646)
写入成功读取完毕一个
write:04 03 00 38 00 34 C5 85
04 03 68
443 6F 0E 98 43 6F 3B 64 43 6F 28 F6 43 CF 11 06 43 CF 1C 08 43 CF 05 E3 3F 4C CC CD 00 00 00 00 3F 42 8F 5C 42 A0 00 00 00 00 00 00 42 F0 00 00 43 8C 00 00 00 00 00 00 00 00 00 00 42 F0 00 00 42 F0 00 00 43 48 00 00 42 A0 00 00 43 48 00 00 43 A0 00 00 3F 00 C4 9C 3F 19 16 87 3F 30 A3 D7 3F 6C 08 31 42 48 64 EA
write:04 03 07 CF 00 78 74 F6
04 03 F0
444 11 40 00 42 F6 00 00 43 A5 80 00 00 00 00 00 42 FD 99 9A 00 00 00 00 00 00 00 00 00 00 00 00 00 00 00 00 00 00 00 00 40 AC CC CD 3E 4C CC CD 3F B3 33 33 00 00 00 00 40 66 66 66 42 6D 99 9A 41 46 66 66 41 EB 33 33 00 00 00 00 41 8B 33 33 44 1B 00 00 42 CE CC CD 43 AE 00 00 00 00 00 00 43 28 66 66 00 00 00 00 00 00 00 00 00 00 00 00 00 00 00 00 00 00 00 00 41 B0 00 00 40 26 66 66 40 C0 00 00 00 00 00 00 41 53 33 33 42 48 CC CD 41 06 66 66 41 D0 00 00 00 00 00 00 41 76 66 66 44 21 8C CD 42 DE CC CD 43 B0 99 9A 00 00 00 00 43 35 33 33 00 00 00 00 00 00 00 00 00 00 00 00 00 00 00 00 00 00 00 00 41 E8 00 00 40 B9 99 9A 40 E0 00 00 00 00 00 00 41 81 99 9A 42 14 CC CD 40 8C CC CD 41 9B 33 33 00 00 00 00 41 50 F0 C1
write:04 03 01 0F 00 08 75 A6
04 03 10
400 02 8A 54 00 00 00 00 00 00 42 2D 00 00 A5 F1
43 6F 0E 98
239.057
43 6F 3B 64
239.232
43 6F 28 F6
239.16
43 CF 11 06
414.133
43 CF 1C 08
414.219
43 CF 05 E3
414.046
3F 4C CC CD
0.8
00 00 00 00
0
3F 42 8F 5C
0.76
42 A0 00 00
80
00 00 00 00
0
42 F0 00 00
120
43 8C 00 00
280
00 00 00 00
0
00 00 00 00
0
42 F0 00 00
120
42 F0 00 00
120
43 48 00 00
200
42 A0 00 00
80
43 48 00 00
200
43 A0 00 00
320
3F 00 C4 9C
0.503
3F 19 16 87
0.598
3F 30 A3 D7
0.69
3F 6C 08 31
0.922
42 48 64 EA
50.09855
44 11 40 00
581
42 F6 00 00
123
43 A5 80 00
331
00 00 00 00
0
42 FD 99 9A
126.8
00 00 00 00
0
00 00 00 00
0
00 00 00 00
0
00 00 00 00
0
00 00 00 00
0
40 AC CC CD
5.4
3E 4C CC CD
0.2
3F B3 33 33
1.4
00 00 00 00
0
40 66 66 66
3.6
42 6D 99 9A
59.4
41 46 66 66
12.4
41 EB 33 33
29.4
00 00 00 00
0
41 8B 33 33
17.4
44 1B 00 00
620
42 CE CC CD
103.4
43 AE 00 00
348
00 00 00 00
0
43 28 66 66
168.4
00 00 00 00
0
00 00 00 00
0
00 00 00 00
0
00 00 00 00
0
00 00 00 00
0
41 B0 00 00
22
40 26 66 66
2.6
40 C0 00 00
6
00 00 00 00
0
41 53 33 33
13.2
42 48 CC CD
50.2
41 06 66 66
8.4
41 D0 00 00
26
00 00 00 00
0
41 76 66 66
15.4
44 21 8C CD
646.2
42 DE CC CD
111.4
43 B0 99 9A
353.2
00 00 00 00
0
43 35 33 33
181.2
00 00 00 00
0
00 00 00 00
0
00 00 00 00
0
00 00 00 00
0
00 00 00 00
0
41 E8 00 00
29
40 B9 99 9A
5.8
40 E0 00 00
7
00 00 00 00
0
41 81 99 9A
16.2
42 14 CC CD
37.2
40 8C CC CD
4.4
41 9B 33 33
19.4
00 00 00 00
0
41 50 F0 C1
13.058778
00 02 8A 54
166484
00 00 00 00
0
00 00 42 2D
16941
00 00 A5 F1
42481
239.057239.232239.16414.133414.219414.0460.800.7680012028000120120200802003200.5030.5980.690.92250.098555811233310126.8000005.40.21.403.659.412.429.4017.4620103.43480168.400000222.66013.250.28.426015.4646.2111.4353.20181.200000295.87016.237.24.419.4013.058778420171123011634166.484016.94142.481insert into tbl_power_info_v2(P_A_DIANYA,P_B_DIANYA,P_C_DIANYA,P_UAB_XIANDIANYA,P_UBC_XIANDIANYA,P_UCA_XIANDIANYA,P_A_DIANLIU,P_B_DIANLIU,P_C_DIANLIU,P_A_YGGL,P_B_YGGL,P_C_YGGL,P_HXYGGL,P_A_WGGL,P_B_WGGL,P_C_WGGL,P_HXWGGL,P_A_SZGL,P_B_SZGL,P_C_SZGL,P_HXSZGL,P_A_GLYS,P_B_GLYS,P_C_GLYS,P_HXGLYS,P_DWPL,P_BY_KwhZ,P_BY_KwhJ,P_BY_KwhF,P_BY_KwhP,P_BY_KwhG,P_BY_HKwhZ,P_BY_HKwhJ,P_BY_HKwhF,P_BY_HKwhP,P_BY_HKwhG, P_BY_KvarhZ,P_BY_KvarhJ,P_BY_KvarhF,P_BY_KvarhP,P_BY_KvarhG, P_BY_HKvarhZ,P_BY_HKvarhJ,P_BY_HKvarhF,P_BY_HKvarhP,P_BY_HKvarhG, P_SY_KwhZ,P_SY_KwhJ,P_SY_KwhF,P_SY_KwhP,P_SY_KwhG, P_SY_HKwhZ,P_SY_HKwhJ,P_SY_HKwhF,P_SY_HKwhP,P_SY_HKwhG, P_SY_KvarhZ,P_SY_KvarhJ,P_SY_KvarhF,P_SY_KvarhP,P_SY_KvarhG, P_SY_HKvarhZ,P_SY_HKvarhJ,P_SY_HKvarhF,P_SY_HKvarhP,P_SY_HKvarhG, P_SSY_KwhZ,P_SSY_KwhJ,P_SSY_KwhF,P_SSY_KwhP,P_SSY_KwhG, P_SSY_HKwhZ,P_SSY_HKwhJ,P_SSY_HKwhF,P_SSY_HKwhP,P_SSY_HKwhG, P_SSY_KvarhZ,P_SSY_KvarhJ,P_SSY_KvarhF,P_SSY_KvarhP,P_SSY_KvarhG, P_SSY_HKvarhZ,P_SSY_HKvarhJ,P_SSY_HKvarhF,P_SSY_HKvarhP,P_SSY_HKvarhG,P_CODE,P_TIME,P_ZXYGDN,P_FXYGDN,P_ZXWGDN,P_FXWGDN)values(239.057,239.232,239.16,414.133,414.219,414.046,0.8,0,0.76,80,0,120,280,0,0,120,120,200,80,200,320,0.503,0.598,0.69,0.922,50.09855,581,123,331,0,126.8,0,0,0,0,0,5.4,0.2,1.4,0,3.6,59.4,12.4,29.4,0,17.4,620,103.4,348,0,168.4,0,0,0,0,0,22,2.6,6,0,13.2,50.2,8.4,26,0,15.4,646.2,111.4,353.2,0,181.2,0,0,0,0,0,29,5.8,7,0,16.2,37.2,4.4,19.4,0,13.058778,4,20171123011634,166.484,0,16.941,42.481)
写入成功读取完毕一个
write:05 03 00 38 00 34 C4 54
05 03 68
543 6F 81 89 43 6F AF 1B 43 70 12 F2 43 CF 74 BC 43 CF AC 29 43 CF A1 27 40 11 EB 85 3F 4C CC CD 3F A3 D7 0A 43 A0 00 00 42 F0 00 00 43 48 00 00 44 20 00 00 42 F0 00 00 00 00 00 00 42 F0 00 00 43 8C 00 00 44 0C 00 00 43 48 00 00 43 A0 00 00 44 2A 00 00 3F 1A 5E 35 3F 10 A3 D7 3F 24 9B A6 3F 68 B4 39 42 48 37 6E
write:05 03 07 CF 00 78 75 27
05 03 F0
544 9A A0 00 43 95 E6 66 44 2B 59 9A 00 00 00 00 43 7B 99 9A 00 00 00 00 00 00 00 00 00 00 00 00 00 00 00 00 00 00 00 00 00 00 00 00 00 00 00 00 00 00 00 00 00 00 00 00 00 00 00 00 43 3D 99 9A 42 28 CC CD 42 B8 00 00 00 00 00 00 42 5C CC CD 44 C1 06 66 43 AF 99 9A 44 5A 00 00 00 00 00 00 43 A0 66 66 00 00 00 00 00 00 00 00 00 00 00 00 00 00 00 00 00 00 00 00 3F CC CC CD 3F 19 99 9A 3F 4C CC CD 00 00 00 00 00 00 00 00 43 6F 99 9A 42 50 00 00 42 E7 33 33 00 00 00 00 42 8F 99 9A 44 D5 93 33 43 A4 B3 33 44 7E 19 9A 00 00 00 00 43 B5 33 33 00 00 00 00 00 00 00 00 00 00 00 00 00 00 00 00 00 00 00 00 00 00 00 00 00 00 00 00 00 00 00 00 00 00 00 00 00 00 00 00 00 00 00 00 00 00 00 00 00 00 00 00 00 00 00 00 00 00 00 00
00 00 00
heart:00 00 00 00 00 00 00 00 42 A8 66 66 41 9B 33 33 42 69 99 9A 00 00 00 00 40 CC CC CD 43 26 33 33 41 FE 66 66 42 9E CC CD 00 00 00 00 42 5B 70 A5
write:05 03 01 0F 00 08 74 77
05 03 10
500 08 72 33 00 00 00 00 00 00 D9 A8 00 00 F8 61
43 6F 81 89
239.506
43 6F AF 1B
239.684
43 70 12 F2
240.074
43 CF 74 BC
414.912
43 CF AC 29
415.345
43 CF A1 27
415.259
40 11 EB 85
2.28
3F 4C CC CD
0.8
3F A3 D7 0A
1.28
43 A0 00 00
320
42 F0 00 00
120
43 48 00 00
200
44 20 00 00
640
42 F0 00 00
120
00 00 00 00
0
42 F0 00 00
120
43 8C 00 00
280
44 0C 00 00
560
43 48 00 00
200
43 A0 00 00
320
44 2A 00 00
680
3F 1A 5E 35
0.603
3F 10 A3 D7
0.565
3F 24 9B A6
0.643
3F 68 B4 39
0.909
42 48 37 6E
50.05413
44 9A A0 00
1237
43 95 E6 66
299.8
44 2B 59 9A
685.4
00 00 00 00
0
43 7B 99 9A
251.6
00 00 00 00
0
00 00 00 00
0
00 00 00 00
0
00 00 00 00
0
00 00 00 00
0
00 00 00 00
0
00 00 00 00
0
00 00 00 00
0
00 00 00 00
0
00 00 00 00
0
43 3D 99 9A
189.6
42 28 CC CD
42.2
42 B8 00 00
92
00 00 00 00
0
42 5C CC CD
55.2
44 C1 06 66
1544.2
43 AF 99 9A
351.2
44 5A 00 00
872
00 00 00 00
0
43 A0 66 66
320.8
00 00 00 00
0
00 00 00 00
0
00 00 00 00
0
00 00 00 00
0
00 00 00 00
0
3F CC CC CD
1.6
3F 19 99 9A
0.6
3F 4C CC CD
0.8
00 00 00 00
0
00 00 00 00
0
43 6F 99 9A
239.6
42 50 00 00
52
42 E7 33 33
115.6
00 00 00 00
0
42 8F 99 9A
71.8
44 D5 93 33
1708.6
43 A4 B3 33
329.4
44 7E 19 9A
1016.4
00 00 00 00
0
43 B5 33 33
362.4
00 00 00 00
0
00 00 00 00
0
00 00 00 00
0
00 00 00 00
0
00 00 00 00
0
00 00 00 00
0
00 00 00 00
0
00 00 00 00
0
00 00 00 00
0
00 00 00 00
0
00 00 00 00
0
00 00 00 00
0
00 00 00 00
0
00 00 00 00
0
00 00 00 00
0
00 08 72 33
553523
00 00 00 00
0
00 00 D9 A8
55720
00 00 F8 61
63585
239.506239.684240.074414.912415.345415.2592.280.81.2832012020064012001202805602003206800.6030.5650.6430.90950.054131237299.8685.40251.60000000000189.642.292055.21544.2351.28720320.8000001.60.60.800239.652115.6071.81708.6329.41016.40362.4000000000000000520171123011734553.523055.7263.585insert into tbl_power_info_v2(P_A_DIANYA,P_B_DIANYA,P_C_DIANYA,P_UAB_XIANDIANYA,P_UBC_XIANDIANYA,P_UCA_XIANDIANYA,P_A_DIANLIU,P_B_DIANLIU,P_C_DIANLIU,P_A_YGGL,P_B_YGGL,P_C_YGGL,P_HXYGGL,P_A_WGGL,P_B_WGGL,P_C_WGGL,P_HXWGGL,P_A_SZGL,P_B_SZGL,P_C_SZGL,P_HXSZGL,P_A_GLYS,P_B_GLYS,P_C_GLYS,P_HXGLYS,P_DWPL,P_BY_KwhZ,P_BY_KwhJ,P_BY_KwhF,P_BY_KwhP,P_BY_KwhG,P_BY_HKwhZ,P_BY_HKwhJ,P_BY_HKwhF,P_BY_HKwhP,P_BY_HKwhG, P_BY_KvarhZ,P_BY_KvarhJ,P_BY_KvarhF,P_BY_KvarhP,P_BY_KvarhG, P_BY_HKvarhZ,P_BY_HKvarhJ,P_BY_HKvarhF,P_BY_HKvarhP,P_BY_HKvarhG, P_SY_KwhZ,P_SY_KwhJ,P_SY_KwhF,P_SY_KwhP,P_SY_KwhG, P_SY_HKwhZ,P_SY_HKwhJ,P_SY_HKwhF,P_SY_HKwhP,P_SY_HKwhG, P_SY_KvarhZ,P_SY_KvarhJ,P_SY_KvarhF,P_SY_KvarhP,P_SY_KvarhG, P_SY_HKvarhZ,P_SY_HKvarhJ,P_SY_HKvarhF,P_SY_HKvarhP,P_SY_HKvarhG, P_SSY_KwhZ,P_SSY_KwhJ,P_SSY_KwhF,P_SSY_KwhP,P_SSY_KwhG, P_SSY_HKwhZ,P_SSY_HKwhJ,P_SSY_HKwhF,P_SSY_HKwhP,P_SSY_HKwhG, P_SSY_KvarhZ,P_SSY_KvarhJ,P_SSY_KvarhF,P_SSY_KvarhP,P_SSY_KvarhG, P_SSY_HKvarhZ,P_SSY_HKvarhJ,P_SSY_HKvarhF,P_SSY_HKvarhP,P_SSY_HKvarhG,P_CODE,P_TIME,P_ZXYGDN,P_FXYGDN,P_ZXWGDN,P_FXWGDN)values(239.506,239.684,240.074,414.912,415.345,415.259,2.28,0.8,1.28,320,120,200,640,120,0,120,280,560,200,320,680,0.603,0.565,0.643,0.909,50.05413,1237,299.8,685.4,0,251.6,0,0,0,0,0,0,0,0,0,0,189.6,42.2,92,0,55.2,1544.2,351.2,872,0,320.8,0,0,0,0,0,1.6,0.6,0.8,0,0,239.6,52,115.6,0,71.8,1708.6,329.4,1016.4,0,362.4,0,0,0,0,0,0,0,0,0,0,0,0,0,0,0,5,20171123011734,553.523,0,55.72,63.585)
写入成功读取完毕一个
write:06 03 00 38 00 34 C4 67
06 03 68
643 6E EF 1B 43 6F 03 54 43 6F 66 25 43 CE EF BE 43 CF 1C 08 43 CF 11 06 40 47 AE 14 3F 4C CC CD 3F C2 8F 5C 43 DC 00 00 42 F0 00 00 43 70 00 00 44 48 00 00 43 48 00 00 00 00 00 00 00 00 00 00 43 48 00 00 44 3E 00 00 43 48 00 00 43 B4 00 00 44 48 00 00 3F 17 0A 3D 3F 16 87 2B 3F 22 4D D3 3F 78 51 EC 42 47 EE 49
write:06 03 07 CF 00 78 75 14
06 03 F0
644 B4 B3 33 43 8E 99 9A 44 55 B3 33 00 00 00 00 43 98 B3 33 00 00 00 00 00 00 00 00 00 00 00 00 00 00 00 00 00 00 00 00 3F B3 33 33 00 00 00 00 3F 80 00 00 00 00 00 00 3E 4C CC CD 43 07 33 33 41 D1 99 9A 42 7E 66 66 00 00 00 00 42 34 00 00 44 F8 A6 66 43 BF 33 33 44 93 80 00 00 00 00 00 43 D5 4C CD 00 00 00 00 00 00 00 00 00 00 00 00 00 00 00 00 00 00 00 00 40 C6 66 66 3E CC CC CD 40 A0 00 00 00 00 00 00 3F 19 99 9A 43 47 99 9A 42 16 66 66 42 BB 99 9A 00 00 00 00 42 88 00 00 45 15 00 00 43 EA 66 66 44 AC 53 33 00 00 00 00 44 06 0C CD 00 00 00 00 00 00 00 00 00 00 00 00 00 00 00 00 00 00 00 00 41 53 33 33 40 66 66 66 40 CC CC CD 00 00 00 00 40 40 00 00 43 38 33 33 42 10 00 00 42 A8 CC CD 00 00 00 00 42 7D 17 E1
write:06 03 01 0F 00 08 74 44
06 03 10
600 0B 18 FA 00 00 00 00 00 00 17 8F 00 00 7D 02
43 6E EF 1B
238.934
43 6F 03 54
239.013
43 6F 66 25
239.399
43 CE EF BE
413.873
43 CF 1C 08
414.219
43 CF 11 06
414.133
40 47 AE 14
3.12
3F 4C CC CD
0.8
3F C2 8F 5C
1.52
43 DC 00 00
440
42 F0 00 00
120
43 70 00 00
240
44 48 00 00
800
43 48 00 00
200
00 00 00 00
0
00 00 00 00
0
43 48 00 00
200
44 3E 00 00
760
43 48 00 00
200
43 B4 00 00
360
44 48 00 00
800
3F 17 0A 3D
0.59
3F 16 87 2B
0.588
3F 22 4D D3
0.634
3F 78 51 EC
0.97
42 47 EE 49
49.9827
44 B4 B3 33
1445.6
43 8E 99 9A
285.2
44 55 B3 33
854.8
00 00 00 00
0
43 98 B3 33
305.4
00 00 00 00
0
00 00 00 00
0
00 00 00 00
0
00 00 00 00
0
00 00 00 00
0
3F B3 33 33
1.4
00 00 00 00
0
3F 80 00 00
1
00 00 00 00
0
3E 4C CC CD
0.2
43 07 33 33
135.2
41 D1 99 9A
26.2
42 7E 66 66
63.6
00 00 00 00
0
42 34 00 00
45
44 F8 A6 66
1989.2
43 BF 33 33
382.4
44 93 80 00
1180
00 00 00 00
0
43 D5 4C CD
426.6
00 00 00 00
0
00 00 00 00
0
00 00 00 00
0
00 00 00 00
0
00 00 00 00
0
40 C6 66 66
6.2
3E CC CC CD
0.4
40 A0 00 00
5
00 00 00 00
0
3F 19 99 9A
0.6
43 47 99 9A
199.6
42 16 66 66
37.6
42 BB 99 9A
93.8
00 00 00 00
0
42 88 00 00
68
45 15 00 00
2384
43 EA 66 66
468.8
44 AC 53 33
1378.6
00 00 00 00
0
44 06 0C CD
536.2
00 00 00 00
0
00 00 00 00
0
00 00 00 00
0
00 00 00 00
0
00 00 00 00
0
41 53 33 33
13.2
40 66 66 66
3.6
40 CC CC CD
6.4
00 00 00 00
0
40 40 00 00
3
43 38 33 33
184.2
42 10 00 00
36
42 A8 CC CD
84.4
00 00 00 00
0
42 7D 17 E1
63.27332
00 0B 18 FA
727290
00 00 00 00
0
00 00 17 8F
6031
00 00 7D 02
32002
