Listening on :6005
received messag ?->? 
 124.160.213.91:4439 172.16.246.153:6005
34 30 36
heart:34 30 36 36 32 33 30 31 30 31 30 35 30 32
write:01 03 00 38 00 34 C5 D0
01 03 68
143 69 38 10 43 69 27 AE 43 68 B3 75 43 C9 E9 DB 43 C9 B2 6F 43 C9 BD 91 40 D9 99 9A 40 66 66 66 00 00 00 00 44 82 00 00 44 0C 00 00 00 00 00 00 44 C8 00 00 43 A0 00 00 00 00 00 00 00 00 00 00 43 F0 00 00 44 C8 00 00 44 48 00 00 00 00 00 00 44 D2 00 00 3F 2B C6 A8 3F 23 95 81 00 00 00 00 3F 76 C8 B4 42 47 16 AA
write:01 03 07 CF 00 78 74 A3
01 03 F0
143 E1 CC CD 42 16 66 66 43 8D 99 9A 00 00 00 00 43 02 66 66 00 00 00 00 00 00 00 00 00 00 00 00 00 00 00 00 00 00 00 00 3E CC CC CD 00 00 00 00 3E CC CC CD 00 00 00 00 00 00 00 00 43 10 66 66 41 96 66 66 42 90 CC CD 00 00 00 00 42 53 33 33 44 0E 99 9A 42 56 66 66 43 B2 00 00 00 00 00 00 43 20 00 00 00 00 00 00 00 00 00 00 00 00 00 00 00 00 00 00 00 00 00 00 3F CC CC CD 00 00 00 00 3F CC CC CD 00 00 00 00 00 00 00 00 43 33 33 33 41 C0 00 00 42 B7 33 33 00 00 00 00 42 7C CC CD 44 42 66 66 42 AF 33 33 43 F7 66 66 00 00 00 00 43 42 CC CD 00 00 00 00 00 00 00 00 00 00 00 00 00 00 00 00 00 00 00 00 42 21 99 9A 3F CC CC CD 41 F3 33 33 00 00 00 00 41 00 00 00 43 36 CC CD 41 DC CC CD 42 BE 66 66 00 00 00 00 42 6E 36 32
write:01 03 01 0F 00 08 75 F3
01 03 10
100 01 9C 90 00 00 00 00 00 00 8A CA 00 00 C2 6D
43 69 38 10
233.219
43 69 27 AE
233.155
43 68 B3 75
232.701
43 C9 E9 DB
403.827
43 C9 B2 6F
403.394
43 C9 BD 91
403.481
40 D9 99 9A
6.8
40 66 66 66
3.6
00 00 00 00
0
44 82 00 00
1040
44 0C 00 00
560
00 00 00 00
0
44 C8 00 00
1600
43 A0 00 00
320
00 00 00 00
0
00 00 00 00
0
43 F0 00 00
480
44 C8 00 00
1600
44 48 00 00
800
00 00 00 00
0
44 D2 00 00
1680
3F 2B C6 A8
0.671
3F 23 95 81
0.639
00 00 00 00
0
3F 76 C8 B4
0.964
42 47 16 AA
49.772133
43 E1 CC CD
451.6
42 16 66 66
37.6
43 8D 99 9A
283.2
00 00 00 00
0
43 02 66 66
130.4
00 00 00 00
0
00 00 00 00
0
00 00 00 00
0
00 00 00 00
0
00 00 00 00
0
3E CC CC CD
0.4
00 00 00 00
0
3E CC CC CD
0.4
00 00 00 00
0
00 00 00 00
0
43 10 66 66
144.4
41 96 66 66
18.8
42 90 CC CD
72.4
00 00 00 00
0
42 53 33 33
52.8
44 0E 99 9A
570.4
42 56 66 66
53.6
43 B2 00 00
356
00 00 00 00
0
43 20 00 00
160
00 00 00 00
0
00 00 00 00
0
00 00 00 00
0
00 00 00 00
0
00 00 00 00
0
3F CC CC CD
1.6
00 00 00 00
0
3F CC CC CD
1.6
00 00 00 00
0
00 00 00 00
0
43 33 33 33
179.2
41 C0 00 00
24
42 B7 33 33
91.6
00 00 00 00
0
42 7C CC CD
63.2
44 42 66 66
777.6
42 AF 33 33
87.6
43 F7 66 66
494.8
00 00 00 00
0
43 42 CC CD
194.8
00 00 00 00
0
00 00 00 00
0
00 00 00 00
0
00 00 00 00
0
00 00 00 00
0
42 21 99 9A
40.4
3F CC CC CD
1.6
41 F3 33 33
30.4
00 00 00 00
0
41 00 00 00
8
43 36 CC CD
182.8
41 DC CC CD
27.6
42 BE 66 66
95.2
00 00 00 00
0
42 6E 36 32
59.552925
00 01 9C 90
105616
00 00 00 00
0
00 00 8A CA
35530
00 00 C2 6D
49773
233.219233.155232.701403.827403.394403.4816.83.60104056001600320004801600800016800.6710.63900.96449.772133451.637.6283.20130.4000000.400.400144.418.872.4052.8570.453.63560160000001.601.600179.22491.6063.2777.687.6494.80194.80000040.41.630.408182.827.695.2059.552925120171123132512105.616035.5349.773insert into tbl_power_info_v2(P_A_DIANYA,P_B_DIANYA,P_C_DIANYA,P_UAB_XIANDIANYA,P_UBC_XIANDIANYA,P_UCA_XIANDIANYA,P_A_DIANLIU,P_B_DIANLIU,P_C_DIANLIU,P_A_YGGL,P_B_YGGL,P_C_YGGL,P_HXYGGL,P_A_WGGL,P_B_WGGL,P_C_WGGL,P_HXWGGL,P_A_SZGL,P_B_SZGL,P_C_SZGL,P_HXSZGL,P_A_GLYS,P_B_GLYS,P_C_GLYS,P_HXGLYS,P_DWPL,P_BY_KwhZ,P_BY_KwhJ,P_BY_KwhF,P_BY_KwhP,P_BY_KwhG,P_BY_HKwhZ,P_BY_HKwhJ,P_BY_HKwhF,P_BY_HKwhP,P_BY_HKwhG, P_BY_KvarhZ,P_BY_KvarhJ,P_BY_KvarhF,P_BY_KvarhP,P_BY_KvarhG, P_BY_HKvarhZ,P_BY_HKvarhJ,P_BY_HKvarhF,P_BY_HKvarhP,P_BY_HKvarhG, P_SY_KwhZ,P_SY_KwhJ,P_SY_KwhF,P_SY_KwhP,P_SY_KwhG, P_SY_HKwhZ,P_SY_HKwhJ,P_SY_HKwhF,P_SY_HKwhP,P_SY_HKwhG, P_SY_KvarhZ,P_SY_KvarhJ,P_SY_KvarhF,P_SY_KvarhP,P_SY_KvarhG, P_SY_HKvarhZ,P_SY_HKvarhJ,P_SY_HKvarhF,P_SY_HKvarhP,P_SY_HKvarhG, P_SSY_KwhZ,P_SSY_KwhJ,P_SSY_KwhF,P_SSY_KwhP,P_SSY_KwhG, P_SSY_HKwhZ,P_SSY_HKwhJ,P_SSY_HKwhF,P_SSY_HKwhP,P_SSY_HKwhG, P_SSY_KvarhZ,P_SSY_KvarhJ,P_SSY_KvarhF,P_SSY_KvarhP,P_SSY_KvarhG, P_SSY_HKvarhZ,P_SSY_HKvarhJ,P_SSY_HKvarhF,P_SSY_HKvarhP,P_SSY_HKvarhG,P_CODE,P_TIME,P_ZXYGDN,P_FXYGDN,P_ZXWGDN,P_FXWGDN)values(233.219,233.155,232.701,403.827,403.394,403.481,6.8,3.6,0,1040,560,0,1600,320,0,0,480,1600,800,0,1680,0.671,0.639,0,0.964,49.772133,451.6,37.6,283.2,0,130.4,0,0,0,0,0,0.4,0,0.4,0,0,144.4,18.8,72.4,0,52.8,570.4,53.6,356,0,160,0,0,0,0,0,1.6,0,1.6,0,0,179.2,24,91.6,0,63.2,777.6,87.6,494.8,0,194.8,0,0,0,0,0,40.4,1.6,30.4,0,8,182.8,27.6,95.2,0,59.552925,1,20171123132512,105.616,0,35.53,49.773)
写入成功读取完毕一个
write:02 03 00 38 00 34 C5 E3
02 03 68
243 68 FF BE 43 69 3F 3B 43 68 D4 39 43 C9 D3 B6 43 C9 C8 93 43 C9 A7 6D 41 9C CC CD 41 88 F5 C3 41 41 47 AE 45 87 00 00 45 61 00 00 45 25 00 00 46 25 00 00 44 AA 00 00 44 A0 00 00 44 70 00 00 45 61 00 00 45 8E 80 00 45 7A 00 00 45 2F 00 00 46 2D C0 00 3F 70 62 4E 3F 68 31 27 3F 6E 56 04 3F 72 6E 98 42 48 B7 02
write:02 03 07 CF 00 78 74 90
02 03 F0
244 84 33 33 42 DD 99 9A 44 1A 19 9A 00 00 00 00 43 A5 33 33 00 00 00 00 00 00 00 00 00 00 00 00 00 00 00 00 00 00 00 00 42 26 66 66 40 B3 33 33 41 99 99 9A 00 00 00 00 41 80 00 00 42 29 99 9A 3F CC CC CD 41 F6 66 66 00 00 00 00 41 13 33 33 44 8E D9 9A 43 18 CC CD 44 1F E6 66 00 00 00 00 43 AF 00 00 00 00 00 00 00 00 00 00 00 00 00 00 00 00 00 00 00 00 00 00 42 21 99 9A 41 20 00 00 41 A9 99 9A 00 00 00 00 41 0C CC CD 42 30 00 00 40 4C CC CD 41 F3 33 33 00 00 00 00 41 19 99 9A 45 2F 66 66 43 E3 99 9A 44 DC 33 33 00 00 00 00 44 13 4C CD 00 00 00 00 00 00 00 00 00 00 00 00 00 00 00 00 00 00 00 00 44 77 E6 66 43 2E CC CD 44 24 B3 33 00 00 00 00 43 1D 99 9A 42 13 33 33 40 00 00 00 41 D9 99 9A 00 00 00 00 40 E6 00 67
write:02 03 01 0F 00 08 75 C0
02 03 10
200 03 40 1A 00 00 00 05 00 01 30 87 00 00 06 10
43 68 FF BE
232.999
43 69 3F 3B
233.247
43 68 D4 39
232.829
43 C9 D3 B6
403.654
43 C9 C8 93
403.567
43 C9 A7 6D
403.308
41 9C CC CD
19.6
41 88 F5 C3
17.12
41 41 47 AE
12.08
45 87 00 00
4320
45 61 00 00
3600
45 25 00 00
2640
46 25 00 00
10560
44 AA 00 00
1360
44 A0 00 00
1280
44 70 00 00
960
45 61 00 00
3600
45 8E 80 00
4560
45 7A 00 00
4000
45 2F 00 00
2800
46 2D C0 00
11120
3F 70 62 4E
0.939
3F 68 31 27
0.907
3F 6E 56 04
0.931
3F 72 6E 98
0.947
42 48 B7 02
50.17872
44 84 33 33
1057.6
42 DD 99 9A
110.8
44 1A 19 9A
616.4
00 00 00 00
0
43 A5 33 33
330.4
00 00 00 00
0
00 00 00 00
0
00 00 00 00
0
00 00 00 00
0
00 00 00 00
0
42 26 66 66
41.6
40 B3 33 33
5.6
41 99 99 9A
19.2
00 00 00 00
0
41 80 00 00
16
42 29 99 9A
42.4
3F CC CC CD
1.6
41 F6 66 66
30.8
00 00 00 00
0
41 13 33 33
9.2
44 8E D9 9A
1142.8
43 18 CC CD
152.8
44 1F E6 66
639.6
00 00 00 00
0
43 AF 00 00
350
00 00 00 00
0
00 00 00 00
0
00 00 00 00
0
00 00 00 00
0
00 00 00 00
0
42 21 99 9A
40.4
41 20 00 00
10
41 A9 99 9A
21.2
00 00 00 00
0
41 0C CC CD
8.8
42 30 00 00
44
40 4C CC CD
3.2
41 F3 33 33
30.4
00 00 00 00
0
41 19 99 9A
9.6
45 2F 66 66
2806.4
43 E3 99 9A
455.2
44 DC 33 33
1761.6
00 00 00 00
0
44 13 4C CD
589.2
00 00 00 00
0
00 00 00 00
0
00 00 00 00
0
00 00 00 00
0
00 00 00 00
0
44 77 E6 66
991.6
43 2E CC CD
174.8
44 24 B3 33
658.8
00 00 00 00
0
43 1D 99 9A
157.6
42 13 33 33
36.8
40 00 00 00
2
41 D9 99 9A
27.2
00 00 00 00
0
40 E6 00 67
7.187549
00 03 40 1A
213018
00 00 00 05
5
00 01 30 87
77959
00 00 06 10
1552
232.999233.247232.829403.654403.567403.30819.617.1212.0843203600264010560136012809603600456040002800111200.9390.9070.9310.94750.178721057.6110.8616.40330.40000041.65.619.201642.41.630.809.21142.8152.8639.603500000040.41021.208.8443.230.409.62806.4455.21761.60589.200000991.6174.8658.80157.636.8227.207.187549220171123132612213.0180.00577.9591.552insert into tbl_power_info_v2(P_A_DIANYA,P_B_DIANYA,P_C_DIANYA,P_UAB_XIANDIANYA,P_UBC_XIANDIANYA,P_UCA_XIANDIANYA,P_A_DIANLIU,P_B_DIANLIU,P_C_DIANLIU,P_A_YGGL,P_B_YGGL,P_C_YGGL,P_HXYGGL,P_A_WGGL,P_B_WGGL,P_C_WGGL,P_HXWGGL,P_A_SZGL,P_B_SZGL,P_C_SZGL,P_HXSZGL,P_A_GLYS,P_B_GLYS,P_C_GLYS,P_HXGLYS,P_DWPL,P_BY_KwhZ,P_BY_KwhJ,P_BY_KwhF,P_BY_KwhP,P_BY_KwhG,P_BY_HKwhZ,P_BY_HKwhJ,P_BY_HKwhF,P_BY_HKwhP,P_BY_HKwhG, P_BY_KvarhZ,P_BY_KvarhJ,P_BY_KvarhF,P_BY_KvarhP,P_BY_KvarhG, P_BY_HKvarhZ,P_BY_HKvarhJ,P_BY_HKvarhF,P_BY_HKvarhP,P_BY_HKvarhG, P_SY_KwhZ,P_SY_KwhJ,P_SY_KwhF,P_SY_KwhP,P_SY_KwhG, P_SY_HKwhZ,P_SY_HKwhJ,P_SY_HKwhF,P_SY_HKwhP,P_SY_HKwhG, P_SY_KvarhZ,P_SY_KvarhJ,P_SY_KvarhF,P_SY_KvarhP,P_SY_KvarhG, P_SY_HKvarhZ,P_SY_HKvarhJ,P_SY_HKvarhF,P_SY_HKvarhP,P_SY_HKvarhG, P_SSY_KwhZ,P_SSY_KwhJ,P_SSY_KwhF,P_SSY_KwhP,P_SSY_KwhG, P_SSY_HKwhZ,P_SSY_HKwhJ,P_SSY_HKwhF,P_SSY_HKwhP,P_SSY_HKwhG, P_SSY_KvarhZ,P_SSY_KvarhJ,P_SSY_KvarhF,P_SSY_KvarhP,P_SSY_KvarhG, P_SSY_HKvarhZ,P_SSY_HKvarhJ,P_SSY_HKvarhF,P_SSY_HKvarhP,P_SSY_HKvarhG,P_CODE,P_TIME,P_ZXYGDN,P_FXYGDN,P_ZXWGDN,P_FXWGDN)values(232.999,233.247,232.829,403.654,403.567,403.308,19.6,17.12,12.08,4320,3600,2640,10560,1360,1280,960,3600,4560,4000,2800,11120,0.939,0.907,0.931,0.947,50.17872,1057.6,110.8,616.4,0,330.4,0,0,0,0,0,41.6,5.6,19.2,0,16,42.4,1.6,30.8,0,9.2,1142.8,152.8,639.6,0,350,0,0,0,0,0,40.4,10,21.2,0,8.8,44,3.2,30.4,0,9.6,2806.4,455.2,1761.6,0,589.2,0,0,0,0,0,991.6,174.8,658.8,0,157.6,36.8,2,27.2,0,7.187549,2,20171123132612,213.018,0.005,77.959,1.552)
写入成功读取完毕一个
write:03 03 00 38 00 34 C4 32
03 03 68
343 68 7D 71 43 68 C4 DD 43 68 49 79 43 C9 64 DD 43 C9 4E B8 43 C9 2D 71 40 AA E1 48 40 9A 8F 5C 40 8E 14 7B 44 87 00 00 44 77 80 00 44 43 00 00 45 32 20 00 43 16 00 00 00 00 00 00 43 70 00 00 42 70 00 00 44 99 C0 00 44 8E 80 00 44 7F 00 00 45 32 20 00 3F 61 CA C1 3F 5E B8 52 3F 3D F3 B6 3F 80 00 00 42 48 12 69
write:03 03 07 CF 00 78 75 41
03 03 F0
343 A8 99 9A 42 84 99 9A 43 39 66 66 00 00 00 00 42 AA B3 33 00 00 00 00 00 00 00 00 00 00 00 00 00 00 00 00 00 00 00 00 42 8F B3 33 41 5F 33 33 42 00 00 00 00 00 00 00 00 00 00 00 00 00 00 00 00 00 00 00 00 00 00 00 00 00 00 00 00 00 00 00 00 00 00 00 00 00 00 00 00 00 00 00 00 00 00 00 00 00 00 00 00 00 00 00 00 00 00 00 00 00 00 00 00 00 00 00 00 00 00 00 00 00 00 00 00 00 00 00 00 00 00 00 00 00 00 00 00 00 00 00 00 00 00 00 00 00 00 00 00 00 00 00 00 00 00 00 00 00 00 00 00 00 00 00 00 00 00 00 00 00 00 00 00 00 00 00 00 00 00 00 00 00 00 00 00 00 00 00 00 00 00 00 00 00 00 00 00 00 00 00 00 00 00 00 00 00 00 00 00 00 00 00 00 00 00 00 00 00 00 00 00 00 00 00 00 00 00 00 00 00 00 00 00 00 00 00 00 00 00 00
37 99 9A
heart:37 99 9A 00 00 00 00 41 3B 33 33 40 66 66 66 3F 40 00 00 40 23 33 33 00 00 00 00 3E 19 99 9A 43 EF 2C CD 42 F0 00 00 43 7D 33 33 00 00 00 00 42 D1 B3 33 00 00 00 00 00 00 00 00 00 00 00 00 00 00 00 00 00 00 00 00 42 9C E6 66 40 E6 66 66 42 5B 99 9A 00 00 00 00 41 80 66 66 41 68 CC CD 40 A8 00 00 40 F9 99 9A 00 00 00 00 3F AC CC CD 43 D8 60 00 42 B5 80 00 43 81 86 66 00 00 00 00 42 A5 99 9A 00 00 00 00 00 00 00 00 00 00 00 00 00 00 00 00 00 00 00 00 42 F7 CC CD 41 90 00 00 42 A5 99 9A 00 00 00 00 41 B8 CC CD 40 EB 33 33 40 06 66 66 40 53 33 33 00 00 00 00 3F E6 A1 4B
write:03 03 01 0F 00 08 74 11
03 03 10
300 00 BD D5 00 00 00 00 00 00 25 BE 00 00 E0 2B
43 68 7D 71
232.49
43 68 C4 DD
232.769
43 68 49 79
232.287
43 C9 64 DD
402.788
43 C9 4E B8
402.615
43 C9 2D 71
402.355
40 AA E1 48
5.34
40 9A 8F 5C
4.83
40 8E 14 7B
4.44
44 87 00 00
1080
44 77 80 00
990
44 43 00 00
780
45 32 20 00
2850
43 16 00 00
150
00 00 00 00
0
43 70 00 00
240
42 70 00 00
60
44 99 C0 00
1230
44 8E 80 00
1140
44 7F 00 00
1020
45 32 20 00
2850
3F 61 CA C1
0.882
3F 5E B8 52
0.87
3F 3D F3 B6
0.742
3F 80 00 00
1
42 48 12 69
50.01798
43 A8 99 9A
337.2
42 84 99 9A
66.3
43 39 66 66
185.4
00 00 00 00
0
42 AA B3 33
85.35
00 00 00 00
0
00 00 00 00
0
00 00 00 00
0
00 00 00 00
0
00 00 00 00
0
42 8F B3 33
71.85
41 5F 33 33
13.95
42 00 00 00
32
00 00 00 00
0
00 00 00 00
0
00 00 00 00
0
00 00 00 00
0
00 00 00 00
0
00 00 00 00
0
00 00 00 00
0
00 00 00 00
0
00 00 00 00
0
00 00 00 00
0
00 00 00 00
0
00 00 00 00
0
00 00 00 00
0
00 00 00 00
0
00 00 00 00
0
00 00 00 00
0
00 00 00 00
0
00 00 00 00
0
00 00 00 00
0
00 00 00 00
0
00 00 00 00
0
00 00 00 00
0
00 00 00 00
0
00 00 00 00
0
00 00 00 00
0
00 00 00 00
0
00 00 00 00
0
00 00 00 00
0
00 00 00 00
0
00 00 00 00
0
00 00 00 00
0
00 00 00 00
0
00 00 00 00
0
00 00 00 00
0
00 00 00 00
0
00 00 00 00
0
00 00 00 00
0
00 00 00 00
0
00 00 00 00
0
00 00 00 00
0
00 00 00 00
0
00 00 00 00
0
00 00 00 00
0
00 00 00 00
0
00 00 00 00
0
00 00 00 00
0
00 00 00 00
0
00 00 BD D5
48597
00 00 00 00
0
00 00 25 BE
9662
00 00 E0 2B
57387
232.49232.769232.287402.788402.615402.3555.344.834.441080990780285015002406012301140102028500.8820.870.742150.01798337.266.3185.4085.350000071.8513.95320000000000000000000000000000000000000000000000032017112313270148.59709.66257.387insert into tbl_power_info_v2(P_A_DIANYA,P_B_DIANYA,P_C_DIANYA,P_UAB_XIANDIANYA,P_UBC_XIANDIANYA,P_UCA_XIANDIANYA,P_A_DIANLIU,P_B_DIANLIU,P_C_DIANLIU,P_A_YGGL,P_B_YGGL,P_C_YGGL,P_HXYGGL,P_A_WGGL,P_B_WGGL,P_C_WGGL,P_HXWGGL,P_A_SZGL,P_B_SZGL,P_C_SZGL,P_HXSZGL,P_A_GLYS,P_B_GLYS,P_C_GLYS,P_HXGLYS,P_DWPL,P_BY_KwhZ,P_BY_KwhJ,P_BY_KwhF,P_BY_KwhP,P_BY_KwhG,P_BY_HKwhZ,P_BY_HKwhJ,P_BY_HKwhF,P_BY_HKwhP,P_BY_HKwhG, P_BY_KvarhZ,P_BY_KvarhJ,P_BY_KvarhF,P_BY_KvarhP,P_BY_KvarhG, P_BY_HKvarhZ,P_BY_HKvarhJ,P_BY_HKvarhF,P_BY_HKvarhP,P_BY_HKvarhG, P_SY_KwhZ,P_SY_KwhJ,P_SY_KwhF,P_SY_KwhP,P_SY_KwhG, P_SY_HKwhZ,P_SY_HKwhJ,P_SY_HKwhF,P_SY_HKwhP,P_SY_HKwhG, P_SY_KvarhZ,P_SY_KvarhJ,P_SY_KvarhF,P_SY_KvarhP,P_SY_KvarhG, P_SY_HKvarhZ,P_SY_HKvarhJ,P_SY_HKvarhF,P_SY_HKvarhP,P_SY_HKvarhG, P_SSY_KwhZ,P_SSY_KwhJ,P_SSY_KwhF,P_SSY_KwhP,P_SSY_KwhG, P_SSY_HKwhZ,P_SSY_HKwhJ,P_SSY_HKwhF,P_SSY_HKwhP,P_SSY_HKwhG, P_SSY_KvarhZ,P_SSY_KvarhJ,P_SSY_KvarhF,P_SSY_KvarhP,P_SSY_KvarhG, P_SSY_HKvarhZ,P_SSY_HKvarhJ,P_SSY_HKvarhF,P_SSY_HKvarhP,P_SSY_HKvarhG,P_CODE,P_TIME,P_ZXYGDN,P_FXYGDN,P_ZXWGDN,P_FXWGDN)values(232.49,232.769,232.287,402.788,402.615,402.355,5.34,4.83,4.44,1080,990,780,2850,150,0,240,60,1230,1140,1020,2850,0.882,0.87,0.742,1,50.01798,337.2,66.3,185.4,0,85.35,0,0,0,0,0,71.85,13.95,32,0,0,0,0,0,0,0,0,0,0,0,0,0,0,0,0,0,0,0,0,0,0,0,0,0,0,0,0,0,0,0,0,0,0,0,0,0,0,0,0,0,0,0,0,0,0,0,3,20171123132701,48.597,0,9.662,57.387)
写入成功读取完毕一个
write:04 03 00 38 00 34 C5 85
04 03 68
443 68 83 D7 43 68 D7 8D 43 68 B4 FE 43 C9 7B 02 43 C9 91 27 43 C9 70 00 3F B3 33 33 3F 2E 14 7B 40 CC CC CD 43 20 00 00 42 F0 00 00 44 B4 00 00 44 D7 00 00 00 00 00 00 42 A0 00 00 00 00 00 00 00 00 00 00 43 A0 00 00 43 20 00 00 44 B9 00 00 44 D7 00 00 3F 02 D0 E5 3F 4C 08 31 3F 74 BC 6A 3F 80 00 00 42 47 4C 88
write:04 03 07 CF 00 78 74 F6
04 03 F0
444 13 26 66 42 F6 00 00 43 A7 33 33 00 00 00 00 43 03 00 00 00 00 00 00 00 00 00 00 00 00 00 00 00 00 00 00 00 00 00 00 40 AC CC CD 3E 4C CC CD 3F B3 33 33 00 00 00 00 40 66 66 66 42 70 CC CD 41 46 66 66 41 EC CC CD 00 00 00 00 41 90 00 00 44 1B 00 00 42 CE CC CD 43 AE 00 00 00 00 00 00 43 28 66 66 00 00 00 00 00 00 00 00 00 00 00 00 00 00 00 00 00 00 00 00 41 B0 00 00 40 26 66 66 40 C0 00 00 00 00 00 00 41 53 33 33 42 48 CC CD 41 06 66 00 00 00 00 00 00 00 00 00 00 00 00 00 00 00 00 00 00 00 00 00 00 00 00 00 00 00 00 00 00 00 00 00 00 00 00 00 00 00 00 00 00 00 00 00 00 00 00 00 00 00 00 00 00 00 00 00 00 00 00 00 00 00 00 00 00 00 00 00 00 00 00 00 00 00 00 00 00 00 00 00 00 00 00 00 00 00 00 00 00 00 00 00
66 41 D0
heart:66 41 D0 00 00 00 00 00 00 41 76 66 66 44 21 8C CD 42 DE CC CD 43 B0 99 9A 00 00 00 00 43 35 33 33 00 00 00 00 00 00 00 00 00 00 00 00 00 00 00 00 00 00 00 00 41 E8 00 00 40 B9 99 9A 40 E0 00 00 00 00 00 00 41 81 99 9A 42 14 CC CD 40 8C CC CD 41 9B 33 33 00 00 00 00 41 50 60 34
write:04 03 01 0F 00 08 75 A6
04 03 10
400 02 8B 10 00 00 00 00 00 00 42 2F 00 00 B9 03
43 68 83 D7
232.515
43 68 D7 8D
232.842
43 68 B4 FE
232.707
43 C9 7B 02
402.961
43 C9 91 27
403.134
43 C9 70 00
402.875
3F B3 33 33
1.4
3F 2E 14 7B
0.68
40 CC CC CD
6.4
43 20 00 00
160
42 F0 00 00
120
44 B4 00 00
1440
44 D7 00 00
1720
00 00 00 00
0
42 A0 00 00
80
00 00 00 00
0
00 00 00 00
0
43 A0 00 00
320
43 20 00 00
160
44 B9 00 00
1480
44 D7 00 00
1720
3F 02 D0 E5
0.511
3F 4C 08 31
0.797
3F 74 BC 6A
0.956
3F 80 00 00
1
42 47 4C 88
49.824738
44 13 26 66
588.6
42 F6 00 00
123
43 A7 33 33
334.4
00 00 00 00
0
43 03 00 00
131
00 00 00 00
0
00 00 00 00
0
00 00 00 00
0
00 00 00 00
0
00 00 00 00
0
40 AC CC CD
5.4
3E 4C CC CD
0.2
3F B3 33 33
1.4
00 00 00 00
0
40 66 66 66
3.6
42 70 CC CD
60.2
41 46 66 66
12.4
41 EC CC CD
29.6
00 00 00 00
0
41 90 00 00
18
44 1B 00 00
620
42 CE CC CD
103.4
43 AE 00 00
348
00 00 00 00
0
43 28 66 66
168.4
00 00 00 00
0
00 00 00 00
0
00 00 00 00
0
00 00 00 00
0
00 00 00 00
0
41 B0 00 00
22
40 26 66 66
2.6
40 C0 00 00
6
00 00 00 00
0
41 53 33 33
13.2
42 48 CC CD
50.2
41 06 66 00
8.399902
00 00 00 00
0
00 00 00 00
0
00 00 00 00
0
00 00 00 00
0
00 00 00 00
0
00 00 00 00
0
00 00 00 00
0
00 00 00 00
0
00 00 00 00
0
00 00 00 00
0
00 00 00 00
0
00 00 00 00
0
00 00 00 00
0
00 00 00 00
0
00 00 00 00
0
00 00 00 00
0
00 00 00 00
0
00 00 00 00
0
00 00 00 00
0
00 00 00 00
0
00 00 00 00
0
00 00 00 00
0
00 00 00 00
0
00 02 8B 10
166672
00 00 00 00
0
00 00 42 2F
16943
00 00 B9 03
47363
232.515232.842232.707402.961403.134402.8751.40.686.41601201440172008000320160148017200.5110.7970.956149.824738588.6123334.40131000005.40.21.403.660.212.429.6018620103.43480168.400000222.66013.250.28.39990200000000000000000000000420171123132803166.672016.94347.363insert into tbl_power_info_v2(P_A_DIANYA,P_B_DIANYA,P_C_DIANYA,P_UAB_XIANDIANYA,P_UBC_XIANDIANYA,P_UCA_XIANDIANYA,P_A_DIANLIU,P_B_DIANLIU,P_C_DIANLIU,P_A_YGGL,P_B_YGGL,P_C_YGGL,P_HXYGGL,P_A_WGGL,P_B_WGGL,P_C_WGGL,P_HXWGGL,P_A_SZGL,P_B_SZGL,P_C_SZGL,P_HXSZGL,P_A_GLYS,P_B_GLYS,P_C_GLYS,P_HXGLYS,P_DWPL,P_BY_KwhZ,P_BY_KwhJ,P_BY_KwhF,P_BY_KwhP,P_BY_KwhG,P_BY_HKwhZ,P_BY_HKwhJ,P_BY_HKwhF,P_BY_HKwhP,P_BY_HKwhG, P_BY_KvarhZ,P_BY_KvarhJ,P_BY_KvarhF,P_BY_KvarhP,P_BY_KvarhG, P_BY_HKvarhZ,P_BY_HKvarhJ,P_BY_HKvarhF,P_BY_HKvarhP,P_BY_HKvarhG, P_SY_KwhZ,P_SY_KwhJ,P_SY_KwhF,P_SY_KwhP,P_SY_KwhG, P_SY_HKwhZ,P_SY_HKwhJ,P_SY_HKwhF,P_SY_HKwhP,P_SY_HKwhG, P_SY_KvarhZ,P_SY_KvarhJ,P_SY_KvarhF,P_SY_KvarhP,P_SY_KvarhG, P_SY_HKvarhZ,P_SY_HKvarhJ,P_SY_HKvarhF,P_SY_HKvarhP,P_SY_HKvarhG, P_SSY_KwhZ,P_SSY_KwhJ,P_SSY_KwhF,P_SSY_KwhP,P_SSY_KwhG, P_SSY_HKwhZ,P_SSY_HKwhJ,P_SSY_HKwhF,P_SSY_HKwhP,P_SSY_HKwhG, P_SSY_KvarhZ,P_SSY_KvarhJ,P_SSY_KvarhF,P_SSY_KvarhP,P_SSY_KvarhG, P_SSY_HKvarhZ,P_SSY_HKvarhJ,P_SSY_HKvarhF,P_SSY_HKvarhP,P_SSY_HKvarhG,P_CODE,P_TIME,P_ZXYGDN,P_FXYGDN,P_ZXWGDN,P_FXWGDN)values(232.515,232.842,232.707,402.961,403.134,402.875,1.4,0.68,6.4,160,120,1440,1720,0,80,0,0,320,160,1480,1720,0.511,0.797,0.956,1,49.824738,588.6,123,334.4,0,131,0,0,0,0,0,5.4,0.2,1.4,0,3.6,60.2,12.4,29.6,0,18,620,103.4,348,0,168.4,0,0,0,0,0,22,2.6,6,0,13.2,50.2,8.399902,0,0,0,0,0,0,0,0,0,0,0,0,0,0,0,0,0,0,0,0,0,0,0,4,20171123132803,166.672,0,16.943,47.363)
写入成功读取完毕一个
write:05 03 00 38 00 34 C4 54
05 03 68
543 69 51 27 43 69 87 AE 43 69 27 6D 43 CA 21 48 43 CA 0B 23 43 C9 F4 FE 40 68 F5 C3 40 A3 D7 0A 40 A1 47 AE 44 02 00 00 44 8C 00 00 44 66 00 00 45 20 00 00 42 F0 00 00 42 F0 00 00 42 A0 00 00 43 A0 00 00 44 52 00 00 44 96 00 00 44 91 00 00 45 22 80 00 3F 1A 9F BE 3F 6F 9D B2 3F 49 78 D5 3F 7D F3 B6 42 48 C7 1A
write:05 03 07 CF 00 78 75 27
05 03 F0
544 9C 13 33 43 95 E6 66 44 2C 59 9A 00 00 00 00 43 81 99 9A 00 00 00 00 00 00 00 00 00 00 00 00 00 00 00 00 00 00 00 00 00 00 00 00 00 00 00 00 00 00 00 00 00 00 00 00 00 00 00 00 43 40 99 9A 42 28 CC CD 42 BA 00 00 00 00 00 00 42 65 99 9A 44 C1 06 66 43 AF 99 9A 44 5A 00 00 00 00 00 00 43 A0 66 66 00 00 00 00 00 00 00 00 00 00 00 00 00 00 00 00 00 00 00 00 3F CC CC CD 3F 19 99 9A 3F 4C CC CD 00 00 00 00 00 00 00 00 43 6F 99 9A 42 50 00 00 42 E7 33 33 00 00 00 00 42 8F 99 9A 44 D5 93 33 43 A4 B3 33 44 7E 19 9A 00 00 00 00 43 B5 33 33 00 00 00 00 00 00 00 00 00 00 00 00 00 00 00 00 00 00 00 00 42 A8 66 66 41 9B 33 33 42 69 99 9A 00 00 00 00 40 CC CC CD 43 26 33 33 41 FE 66 66 42 9E CC CD 00 00 00 00 42 5B E9 ED
write:05 03 01 0F 00 08 74 77
05 03 10
500 08 73 55 00 00 00 00 00 00 D9 A8 00 00 E5 2B
43 69 51 27
233.317
43 69 87 AE
233.53
43 69 27 6D
233.154
43 CA 21 48
404.26
43 CA 0B 23
404.087
43 C9 F4 FE
403.914
40 68 F5 C3
3.64
40 A3 D7 0A
5.12
40 A1 47 AE
5.04
44 02 00 00
520
44 8C 00 00
1120
44 66 00 00
920
45 20 00 00
2560
42 F0 00 00
120
42 F0 00 00
120
42 A0 00 00
80
43 A0 00 00
320
44 52 00 00
840
44 96 00 00
1200
44 91 00 00
1160
45 22 80 00
2600
3F 1A 9F BE
0.604
3F 6F 9D B2
0.936
3F 49 78 D5
0.787
3F 7D F3 B6
0.992
42 48 C7 1A
50.194435
44 9C 13 33
1248.6
43 95 E6 66
299.8
44 2C 59 9A
689.4
00 00 00 00
0
43 81 99 9A
259.2
00 00 00 00
0
00 00 00 00
0
00 00 00 00
0
00 00 00 00
0
00 00 00 00
0
00 00 00 00
0
00 00 00 00
0
00 00 00 00
0
00 00 00 00
0
00 00 00 00
0
43 40 99 9A
192.6
42 28 CC CD
42.2
42 BA 00 00
93
00 00 00 00
0
42 65 99 9A
57.4
44 C1 06 66
1544.2
43 AF 99 9A
351.2
44 5A 00 00
872
00 00 00 00
0
43 A0 66 66
320.8
00 00 00 00
0
00 00 00 00
0
00 00 00 00
0
00 00 00 00
0
00 00 00 00
0
3F CC CC CD
1.6
3F 19 99 9A
0.6
3F 4C CC CD
0.8
00 00 00 00
0
00 00 00 00
0
43 6F 99 9A
239.6
42 50 00 00
52
42 E7 33 33
115.6
00 00 00 00
0
42 8F 99 9A
71.8
44 D5 93 33
1708.6
43 A4 B3 33
329.4
44 7E 19 9A
1016.4
00 00 00 00
0
43 B5 33 33
362.4
00 00 00 00
0
00 00 00 00
0
00 00 00 00
0
00 00 00 00
0
00 00 00 00
0
42 A8 66 66
84.2
41 9B 33 33
19.4
42 69 99 9A
58.4
00 00 00 00
0
40 CC CC CD
6.4
43 26 33 33
166.2
41 FE 66 66
31.8
42 9E CC CD
79.4
00 00 00 00
0
42 5B E9 ED
54.978443
00 08 73 55
553813
00 00 00 00
0
00 00 D9 A8
55720
00 00 E5 2B
58667
233.317233.53233.154404.26404.087403.9143.645.125.0452011209202560120120803208401200116026000.6040.9360.7870.99250.1944351248.6299.8689.40259.20000000000192.642.293057.41544.2351.28720320.8000001.60.60.800239.652115.6071.81708.6329.41016.40362.40000084.219.458.406.4166.231.879.4054.978443520171123132903553.813055.7258.667insert into tbl_power_info_v2(P_A_DIANYA,P_B_DIANYA,P_C_DIANYA,P_UAB_XIANDIANYA,P_UBC_XIANDIANYA,P_UCA_XIANDIANYA,P_A_DIANLIU,P_B_DIANLIU,P_C_DIANLIU,P_A_YGGL,P_B_YGGL,P_C_YGGL,P_HXYGGL,P_A_WGGL,P_B_WGGL,P_C_WGGL,P_HXWGGL,P_A_SZGL,P_B_SZGL,P_C_SZGL,P_HXSZGL,P_A_GLYS,P_B_GLYS,P_C_GLYS,P_HXGLYS,P_DWPL,P_BY_KwhZ,P_BY_KwhJ,P_BY_KwhF,P_BY_KwhP,P_BY_KwhG,P_BY_HKwhZ,P_BY_HKwhJ,P_BY_HKwhF,P_BY_HKwhP,P_BY_HKwhG, P_BY_KvarhZ,P_BY_KvarhJ,P_BY_KvarhF,P_BY_KvarhP,P_BY_KvarhG, P_BY_HKvarhZ,P_BY_HKvarhJ,P_BY_HKvarhF,P_BY_HKvarhP,P_BY_HKvarhG, P_SY_KwhZ,P_SY_KwhJ,P_SY_KwhF,P_SY_KwhP,P_SY_KwhG, P_SY_HKwhZ,P_SY_HKwhJ,P_SY_HKwhF,P_SY_HKwhP,P_SY_HKwhG, P_SY_KvarhZ,P_SY_KvarhJ,P_SY_KvarhF,P_SY_KvarhP,P_SY_KvarhG, P_SY_HKvarhZ,P_SY_HKvarhJ,P_SY_HKvarhF,P_SY_HKvarhP,P_SY_HKvarhG, P_SSY_KwhZ,P_SSY_KwhJ,P_SSY_KwhF,P_SSY_KwhP,P_SSY_KwhG, P_SSY_HKwhZ,P_SSY_HKwhJ,P_SSY_HKwhF,P_SSY_HKwhP,P_SSY_HKwhG, P_SSY_KvarhZ,P_SSY_KvarhJ,P_SSY_KvarhF,P_SSY_KvarhP,P_SSY_KvarhG, P_SSY_HKvarhZ,P_SSY_HKvarhJ,P_SSY_HKvarhF,P_SSY_HKvarhP,P_SSY_HKvarhG,P_CODE,P_TIME,P_ZXYGDN,P_FXYGDN,P_ZXWGDN,P_FXWGDN)values(233.317,233.53,233.154,404.26,404.087,403.914,3.64,5.12,5.04,520,1120,920,2560,120,120,80,320,840,1200,1160,2600,0.604,0.936,0.787,0.992,50.194435,1248.6,299.8,689.4,0,259.2,0,0,0,0,0,0,0,0,0,0,192.6,42.2,93,0,57.4,1544.2,351.2,872,0,320.8,0,0,0,0,0,1.6,0.6,0.8,0,0,239.6,52,115.6,0,71.8,1708.6,329.4,1016.4,0,362.4,0,0,0,0,0,84.2,19.4,58.4,0,6.4,166.2,31.8,79.4,0,54.978443,5,20171123132903,553.813,0,55.72,58.667)
写入成功读取完毕一个
write:06 03 00 38 00 34 C4 67
06 03 68
643 68 F8 52 43 68 BE 35 43 68 75 3F 43 C9 9C 4A 43 C9 64 DD 43 C9 7B 02 40 88 F5 C3 40 8A 3D 71 40 CE 14 7B 44 34 00 00 44 48 00 00 44 A0 00 00 45 2F 00 00 42 F0 00 00 00 00 00 00 43 20 00 00 43 8C 00 00 44 7A 00 00 44 7A 00 00 44 B9 00 00 45 2F 00 00 3F 39 99 9A 3F 4D 4F DF 3F 5A 5E 35 3F 7E B8 52 42 48 3B 61
write:06 03 07 CF 00 78 75 14
write:06 03 01 0F 00 08 74 44
06 03 F0
644 B7 C6 66 43 8E 99 9A 44 58 A6 66 00 00 00 00 43 9F 19 9A 00 00 00 00 00 00 00 00 00 00 00 00 00 00 00 00 00 00 00 00 3F B3 33 33 00 00 00 00 3F 80 00 00 00 00 00 00 3E 4C CC CD 43 09 00 00 41 D1 99 9A 42 80 66 66 00 00 00 00 42 39 99 9A 44 F8 A6 66 43 BF 33 33 44 93 80 00 00 00 00 00 43 D5 4C CD 00 00 00 00 00 00 00 00 00 00 00 00 00 00 00 00 00 00 00 00 40 C6 66 66 3E CC CC CD 40 A0 00 00 00 00 00 00 3F 19 99 9A 43 47 99 9A 42 16 66 66 42 BB 99 9A 00 00 00 00 42 88 00 00 45 15 00 00 43 EA 66 66 44 AC 53 33 00 00 00 00 44 06 0C CD 00 00 00 00 00 00 00 00 00 00 00 00 00 00 00 00 00 00 00 00 41 53 33 33 40 66 66 66 40 CC CC CD 00 00 00 00 40 40 00 00 43 38 33 33 42 10 00 00 42 A8 CC CD 00 00 00 00 42 7D 62 06
06 03 10
600 0B 1B 61 00 00 00 00 00 00 17 8F 00 00 A1 20
43 68 F8 52
232.97
43 68 BE 35
232.743
43 68 75 3F
232.458
43 C9 9C 4A
403.221
43 C9 64 DD
402.788
43 C9 7B 02
402.961
40 88 F5 C3
4.28
40 8A 3D 71
4.32
40 CE 14 7B
6.44
44 34 00 00
720
44 48 00 00
800
44 A0 00 00
1280
45 2F 00 00
2800
42 F0 00 00
120
00 00 00 00
0
43 20 00 00
160
43 8C 00 00
280
44 7A 00 00
1000
44 7A 00 00
1000
44 B9 00 00
1480
45 2F 00 00
2800
3F 39 99 9A
0.725
3F 4D 4F DF
0.802
3F 5A 5E 35
0.853
3F 7E B8 52
0.995
42 48 3B 61
50.057987
44 B7 C6 66
1470.2
43 8E 99 9A
285.2
44 58 A6 66
866.6
00 00 00 00
0
43 9F 19 9A
318.2
00 00 00 00
0
00 00 00 00
0
00 00 00 00
0
00 00 00 00
0
00 00 00 00
0
3F B3 33 33
1.4
00 00 00 00
0
3F 80 00 00
1
00 00 00 00
0
3E 4C CC CD
0.2
43 09 00 00
137
41 D1 99 9A
26.2
42 80 66 66
64.2
00 00 00 00
0
42 39 99 9A
46.4
44 F8 A6 66
1989.2
43 BF 33 33
382.4
44 93 80 00
1180
00 00 00 00
0
43 D5 4C CD
426.6
00 00 00 00
0
00 00 00 00
0
00 00 00 00
0
00 00 00 00
0
00 00 00 00
0
40 C6 66 66
6.2
3E CC CC CD
0.4
40 A0 00 00
5
00 00 00 00
0
3F 19 99 9A
0.6
43 47 99 9A
199.6
42 16 66 66
37.6
42 BB 99 9A
93.8
00 00 00 00
0
42 88 00 00
68
45 15 00 00
2384
43 EA 66 66
468.8
44 AC 53 33
1378.6
00 00 00 00
0
44 06 0C CD
536.2
00 00 00 00
0
00 00 00 00
0
00 00 00 00
0
00 00 00 00
0
00 00 00 00
0
41 53 33 33
13.2
40 66 66 66
3.6
40 CC CC CD
6.4
00 00 00 00
0
40 40 00 00
3
43 38 33 33
184.2
42 10 00 00
36
42 A8 CC CD
84.4
00 00 00 00
0
42 7D 62 06
63.345726
00 0B 1B 61
727905
00 00 00 00
0
00 00 17 8F
6031
00 00 A1 20
41248
232.97232.743232.458403.221402.788402.9614.284.326.4472080012802800120016028010001000148028000.7250.8020.8530.99550.0579871470.2285.2866.60318.2000001.40100.213726.264.2046.41989.2382.411800426.6000006.20.4500.6199.637.693.80682384468.81378.60536.20000013.23.66.403184.23684.4063.345726620171123133000727.90506.03141.248insert into tbl_power_info_v2(P_A_DIANYA,P_B_DIANYA,P_C_DIANYA,P_UAB_XIANDIANYA,P_UBC_XIANDIANYA,P_UCA_XIANDIANYA,P_A_DIANLIU,P_B_DIANLIU,P_C_DIANLIU,P_A_YGGL,P_B_YGGL,P_C_YGGL,P_HXYGGL,P_A_WGGL,P_B_WGGL,P_C_WGGL,P_HXWGGL,P_A_SZGL,P_B_SZGL,P_C_SZGL,P_HXSZGL,P_A_GLYS,P_B_GLYS,P_C_GLYS,P_HXGLYS,P_DWPL,P_BY_KwhZ,P_BY_KwhJ,P_BY_KwhF,P_BY_KwhP,P_BY_KwhG,P_BY_HKwhZ,P_BY_HKwhJ,P_BY_HKwhF,P_BY_HKwhP,P_BY_HKwhG, P_BY_KvarhZ,P_BY_KvarhJ,P_BY_KvarhF,P_BY_KvarhP,P_BY_KvarhG, P_BY_HKvarhZ,P_BY_HKvarhJ,P_BY_HKvarhF,P_BY_HKvarhP,P_BY_HKvarhG, P_SY_KwhZ,P_SY_KwhJ,P_SY_KwhF,P_SY_KwhP,P_SY_KwhG, P_SY_HKwhZ,P_SY_HKwhJ,P_SY_HKwhF,P_SY_HKwhP,P_SY_HKwhG, P_SY_KvarhZ,P_SY_KvarhJ,P_SY_KvarhF,P_SY_KvarhP,P_SY_KvarhG, P_SY_HKvarhZ,P_SY_HKvarhJ,P_SY_HKvarhF,P_SY_HKvarhP,P_SY_HKvarhG, P_SSY_KwhZ,P_SSY_KwhJ,P_SSY_KwhF,P_SSY_KwhP,P_SSY_KwhG, P_SSY_HKwhZ,P_SSY_HKwhJ,P_SSY_HKwhF,P_SSY_HKwhP,P_SSY_HKwhG, P_SSY_KvarhZ,P_SSY_KvarhJ,P_SSY_KvarhF,P_SSY_KvarhP,P_SSY_KvarhG, P_SSY_HKvarhZ,P_SSY_HKvarhJ,P_SSY_HKvarhF,P_SSY_HKvarhP,P_SSY_HKvarhG,P_CODE,P_TIME,P_ZXYGDN,P_FXYGDN,P_ZXWGDN,P_FXWGDN)values(232.97,232.743,232.458,403.221,402.788,402.961,4.28,4.32,6.44,720,800,1280,2800,120,0,160,280,1000,1000,1480,2800,0.725,0.802,0.853,0.995,50.057987,1470.2,285.2,866.6,0,318.2,0,0,0,0,0,1.4,0,1,0,0.2,137,26.2,64.2,0,46.4,1989.2,382.4,1180,0,426.6,0,0,0,0,0,6.2,0.4,5,0,0.6,199.6,37.6,93.8,0,68,2384,468.8,1378.6,0,536.2,0,0,0,0,0,13.2,3.6,6.4,0,3,184.2,36,84.4,0,63.345726,6,20171123133000,727.905,0,6.031,41.248)
写入成功读取完毕一个
write:07 03 00 38 00 34 C5 B6
write:07 03 07 CF 00 78 74 C5
write:07 03 01 0F 00 08 75 95
write:08 03 00 38 00 34 C5 49
08 03 68
843 68 E6 25 43 68 DA 1D 43 68 A8 B4 43 C9 9C 4A 43 C9 86 25 43 C9 86 25 40 04 7A E1 00 00 00 00 00 00 00 00 43 96 00 00 00 00 00 00 00 00 00 00 43 B4 00 00 42 00 00 00 00 00 00 00 00 00 00 00 00 00 00 00 00 00 00 00 00 00 00 00 00 00 00 00 00 00 00 00 00 00 00 00 00 00 00 00 00 00 00 00 00 00 00 00 00 00 00 00
70 00 00
heart:70 00 00 00 00 00 00 00 00 00 00 42 70 00 00 43 F0 00 00 42 70 00 00 00 00 00 00 43 B4 00 00 3F 21 47 AE 3F 30 E5 60 00 00 00 00 3F 7B A5 E3 42 48 CA F8
write:08 03 07 CF 00 78 74 3A
08 03 F0
842 64 00 00 00 00 00 00 42 16 99 9A 00 00 00 00 41 9A CC CD 00 00 00 00 00 00 00 00 00 00 00 00 00 00 00 00 00 00 00 00 00 00 00 00 00 00 00 00 00 00 00 00 00 00 00 00 00 00 00 00 00 00 00 00 00 00 00 00 00 00 00 00 00 00 00 00 00 00 00 00 00 00 00 00 00 00 00 00 00 00 00 00 00 00 00 00 00 00 00 00 00 00 00 00 00 00 00 00 00 00 00 00 00 00 00 00 00 00 00 00 00 00 00 00 00 00 00 00 00 00 00 00 00 00 00 00 00 00 00 00 00 00 00 00 00 00 00 00 00 00 00 00 00 00 00 00 00 00 00 00 00 00 00 00 00 00 00 00 00 00 00 00 00 00 00 00 00 00 00 00 00 00 00 00 00 00 00 00 00 00 00 00 00 00 00 00 00 00 00 00 00 00 00 00 00 00 00 00 00 00 00 00 00 00 00 00 00 00 00 00 00 00 00 00 00 00 00 00 00 00 00 00 00 00 00 00 00 00 00 00
00 00 41
heart:00 00 41 2A 66 66 00 00 00 00 40 D3 33 33 00 00 00 00 40 79 99 9A 42 67 00 00 00 00 00 00 42 28 00 00 00 00 00 00 41 79 99 9A 00 00 00 00 00 00 00 00 00 00 00 00 00 00 00 00 00 00 00 00 00 00 00 00 00 00 00 00 00 00 00 00 00 00 00 00 00 00 00 00 41 1E 66 66 00 00 00 00 40 DC CC CD 00 00 00 00 40 40 00 00 42 95 19 9A 00 00 00 00 42 3B CC CD 00 00 00 00 41 DB 99 9A 00 00 00 00 00 00 00 00 00 00 00 00 00 00 00 00 00 00 00 00 00 00 00 00 00 00 00 00 00 00 00 00 00 00 00 00 00 00 00 00 41 4E 66 66 00 00 00 00 41 06 66 66 00 00 00 00 40 8B FF 2B
write:08 03 01 0F 00 08 75 6A
08 03 10
800 00 48 A6 00 00 00 00 00 00 00 00 00 00 C7 AE
43 68 E6 25
232.899
43 68 DA 1D
232.852
43 68 A8 B4
232.659
43 C9 9C 4A
403.221
43 C9 86 25
403.048
43 C9 86 25
403.048
40 04 7A E1
2.07
00 00 00 00
0
00 00 00 00
0
43 96 00 00
300
00 00 00 00
0
00 00 00 00
0
43 B4 00 00
360
42 00 00 00
32
00 00 00 00
0
00 00 00 00
0
00 00 00 00
0
00 00 00 00
0
00 00 00 00
0
00 00 00 00
0
00 00 00 00
0
00 00 00 00
0
00 00 00 00
0
00 00 00 00
0
00 00 00 00
0
00 00 00 00
0
42 64 00 00
57
00 00 00 00
0
42 16 99 9A
37.65
00 00 00 00
0
41 9A CC CD
19.35
00 00 00 00
0
00 00 00 00
0
00 00 00 00
0
00 00 00 00
0
00 00 00 00
0
00 00 00 00
0
00 00 00 00
0
00 00 00 00
0
00 00 00 00
0
00 00 00 00
0
00 00 00 00
0
00 00 00 00
0
00 00 00 00
0
00 00 00 00
0
00 00 00 00
0
00 00 00 00
0
00 00 00 00
0
00 00 00 00
0
00 00 00 00
0
00 00 00 00
0
00 00 00 00
0
00 00 00 00
0
00 00 00 00
0
00 00 00 00
0
00 00 00 00
0
00 00 00 00
0
00 00 00 00
0
00 00 00 00
0
00 00 00 00
0
00 00 00 00
0
00 00 00 00
0
00 00 00 00
0
00 00 00 00
0
00 00 00 00
0
00 00 00 00
0
00 00 00 00
0
00 00 00 00
0
00 00 00 00
0
00 00 00 00
0
00 00 00 00
0
00 00 00 00
0
00 00 00 00
0
00 00 00 00
0
00 00 00 00
0
00 00 00 00
0
00 00 00 00
0
00 00 00 00
0
00 00 00 00
0
00 00 00 00
0
00 00 00 00
0
00 00 00 00
0
00 00 00 00
0
00 00 00 00
0
00 00 00 00
0
00 00 00 00
0
00 00 48 A6
18598
00 00 00 00
0
00 00 00 00
0
00 00 C7 AE
51118
232.899232.852232.659403.221403.048403.0482.0700300003603200000000000057037.65019.35000000000000000000000000000000000000000000000000000000082017112313321218.5980051.118insert into tbl_power_info_v2(P_A_DIANYA,P_B_DIANYA,P_C_DIANYA,P_UAB_XIANDIANYA,P_UBC_XIANDIANYA,P_UCA_XIANDIANYA,P_A_DIANLIU,P_B_DIANLIU,P_C_DIANLIU,P_A_YGGL,P_B_YGGL,P_C_YGGL,P_HXYGGL,P_A_WGGL,P_B_WGGL,P_C_WGGL,P_HXWGGL,P_A_SZGL,P_B_SZGL,P_C_SZGL,P_HXSZGL,P_A_GLYS,P_B_GLYS,P_C_GLYS,P_HXGLYS,P_DWPL,P_BY_KwhZ,P_BY_KwhJ,P_BY_KwhF,P_BY_KwhP,P_BY_KwhG,P_BY_HKwhZ,P_BY_HKwhJ,P_BY_HKwhF,P_BY_HKwhP,P_BY_HKwhG, P_BY_KvarhZ,P_BY_KvarhJ,P_BY_KvarhF,P_BY_KvarhP,P_BY_KvarhG, P_BY_HKvarhZ,P_BY_HKvarhJ,P_BY_HKvarhF,P_BY_HKvarhP,P_BY_HKvarhG, P_SY_KwhZ,P_SY_KwhJ,P_SY_KwhF,P_SY_KwhP,P_SY_KwhG, P_SY_HKwhZ,P_SY_HKwhJ,P_SY_HKwhF,P_SY_HKwhP,P_SY_HKwhG, P_SY_KvarhZ,P_SY_KvarhJ,P_SY_KvarhF,P_SY_KvarhP,P_SY_KvarhG, P_SY_HKvarhZ,P_SY_HKvarhJ,P_SY_HKvarhF,P_SY_HKvarhP,P_SY_HKvarhG, P_SSY_KwhZ,P_SSY_KwhJ,P_SSY_KwhF,P_SSY_KwhP,P_SSY_KwhG, P_SSY_HKwhZ,P_SSY_HKwhJ,P_SSY_HKwhF,P_SSY_HKwhP,P_SSY_HKwhG, P_SSY_KvarhZ,P_SSY_KvarhJ,P_SSY_KvarhF,P_SSY_KvarhP,P_SSY_KvarhG, P_SSY_HKvarhZ,P_SSY_HKvarhJ,P_SSY_HKvarhF,P_SSY_HKvarhP,P_SSY_HKvarhG,P_CODE,P_TIME,P_ZXYGDN,P_FXYGDN,P_ZXWGDN,P_FXWGDN)values(232.899,232.852,232.659,403.221,403.048,403.048,2.07,0,0,300,0,0,360,32,0,0,0,0,0,0,0,0,0,0,0,0,57,0,37.65,0,19.35,0,0,0,0,0,0,0,0,0,0,0,0,0,0,0,0,0,0,0,0,0,0,0,0,0,0,0,0,0,0,0,0,0,0,0,0,0,0,0,0,0,0,0,0,0,0,0,0,0,0,0,0,0,0,0,8,20171123133212,18.598,0,0,51.118)
写入成功读取完毕一个
write:09 03 00 38 00 34 C4 98
09 03 68
943 68 E0 83 43 69 04 5A 43 68 B2 B0 43 C9 B2 6F 43 C9 9C 4A 43 C9 86 25 00 00 00 00 00 00 00 00 3F 57 0A 3D 42 70 00 00 00 00 00 00 43 34 00 00 43 70 00 00 42 70 00 00 42 70 00 00 42 B4 00 00 43 52 00 00 42 B4 00 00 42 70 00 00 43 52 00 00 43 96 00 00 3F 00 00 00 3E 2D 0E 56 3F 5C 6A 7F 3F 3D 70 A4 42 48 69 E3
write:09 03 07 CF 00 78 75 EB
09 03 F0
943 0F D9 9A 41 93 99 9A 42 90 00 00 00 00 00 00 42 55 00 00 00 00 00 00 00 00 00 00 00 00 00 00 00 00 00 00 00 00 00 00 00 00 00 00 00 00 00 00 00 00 00 00 00 00 00 00 00 00 00 00 42 EB CC CD 41 96 00 00 42 44 33 33 00 00 00 00 42 47 CC CD 43 BC 2C CD 41 E7 99 9A 43 4D CC CD 00 00 00 00 43 0D 73 33 00 00 00 00 00 00 00 00 00 00 00 00 00 00 00 00 00 00 00 00 40 A3 33 33 00 00 00 00 40 19 99 9A 00 00 00 00 40 23 33 33 43 2C 33 33 41 D6 CC CD 42 95 19 9A 00 00 00 00 42 8D 4C CD 43 CA B9 9A 42 5D 66 66 43 44 33 33 00 00 00 00 43 19 C0 00 00 00 00 00 00 00 00 00 00 00 00 00 00 00 00 00 00 00 00 00 43 18 B3 33 41 B1 99 9A 42 8B 80 00 00 00 00 00 42 72 66 66 43 0F 8C CD 41 BC 66 66 42 72 66 66 00 00 00 00 42 6D 8E 04
write:09 03 01 0F 00 08 74 BB
09 03 10
900 00 93 68 00 00 00 00 00 00 18 DA 00 00 32 87
43 68 E0 83
232.877
43 69 04 5A
233.017
43 68 B2 B0
232.698
43 C9 B2 6F
403.394
43 C9 9C 4A
403.221
43 C9 86 25
403.048
00 00 00 00
0
00 00 00 00
0
3F 57 0A 3D
0.84
42 70 00 00
60
00 00 00 00
0
43 34 00 00
180
43 70 00 00
240
42 70 00 00
60
42 70 00 00
60
42 B4 00 00
90
43 52 00 00
210
42 B4 00 00
90
42 70 00 00
60
43 52 00 00
210
43 96 00 00
300
3F 00 00 00
0.5
3E 2D 0E 56
0.169
3F 5C 6A 7F
0.861
3F 3D 70 A4
0.74
42 48 69 E3
50.103405
43 0F D9 9A
143.85
41 93 99 9A
18.45
42 90 00 00
72
00 00 00 00
0
42 55 00 00
53.25
00 00 00 00
0
00 00 00 00
0
00 00 00 00
0
00 00 00 00
0
00 00 00 00
0
00 00 00 00
0
00 00 00 00
0
00 00 00 00
0
00 00 00 00
0
00 00 00 00
0
42 EB CC CD
117.9
41 96 00 00
18.75
42 44 33 33
49.05
00 00 00 00
0
42 47 CC CD
49.95
43 BC 2C CD
376.35
41 E7 99 9A
28.95
43 4D CC CD
205.8
00 00 00 00
0
43 0D 73 33
141.45
00 00 00 00
0
00 00 00 00
0
00 00 00 00
0
00 00 00 00
0
00 00 00 00
0
40 A3 33 33
5.1
00 00 00 00
0
40 19 99 9A
2.4
00 00 00 00
0
40 23 33 33
2.55
43 2C 33 33
172.2
41 D6 CC CD
26.85
42 95 19 9A
74.55
00 00 00 00
0
42 8D 4C CD
70.65
43 CA B9 9A
405.45
42 5D 66 66
55.35
43 44 33 33
196.2
00 00 00 00
0
43 19 C0 00
153.75
00 00 00 00
0
00 00 00 00
0
00 00 00 00
0
00 00 00 00
0
00 00 00 00
0
43 18 B3 33
152.7
41 B1 99 9A
22.2
42 8B 80 00
69.75
00 00 00 00
0
42 72 66 66
60.6
43 0F 8C CD
143.55
41 BC 66 66
23.55
42 72 66 66
60.6
00 00 00 00
0
42 6D 8E 04
59.388687
00 00 93 68
37736
00 00 00 00
0
00 00 18 DA
6362
00 00 32 87
12935
232.877233.017232.698403.394403.221403.048000.8460018024060609021090602103000.50.1690.8610.7450.103405143.8518.4572053.250000000000117.918.7549.05049.95376.3528.95205.80141.45000005.102.402.55172.226.8574.55070.65405.4555.35196.20153.7500000152.722.269.75060.6143.5523.5560.6059.38868792017112313331337.73606.36212.935insert into tbl_power_info_v2(P_A_DIANYA,P_B_DIANYA,P_C_DIANYA,P_UAB_XIANDIANYA,P_UBC_XIANDIANYA,P_UCA_XIANDIANYA,P_A_DIANLIU,P_B_DIANLIU,P_C_DIANLIU,P_A_YGGL,P_B_YGGL,P_C_YGGL,P_HXYGGL,P_A_WGGL,P_B_WGGL,P_C_WGGL,P_HXWGGL,P_A_SZGL,P_B_SZGL,P_C_SZGL,P_HXSZGL,P_A_GLYS,P_B_GLYS,P_C_GLYS,P_HXGLYS,P_DWPL,P_BY_KwhZ,P_BY_KwhJ,P_BY_KwhF,P_BY_KwhP,P_BY_KwhG,P_BY_HKwhZ,P_BY_HKwhJ,P_BY_HKwhF,P_BY_HKwhP,P_BY_HKwhG, P_BY_KvarhZ,P_BY_KvarhJ,P_BY_KvarhF,P_BY_KvarhP,P_BY_KvarhG, P_BY_HKvarhZ,P_BY_HKvarhJ,P_BY_HKvarhF,P_BY_HKvarhP,P_BY_HKvarhG, P_SY_KwhZ,P_SY_KwhJ,P_SY_KwhF,P_SY_KwhP,P_SY_KwhG, P_SY_HKwhZ,P_SY_HKwhJ,P_SY_HKwhF,P_SY_HKwhP,P_SY_HKwhG, P_SY_KvarhZ,P_SY_KvarhJ,P_SY_KvarhF,P_SY_KvarhP,P_SY_KvarhG, P_SY_HKvarhZ,P_SY_HKvarhJ,P_SY_HKvarhF,P_SY_HKvarhP,P_SY_HKvarhG, P_SSY_KwhZ,P_SSY_KwhJ,P_SSY_KwhF,P_SSY_KwhP,P_SSY_KwhG, P_SSY_HKwhZ,P_SSY_HKwhJ,P_SSY_HKwhF,P_SSY_HKwhP,P_SSY_HKwhG, P_SSY_KvarhZ,P_SSY_KvarhJ,P_SSY_KvarhF,P_SSY_KvarhP,P_SSY_KvarhG, P_SSY_HKvarhZ,P_SSY_HKvarhJ,P_SSY_HKvarhF,P_SSY_HKvarhP,P_SSY_HKvarhG,P_CODE,P_TIME,P_ZXYGDN,P_FXYGDN,P_ZXWGDN,P_FXWGDN)values(232.877,233.017,232.698,403.394,403.221,403.048,0,0,0.84,60,0,180,240,60,60,90,210,90,60,210,300,0.5,0.169,0.861,0.74,50.103405,143.85,18.45,72,0,53.25,0,0,0,0,0,0,0,0,0,0,117.9,18.75,49.05,0,49.95,376.35,28.95,205.8,0,141.45,0,0,0,0,0,5.1,0,2.4,0,2.55,172.2,26.85,74.55,0,70.65,405.45,55.35,196.2,0,153.75,0,0,0,0,0,152.7,22.2,69.75,0,60.6,143.55,23.55,60.6,0,59.388687,9,20171123133313,37.736,0,6.362,12.935)
写入成功读取完毕一个
write:01 03 00 38 00 34 C5 D0
01 03 68
143 69 26 66 43 69 43 12 43 68 D7 8D 43 C9 E9 DB 43 C9 C8 93 43 C9 BD 91 40 D4 7A E1 40 70 A3 D7 00 00 00 00 44 82 00 00 44 0C 00 00 00 00 00 00 44 C8 00 00 43 A0 00 00 00 00 00 00 00 00 00 00 43 F0 00 00 44 BE 00 00 44 5C 00 00 00 00 00 00 44 D2 00 00 3F 2B 02 0C 3F 26 66 66 00 00 00 00 3F 77 0A 3D 42 48 CA 0C
write:01 03 07 CF 00 78 74 A3
01 03 F0
143 E2 00 00 42 16 66 66 43 8D CC CD 00 00 00 00 43 02 66 66 00 00 00 00 00 00 00 00 00 00 00 00 00 00 00 00 00 00 00 00 3E CC CC CD 00 00 00 00 3E CC CC CD 00 00 00 00 00 00 00 00 43 10 66 66 41 96 66 66 42 91 99 9A 00 00 00 00 42 53 33 33 44 0E 99 9A 42 56 66 66 43 B2 00 00 00 00 00 00 43 20 00 00 00 00 00 00 00 00 00 00 00 00 00 00 00 00 00 00 00 00 00 00 3F CC CC CD 00 00 00 00 3F CC CC CD 00 00 00 00 00 00 00 00 43 33 33 33 41 C0 00 00 42 B7 33 33 00 00 00 00 42 7C CC CD 44 42 66 66 42 AF 33 33 43 F7 66 66 00 00 00 00 43 42 CC CD 00 00 00 00 00 00 00 00 00 00 00 00 00 00 00 00 00 00 00 00 42 21 99 9A 3F CC CC CD 41 F3 33 33 00 00 00 00 41 00 00 00 43 36 CC CD 41 DC CC CD 42 BE 66 66 00 00 00 00 42 6E CA 98
write:01 03 01 0F 00 08 75 F3
01 03 10
100 01 9C 94 00 00 00 00 00 00 8A CA 00 00 D7 5D
43 69 26 66
233.15
43 69 43 12
233.262
43 68 D7 8D
232.842
43 C9 E9 DB
403.827
43 C9 C8 93
403.567
43 C9 BD 91
403.481
40 D4 7A E1
6.64
40 70 A3 D7
3.76
00 00 00 00
0
44 82 00 00
1040
44 0C 00 00
560
00 00 00 00
0
44 C8 00 00
1600
43 A0 00 00
320
00 00 00 00
0
00 00 00 00
0
43 F0 00 00
480
44 BE 00 00
1520
44 5C 00 00
880
00 00 00 00
0
44 D2 00 00
1680
3F 2B 02 0C
0.668
3F 26 66 66
0.65
00 00 00 00
0
3F 77 0A 3D
0.965
42 48 CA 0C
50.19731
43 E2 00 00
452
42 16 66 66
37.6
43 8D CC CD
283.6
00 00 00 00
0
43 02 66 66
130.4
00 00 00 00
0
00 00 00 00
0
00 00 00 00
0
00 00 00 00
0
00 00 00 00
0
3E CC CC CD
0.4
00 00 00 00
0
3E CC CC CD
0.4
00 00 00 00
0
00 00 00 00
0
43 10 66 66
144.4
41 96 66 66
18.8
42 91 99 9A
72.8
00 00 00 00
0
42 53 33 33
52.8
44 0E 99 9A
570.4
42 56 66 66
53.6
43 B2 00 00
356
00 00 00 00
0
43 20 00 00
160
00 00 00 00
0
00 00 00 00
0
00 00 00 00
0
00 00 00 00
0
00 00 00 00
0
3F CC CC CD
1.6
00 00 00 00
0
3F CC CC CD
1.6
00 00 00 00
0
00 00 00 00
0
43 33 33 33
179.2
41 C0 00 00
24
42 B7 33 33
91.6
00 00 00 00
0
42 7C CC CD
63.2
44 42 66 66
777.6
42 AF 33 33
87.6
43 F7 66 66
494.8
00 00 00 00
0
43 42 CC CD
194.8
00 00 00 00
0
00 00 00 00
0
00 00 00 00
0
00 00 00 00
0
00 00 00 00
0
42 21 99 9A
40.4
3F CC CC CD
1.6
41 F3 33 33
30.4
00 00 00 00
0
41 00 00 00
8
43 36 CC CD
182.8
41 DC CC CD
27.6
42 BE 66 66
95.2
00 00 00 00
0
42 6E CA 98
59.697845
00 01 9C 94
105620
00 00 00 00
0
00 00 8A CA
35530
00 00 D7 5D
55133
233.15233.262232.842403.827403.567403.4816.643.760104056001600320004801520880016800.6680.6500.96550.1973145237.6283.60130.4000000.400.400144.418.872.8052.8570.453.63560160000001.601.600179.22491.6063.2777.687.6494.80194.80000040.41.630.408182.827.695.2059.697845120171123133406105.62035.5355.133insert into tbl_power_info_v2(P_A_DIANYA,P_B_DIANYA,P_C_DIANYA,P_UAB_XIANDIANYA,P_UBC_XIANDIANYA,P_UCA_XIANDIANYA,P_A_DIANLIU,P_B_DIANLIU,P_C_DIANLIU,P_A_YGGL,P_B_YGGL,P_C_YGGL,P_HXYGGL,P_A_WGGL,P_B_WGGL,P_C_WGGL,P_HXWGGL,P_A_SZGL,P_B_SZGL,P_C_SZGL,P_HXSZGL,P_A_GLYS,P_B_GLYS,P_C_GLYS,P_HXGLYS,P_DWPL,P_BY_KwhZ,P_BY_KwhJ,P_BY_KwhF,P_BY_KwhP,P_BY_KwhG,P_BY_HKwhZ,P_BY_HKwhJ,P_BY_HKwhF,P_BY_HKwhP,P_BY_HKwhG, P_BY_KvarhZ,P_BY_KvarhJ,P_BY_KvarhF,P_BY_KvarhP,P_BY_KvarhG, P_BY_HKvarhZ,P_BY_HKvarhJ,P_BY_HKvarhF,P_BY_HKvarhP,P_BY_HKvarhG, P_SY_KwhZ,P_SY_KwhJ,P_SY_KwhF,P_SY_KwhP,P_SY_KwhG, P_SY_HKwhZ,P_SY_HKwhJ,P_SY_HKwhF,P_SY_HKwhP,P_SY_HKwhG, P_SY_KvarhZ,P_SY_KvarhJ,P_SY_KvarhF,P_SY_KvarhP,P_SY_KvarhG, P_SY_HKvarhZ,P_SY_HKvarhJ,P_SY_HKvarhF,P_SY_HKvarhP,P_SY_HKvarhG, P_SSY_KwhZ,P_SSY_KwhJ,P_SSY_KwhF,P_SSY_KwhP,P_SSY_KwhG, P_SSY_HKwhZ,P_SSY_HKwhJ,P_SSY_HKwhF,P_SSY_HKwhP,P_SSY_HKwhG, P_SSY_KvarhZ,P_SSY_KvarhJ,P_SSY_KvarhF,P_SSY_KvarhP,P_SSY_KvarhG, P_SSY_HKvarhZ,P_SSY_HKvarhJ,P_SSY_HKvarhF,P_SSY_HKvarhP,P_SSY_HKvarhG,P_CODE,P_TIME,P_ZXYGDN,P_FXYGDN,P_ZXWGDN,P_FXWGDN)values(233.15,233.262,232.842,403.827,403.567,403.481,6.64,3.76,0,1040,560,0,1600,320,0,0,480,1520,880,0,1680,0.668,0.65,0,0.965,50.19731,452,37.6,283.6,0,130.4,0,0,0,0,0,0.4,0,0.4,0,0,144.4,18.8,72.8,0,52.8,570.4,53.6,356,0,160,0,0,0,0,0,1.6,0,1.6,0,0,179.2,24,91.6,0,63.2,777.6,87.6,494.8,0,194.8,0,0,0,0,0,40.4,1.6,30.4,0,8,182.8,27.6,95.2,0,59.697845,1,20171123133406,105.62,0,35.53,55.133)
写入成功读取完毕一个
write:02 03 00 38 00 34 C5 E3
02 03 68
243 68 4D 50 43 68 B2 2D 43 68 0F 9E 43 C9 4E B8 43 C9 2D 71 43 C9 0C 29 41 9C CC CD 41 88 F5 C3 41 41 47 AE 45 87 00 00 45 61 00 00 45 25 00 00 46 23 C0 00 44 AA 00 00 44 96 00 00 44 70 00 00 45 5C 00 00 45 8E 80 00 45 7A 00 00 45 2F 00 00 46 2D C0 00 3F 70 62 4E 3F 68 31 27 3F 6D D2 F2 3F 72 6E 98 42 48 FD A6
write:02 03 07 CF 00 78 74 90
02 03 F0
244 84 66 66 42 DD 99 9A 44 1A 80 00 00 00 00 00 43 A5 33 33 00 00 00 00 00 00 00 00 00 00 00 00 00 00 00 00 00 00 00 00 42 28 00 00 40 B3 33 33 41 A0 00 00 00 00 00 00 41 80 00 00 42 29 99 9A 3F CC CC CD 41 F6 66 66 00 00 00 00 41 13 33 33 44 8E D9 9A 43 18 CC CD 44 1F E6 66 00 00 00 00 43 AF 00 00 00 00 00 00 00 00 00 00 00 00 00 00 00 00 00 00 00 00 00 00 42 21 99 9A 41 20 00 00 41 A9 99 9A 00 00 00 00 41 0C CC CD 42 30 00 00 40 4C CC CD 41 F3 33 33 00 00 00 00 41 19 99 9A 45 2F 66 66 43 E3 99 9A 44 DC 33 33 00 00 00 00 44 13 4C CD 00 00 00 00 00 00 00 00 00 00 00 00 00 00 00 00 00 00 00 00 44 77 E6 66 43 2E CC CD 44 24 B3 33 00 00 00 00 43 1D 99 9A 42 13 33 33 40 00 00 00 41 D9 99 9A 00 00 00 00 40 E6 32 97
write:02 03 01 0F 00 08 75 C0
02 03 10
200 03 40 2E 00 00 00 05 00 01 30 8D 00 00 CC 22
43 68 4D 50
232.302
43 68 B2 2D
232.696
43 68 0F 9E
232.061
43 C9 4E B8
402.615
43 C9 2D 71
402.355
43 C9 0C 29
402.095
41 9C CC CD
19.6
41 88 F5 C3
17.12
41 41 47 AE
12.08
45 87 00 00
4320
45 61 00 00
3600
45 25 00 00
2640
46 23 C0 00
10480
44 AA 00 00
1360
44 96 00 00
1200
44 70 00 00
960
45 5C 00 00
3520
45 8E 80 00
4560
45 7A 00 00
4000
45 2F 00 00
2800
46 2D C0 00
11120
3F 70 62 4E
0.939
3F 68 31 27
0.907
3F 6D D2 F2
0.929
3F 72 6E 98
0.947
42 48 FD A6
50.247704
44 84 66 66
1059.2
42 DD 99 9A
110.8
44 1A 80 00
618
00 00 00 00
0
43 A5 33 33
330.4
00 00 00 00
0
00 00 00 00
0
00 00 00 00
0
00 00 00 00
0
00 00 00 00
0
42 28 00 00
42
40 B3 33 33
5.6
41 A0 00 00
20
00 00 00 00
0
41 80 00 00
16
42 29 99 9A
42.4
3F CC CC CD
1.6
41 F6 66 66
30.8
00 00 00 00
0
41 13 33 33
9.2
44 8E D9 9A
1142.8
43 18 CC CD
152.8
44 1F E6 66
639.6
00 00 00 00
0
43 AF 00 00
350
00 00 00 00
0
00 00 00 00
0
00 00 00 00
0
00 00 00 00
0
00 00 00 00
0
42 21 99 9A
40.4
41 20 00 00
10
41 A9 99 9A
21.2
00 00 00 00
0
41 0C CC CD
8.8
42 30 00 00
44
40 4C CC CD
3.2
41 F3 33 33
30.4
00 00 00 00
0
41 19 99 9A
9.6
45 2F 66 66
2806.4
43 E3 99 9A
455.2
44 DC 33 33
1761.6
00 00 00 00
0
44 13 4C CD
589.2
00 00 00 00
0
00 00 00 00
0
00 00 00 00
0
00 00 00 00
0
00 00 00 00
0
44 77 E6 66
991.6
43 2E CC CD
174.8
44 24 B3 33
658.8
00 00 00 00
0
43 1D 99 9A
157.6
42 13 33 33
36.8
40 00 00 00
2
41 D9 99 9A
27.2
00 00 00 00
0
40 E6 32 97
7.1936755
00 03 40 2E
213038
00 00 00 05
5
00 01 30 8D
77965
00 00 CC 22
52258
232.302232.696232.061402.615402.355402.09519.617.1212.0843203600264010480136012009603520456040002800111200.9390.9070.9290.94750.2477041059.2110.86180330.400000425.62001642.41.630.809.21142.8152.8639.603500000040.41021.208.8443.230.409.62806.4455.21761.60589.200000991.6174.8658.80157.636.8227.207.1936755220171123133506213.0380.00577.96552.258insert into tbl_power_info_v2(P_A_DIANYA,P_B_DIANYA,P_C_DIANYA,P_UAB_XIANDIANYA,P_UBC_XIANDIANYA,P_UCA_XIANDIANYA,P_A_DIANLIU,P_B_DIANLIU,P_C_DIANLIU,P_A_YGGL,P_B_YGGL,P_C_YGGL,P_HXYGGL,P_A_WGGL,P_B_WGGL,P_C_WGGL,P_HXWGGL,P_A_SZGL,P_B_SZGL,P_C_SZGL,P_HXSZGL,P_A_GLYS,P_B_GLYS,P_C_GLYS,P_HXGLYS,P_DWPL,P_BY_KwhZ,P_BY_KwhJ,P_BY_KwhF,P_BY_KwhP,P_BY_KwhG,P_BY_HKwhZ,P_BY_HKwhJ,P_BY_HKwhF,P_BY_HKwhP,P_BY_HKwhG, P_BY_KvarhZ,P_BY_KvarhJ,P_BY_KvarhF,P_BY_KvarhP,P_BY_KvarhG, P_BY_HKvarhZ,P_BY_HKvarhJ,P_BY_HKvarhF,P_BY_HKvarhP,P_BY_HKvarhG, P_SY_KwhZ,P_SY_KwhJ,P_SY_KwhF,P_SY_KwhP,P_SY_KwhG, P_SY_HKwhZ,P_SY_HKwhJ,P_SY_HKwhF,P_SY_HKwhP,P_SY_HKwhG, P_SY_KvarhZ,P_SY_KvarhJ,P_SY_KvarhF,P_SY_KvarhP,P_SY_KvarhG, P_SY_HKvarhZ,P_SY_HKvarhJ,P_SY_HKvarhF,P_SY_HKvarhP,P_SY_HKvarhG, P_SSY_KwhZ,P_SSY_KwhJ,P_SSY_KwhF,P_SSY_KwhP,P_SSY_KwhG, P_SSY_HKwhZ,P_SSY_HKwhJ,P_SSY_HKwhF,P_SSY_HKwhP,P_SSY_HKwhG, P_SSY_KvarhZ,P_SSY_KvarhJ,P_SSY_KvarhF,P_SSY_KvarhP,P_SSY_KvarhG, P_SSY_HKvarhZ,P_SSY_HKvarhJ,P_SSY_HKvarhF,P_SSY_HKvarhP,P_SSY_HKvarhG,P_CODE,P_TIME,P_ZXYGDN,P_FXYGDN,P_ZXWGDN,P_FXWGDN)values(232.302,232.696,232.061,402.615,402.355,402.095,19.6,17.12,12.08,4320,3600,2640,10480,1360,1200,960,3520,4560,4000,2800,11120,0.939,0.907,0.929,0.947,50.247704,1059.2,110.8,618,0,330.4,0,0,0,0,0,42,5.6,20,0,16,42.4,1.6,30.8,0,9.2,1142.8,152.8,639.6,0,350,0,0,0,0,0,40.4,10,21.2,0,8.8,44,3.2,30.4,0,9.6,2806.4,455.2,1761.6,0,589.2,0,0,0,0,0,991.6,174.8,658.8,0,157.6,36.8,2,27.2,0,7.1936755,2,20171123133506,213.038,0.005,77.965,52.258)
写入成功读取完毕一个
write:03 03 00 38 00 34 C4 32
03 03 68
343 68 A8 F6 43 68 BC 6A 43 68 0F DF 43 C9 7B 02 43 C9 38 93 43 C9 2D 71 40 15 C2 8F 3F D7 0A 3D 40 2A E1 48 43 B4 00 00 43 A5 00 00 43 96 00 00 44 77 80 00 42 B4 00 00 42 70 00 00 43 FF 00 00 43 F0 00 00 44 07 00 00 43 C3 00 00 44 1D 80 00 44 8A C0 00 3F 29 FB E7 3F 55 81 06 3F 00 83 12 3F 65 60 42 42 48 28 F3
write:03 03 07 CF 00 78 75 41
03 03 F0
343 A8 AC CD 42 84 99 9A 43 39 8C CD 00 00 00 00 42 AA B3 33 00 00 00 00 00 00 00 00 00 00 00 00 00 00 00 00 00 00 00 00 42 8F B3 33 41 5F 33 33 42 38 33 33 00 00 00 00 41 3B 33 33 40 66 66 66 3F 40 00 00 40 23 33 33 00 00 00 00 3E 19 99 9A 43 EF 2C CD 42 F0 00 00 43 7D 33 33 00 00 00 00 00 00 00 00 00 00 00 00 00 00 00 00 00 00 00 00 00 00 00 00 00 00 00 00 00 00 00 00 00 00 00 00 00 00 00 00 00 00 00 00 00 00 00 00 00 00 00 00 00 00 00 00 00 00 00 00 00 00 00 00 00 00 00 00 00 00 00 00 00 00 00 00 00 00 00 00 00 00 00 00 00 00 00 00 00 00 00 00 00 00 00 00 00 00 00 00 00 00 00 00 00 00 00 00 00 00 00 00 00 00 00 00 00 00 00 00 00 00 00 00 00 00 00 00 00 00 00 00 00 00 00 00 00 00 00 00 00 00 00 00 00 00 00 00
00 00 00
heart:00 00 00 00 42 D1 B3 33 00 00 00 00 00 00 00 00 00 00 00 00 00 00 00 00 00 00 00 00 42 9C E6 66 40 E6 66 66 42 5B 99 9A 00 00 00 00 41 80 66 66 41 68 CC CD 40 A8 00 00 40 F9 99 9A 00 00 00 00 3F AC CC CD 43 D8 60 00 42 B5 80 00 43 81 86 66 00 00 00 00 42 A5 99 9A 00 00 00 00 00 00 00 00 00 00 00 00 00 00 00 00 00 00 00 00 42 F7 CC CD 41 90 00 00 42 A5 99 9A 00 00 00 00 41 B8 CC CD 40 EB 33 33 40 06 66 66 40 53 33 33 00 00 00 00 3F E6 D8 9C
write:03 03 01 0F 00 08 74 11
03 03 10
300 00 BD DA 00 00 00 00 00 00 25 C1 00 00 E1 E7
43 68 A8 F6
232.66
43 68 BC 6A
232.736
43 68 0F DF
232.062
43 C9 7B 02
402.961
43 C9 38 93
402.442
43 C9 2D 71
402.355
40 15 C2 8F
2.34
3F D7 0A 3D
1.68
40 2A E1 48
2.67
43 B4 00 00
360
43 A5 00 00
330
43 96 00 00
300
44 77 80 00
990
42 B4 00 00
90
42 70 00 00
60
43 FF 00 00
510
43 F0 00 00
480
44 07 00 00
540
43 C3 00 00
390
44 1D 80 00
630
44 8A C0 00
1110
3F 29 FB E7
0.664
3F 55 81 06
0.834
3F 00 83 12
0.502
3F 65 60 42
0.896
42 48 28 F3
50.03999
43 A8 AC CD
337.35
42 84 99 9A
66.3
43 39 8C CD
185.55
00 00 00 00
0
42 AA B3 33
85.35
00 00 00 00
0
00 00 00 00
0
00 00 00 00
0
00 00 00 00
0
00 00 00 00
0
42 8F B3 33
71.85
41 5F 33 33
13.95
42 38 33 33
46.05
00 00 00 00
0
41 3B 33 33
11.7
40 66 66 66
3.6
3F 40 00 00
0.75
40 23 33 33
2.55
00 00 00 00
0
3E 19 99 9A
0.15
43 EF 2C CD
478.35
42 F0 00 00
120
43 7D 33 33
253.2
00 00 00 00
0
00 00 00 00
0
00 00 00 00
0
00 00 00 00
0
00 00 00 00
0
00 00 00 00
0
00 00 00 00
0
00 00 00 00
0
00 00 00 00
0
00 00 00 00
0
00 00 00 00
0
00 00 00 00
0
00 00 00 00
0
00 00 00 00
0
00 00 00 00
0
00 00 00 00
0
00 00 00 00
0
00 00 00 00
0
00 00 00 00
0
00 00 00 00
0
00 00 00 00
0
00 00 00 00
0
00 00 00 00
0
00 00 00 00
0
00 00 00 00
0
00 00 00 00
0
00 00 00 00
0
00 00 00 00
0
00 00 00 00
0
00 00 00 00
0
00 00 00 00
0
00 00 00 00
0
00 00 00 00
0
00 00 00 00
0
00 00 00 00
0
00 00 00 00
0
00 00 00 00
0
00 00 BD DA
48602
00 00 00 00
0
00 00 25 C1
9665
00 00 E1 E7
57831
232.66232.736232.062402.961402.442402.3552.341.682.67360330300990906051048054039063011100.6640.8340.5020.89650.03999337.3566.3185.55085.350000071.8513.9546.05011.73.60.752.5500.15478.35120253.2000000000000000000000000000000000000032017112313361248.60209.66557.831insert into tbl_power_info_v2(P_A_DIANYA,P_B_DIANYA,P_C_DIANYA,P_UAB_XIANDIANYA,P_UBC_XIANDIANYA,P_UCA_XIANDIANYA,P_A_DIANLIU,P_B_DIANLIU,P_C_DIANLIU,P_A_YGGL,P_B_YGGL,P_C_YGGL,P_HXYGGL,P_A_WGGL,P_B_WGGL,P_C_WGGL,P_HXWGGL,P_A_SZGL,P_B_SZGL,P_C_SZGL,P_HXSZGL,P_A_GLYS,P_B_GLYS,P_C_GLYS,P_HXGLYS,P_DWPL,P_BY_KwhZ,P_BY_KwhJ,P_BY_KwhF,P_BY_KwhP,P_BY_KwhG,P_BY_HKwhZ,P_BY_HKwhJ,P_BY_HKwhF,P_BY_HKwhP,P_BY_HKwhG, P_BY_KvarhZ,P_BY_KvarhJ,P_BY_KvarhF,P_BY_KvarhP,P_BY_KvarhG, P_BY_HKvarhZ,P_BY_HKvarhJ,P_BY_HKvarhF,P_BY_HKvarhP,P_BY_HKvarhG, P_SY_KwhZ,P_SY_KwhJ,P_SY_KwhF,P_SY_KwhP,P_SY_KwhG, P_SY_HKwhZ,P_SY_HKwhJ,P_SY_HKwhF,P_SY_HKwhP,P_SY_HKwhG, P_SY_KvarhZ,P_SY_KvarhJ,P_SY_KvarhF,P_SY_KvarhP,P_SY_KvarhG, P_SY_HKvarhZ,P_SY_HKvarhJ,P_SY_HKvarhF,P_SY_HKvarhP,P_SY_HKvarhG, P_SSY_KwhZ,P_SSY_KwhJ,P_SSY_KwhF,P_SSY_KwhP,P_SSY_KwhG, P_SSY_HKwhZ,P_SSY_HKwhJ,P_SSY_HKwhF,P_SSY_HKwhP,P_SSY_HKwhG, P_SSY_KvarhZ,P_SSY_KvarhJ,P_SSY_KvarhF,P_SSY_KvarhP,P_SSY_KvarhG, P_SSY_HKvarhZ,P_SSY_HKvarhJ,P_SSY_HKvarhF,P_SSY_HKvarhP,P_SSY_HKvarhG,P_CODE,P_TIME,P_ZXYGDN,P_FXYGDN,P_ZXWGDN,P_FXWGDN)values(232.66,232.736,232.062,402.961,402.442,402.355,2.34,1.68,2.67,360,330,300,990,90,60,510,480,540,390,630,1110,0.664,0.834,0.502,0.896,50.03999,337.35,66.3,185.55,0,85.35,0,0,0,0,0,71.85,13.95,46.05,0,11.7,3.6,0.75,2.55,0,0.15,478.35,120,253.2,0,0,0,0,0,0,0,0,0,0,0,0,0,0,0,0,0,0,0,0,0,0,0,0,0,0,0,0,0,0,0,0,0,0,0,0,0,3,20171123133612,48.602,0,9.665,57.831)
写入成功读取完毕一个
write:04 03 00 38 00 34 C5 85
04 03 68
443 69 21 06 43 69 16 46 43 68 9D B2 43 C9 D3 B6 43 C9 9C 4A 43 C9 A7 6D 3F CC CC CD 00 00 00 00 40 26 66 66 43 70 00 00 00 00 00 00 44 02 00 00 44 48 00 00 42 A0 00 00 00 00 00 00 42 A0 00 00 00 00 00 00 43 B4 00 00 42 A0 00 00 44 16 00 00 44 48 00 00 3F 20 41 89 3F 1E 35 3F 3F 58 D4 FE 3F 7F BE 77 42 48 33 BB
write:04 03 07 CF 00 78 74 F6
04 03 F0
444 13 26 66 42 F6 00 00 43 A7 4C CD 00 00 00 00 43 03 00 00 00 00 00 00 00 00 00 00 00 00 00 00 00 00 00 00 00 00 00 00 40 AC CC CD 3E 4C CC CD 3F B3 33 33 00 00 00 00 40 66 66 66 42 70 CC CD 41 46 66 66 41 EC CC CD 00 00 00 00 41 90 00 00 44 1B 00 00 42 CE CC CD 43 AE 00 00 00 00 00 00 43 28 66 66 00 00 00 00 00 00 00 00 00 00 00 00 00 00 00 00 00 00 00 00 41 B0 00 00 40 26 66 66 40 C0 00 00 00 00 00 00 41 53 33 33 42 48 CC CD 41 06 66 66 41 D0 00 00 00 00 00 00 41 76 66 66 44 21 8C CD 42 DE CC CD 43 B0 99 9A 00 00 00 00 43 35 33 33 00 00 00 00 00 00 00 00 00 00 00 00 00 00 00 00 00 00 00 00 41 E8 00 00 40 B9 99 9A 40 E0 00 00 00 00 00 00 41 81 99 9A 42 14 CC CD 40 8C CC CD 41 9B 33 33 00 00 00 00 41 50 CE 36
write:04 03 01 0F 00 08 75 A6
04 03 10
400 02 8B 14 00 00 00 00 00 00 42 2F 00 00 AC 33
43 69 21 06
233.129
43 69 16 46
233.087
43 68 9D B2
232.616
43 C9 D3 B6
403.654
43 C9 9C 4A
403.221
43 C9 A7 6D
403.308
3F CC CC CD
1.6
00 00 00 00
0
40 26 66 66
2.6
43 70 00 00
240
00 00 00 00
0
44 02 00 00
520
44 48 00 00
800
42 A0 00 00
80
00 00 00 00
0
42 A0 00 00
80
00 00 00 00
0
43 B4 00 00
360
42 A0 00 00
80
44 16 00 00
600
44 48 00 00
800
3F 20 41 89
0.626
3F 1E 35 3F
0.618
3F 58 D4 FE
0.847
3F 7F BE 77
0.999
42 48 33 BB
50.050518
44 13 26 66
588.6
42 F6 00 00
123
43 A7 4C CD
334.6
00 00 00 00
0
43 03 00 00
131
00 00 00 00
0
00 00 00 00
0
00 00 00 00
0
00 00 00 00
0
00 00 00 00
0
40 AC CC CD
5.4
3E 4C CC CD
0.2
3F B3 33 33
1.4
00 00 00 00
0
40 66 66 66
3.6
42 70 CC CD
60.2
41 46 66 66
12.4
41 EC CC CD
29.6
00 00 00 00
0
41 90 00 00
18
44 1B 00 00
620
42 CE CC CD
103.4
43 AE 00 00
348
00 00 00 00
0
43 28 66 66
168.4
00 00 00 00
0
00 00 00 00
0
00 00 00 00
0
00 00 00 00
0
00 00 00 00
0
41 B0 00 00
22
40 26 66 66
2.6
40 C0 00 00
6
00 00 00 00
0
41 53 33 33
13.2
42 48 CC CD
50.2
41 06 66 66
8.4
41 D0 00 00
26
00 00 00 00
0
41 76 66 66
15.4
44 21 8C CD
646.2
42 DE CC CD
111.4
43 B0 99 9A
353.2
00 00 00 00
0
43 35 33 33
181.2
00 00 00 00
0
00 00 00 00
0
00 00 00 00
0
00 00 00 00
0
00 00 00 00
0
41 E8 00 00
29
40 B9 99 9A
5.8
40 E0 00 00
7
00 00 00 00
0
41 81 99 9A
16.2
42 14 CC CD
37.2
40 8C CC CD
4.4
41 9B 33 33
19.4
00 00 00 00
0
41 50 CE 36
13.050344
00 02 8B 14
166676
00 00 00 00
0
00 00 42 2F
16943
00 00 AC 33
44083
233.129233.087232.616403.654403.221403.3081.602.62400520800800800360806008000.6260.6180.8470.99950.050518588.6123334.60131000005.40.21.403.660.212.429.6018620103.43480168.400000222.66013.250.28.426015.4646.2111.4353.20181.200000295.87016.237.24.419.4013.050344420171123133714166.676016.94344.083insert into tbl_power_info_v2(P_A_DIANYA,P_B_DIANYA,P_C_DIANYA,P_UAB_XIANDIANYA,P_UBC_XIANDIANYA,P_UCA_XIANDIANYA,P_A_DIANLIU,P_B_DIANLIU,P_C_DIANLIU,P_A_YGGL,P_B_YGGL,P_C_YGGL,P_HXYGGL,P_A_WGGL,P_B_WGGL,P_C_WGGL,P_HXWGGL,P_A_SZGL,P_B_SZGL,P_C_SZGL,P_HXSZGL,P_A_GLYS,P_B_GLYS,P_C_GLYS,P_HXGLYS,P_DWPL,P_BY_KwhZ,P_BY_KwhJ,P_BY_KwhF,P_BY_KwhP,P_BY_KwhG,P_BY_HKwhZ,P_BY_HKwhJ,P_BY_HKwhF,P_BY_HKwhP,P_BY_HKwhG, P_BY_KvarhZ,P_BY_KvarhJ,P_BY_KvarhF,P_BY_KvarhP,P_BY_KvarhG, P_BY_HKvarhZ,P_BY_HKvarhJ,P_BY_HKvarhF,P_BY_HKvarhP,P_BY_HKvarhG, P_SY_KwhZ,P_SY_KwhJ,P_SY_KwhF,P_SY_KwhP,P_SY_KwhG, P_SY_HKwhZ,P_SY_HKwhJ,P_SY_HKwhF,P_SY_HKwhP,P_SY_HKwhG, P_SY_KvarhZ,P_SY_KvarhJ,P_SY_KvarhF,P_SY_KvarhP,P_SY_KvarhG, P_SY_HKvarhZ,P_SY_HKvarhJ,P_SY_HKvarhF,P_SY_HKvarhP,P_SY_HKvarhG, P_SSY_KwhZ,P_SSY_KwhJ,P_SSY_KwhF,P_SSY_KwhP,P_SSY_KwhG, P_SSY_HKwhZ,P_SSY_HKwhJ,P_SSY_HKwhF,P_SSY_HKwhP,P_SSY_HKwhG, P_SSY_KvarhZ,P_SSY_KvarhJ,P_SSY_KvarhF,P_SSY_KvarhP,P_SSY_KvarhG, P_SSY_HKvarhZ,P_SSY_HKvarhJ,P_SSY_HKvarhF,P_SSY_HKvarhP,P_SSY_HKvarhG,P_CODE,P_TIME,P_ZXYGDN,P_FXYGDN,P_ZXWGDN,P_FXWGDN)values(233.129,233.087,232.616,403.654,403.221,403.308,1.6,0,2.6,240,0,520,800,80,0,80,0,360,80,600,800,0.626,0.618,0.847,0.999,50.050518,588.6,123,334.6,0,131,0,0,0,0,0,5.4,0.2,1.4,0,3.6,60.2,12.4,29.6,0,18,620,103.4,348,0,168.4,0,0,0,0,0,22,2.6,6,0,13.2,50.2,8.4,26,0,15.4,646.2,111.4,353.2,0,181.2,0,0,0,0,0,29,5.8,7,0,16.2,37.2,4.4,19.4,0,13.050344,4,20171123133714,166.676,0,16.943,44.083)
写入成功读取完毕一个
write:05 03 00 38 00 34 C4 54
05 03 68
543 69 5B A6 43 69 27 2B 43 68 D2 2D 43 C9 F4 FE 43 C9 BD 91 43 C9 D3 B6 40 5E B8 52 40 A3 D7 0A 40 8C CC CD 43 F0 00 00 44 8C 00 00 44 3E 00 00 45 13 80 00 42 F0 00 00 42 F0 00 00 43 48 00 00 43 DC 00 00 44 52 00 00 44 96 00 00 44 7A 00 00 45 16 00 00 3F 18 D4 FE 3F 6F DF 3B 3F 42 4D D3 3F 7B A5 E3 42 48 0C 1C
write:05 03 07 CF 00 78 75 27
05 03 F0
544 9C 20 00 43 95 E6 66 44 2C 73 33 00 00 00 00 43 81 99 9A 00 00 00 00 00 00 00 00 00 00 00 00 00 00 00 00 00 00 00 00 00 00 00 00 00 00 00 00 00 00 00 00 00 00 00 00 00 00 00 00 43 40 99 9A 42 28 CC CD 42 BA 00 00 00 00 00 00 42 65 99 9A 44 C1 06 66 43 AF 99 9A 44 5A 00 00 00 00 00 00 43 A0 66 66 00 00 00 00 00 00 00 00 00 00 00 00 00 00 00 00 00 00 00 00 3F CC CC CD 3F 19 99 9A 3F 4C CC CD 00 00 00 00 00 00 00 00 43 6F 99 9A 42 50 00 00 42 E7 33 33 00 00 00 00 42 8F 99 9A 44 D5 93 33 43 A4 B3 33 44 7E 19 9A 00 00 00 00 43 B5 33 33 00 00 00 00 00 00 00 00 00 00 00 00 00 00 00 00 00 00 00 00 42 A8 66 66 41 9B 33 33 42 69 99 9A 00 00 00 00 40 CC CC CD 43 26 33 33 41 FE 66 66 42 9E CC CD 00 00 00 00 42 5B AB 25
write:05 03 01 0F 00 08 74 77
05 03 10
500 08 73 5E 00 00 00 00 00 00 D9 A8 00 00 C0 0F
43 69 5B A6
233.358
43 69 27 2B
233.153
43 68 D2 2D
232.821
43 C9 F4 FE
403.914
43 C9 BD 91
403.481
43 C9 D3 B6
403.654
40 5E B8 52
3.48
40 A3 D7 0A
5.12
40 8C CC CD
4.4
43 F0 00 00
480
44 8C 00 00
1120
44 3E 00 00
760
45 13 80 00
2360
42 F0 00 00
120
42 F0 00 00
120
43 48 00 00
200
43 DC 00 00
440
44 52 00 00
840
44 96 00 00
1200
44 7A 00 00
1000
45 16 00 00
2400
3F 18 D4 FE
0.597
3F 6F DF 3B
0.937
3F 42 4D D3
0.759
3F 7B A5 E3
0.983
42 48 0C 1C
50.011826
44 9C 20 00
1249
43 95 E6 66
299.8
44 2C 73 33
689.8
00 00 00 00
0
43 81 99 9A
259.2
00 00 00 00
0
00 00 00 00
0
00 00 00 00
0
00 00 00 00
0
00 00 00 00
0
00 00 00 00
0
00 00 00 00
0
00 00 00 00
0
00 00 00 00
0
00 00 00 00
0
43 40 99 9A
192.6
42 28 CC CD
42.2
42 BA 00 00
93
00 00 00 00
0
42 65 99 9A
57.4
44 C1 06 66
1544.2
43 AF 99 9A
351.2
44 5A 00 00
872
00 00 00 00
0
43 A0 66 66
320.8
00 00 00 00
0
00 00 00 00
0
00 00 00 00
0
00 00 00 00
0
00 00 00 00
0
3F CC CC CD
1.6
3F 19 99 9A
0.6
3F 4C CC CD
0.8
00 00 00 00
0
00 00 00 00
0
43 6F 99 9A
239.6
42 50 00 00
52
42 E7 33 33
115.6
00 00 00 00
0
42 8F 99 9A
71.8
44 D5 93 33
1708.6
43 A4 B3 33
329.4
44 7E 19 9A
1016.4
00 00 00 00
0
43 B5 33 33
362.4
00 00 00 00
0
00 00 00 00
0
00 00 00 00
0
00 00 00 00
0
00 00 00 00
0
42 A8 66 66
84.2
41 9B 33 33
19.4
42 69 99 9A
58.4
00 00 00 00
0
40 CC CC CD
6.4
43 26 33 33
166.2
41 FE 66 66
31.8
42 9E CC CD
79.4
00 00 00 00
0
42 5B AB 25
54.917133
00 08 73 5E
553822
00 00 00 00
0
00 00 D9 A8
55720
00 00 C0 0F
49167
233.358233.153232.821403.914403.481403.6543.485.124.4480112076023601201202004408401200100024000.5970.9370.7590.98350.0118261249299.8689.80259.20000000000192.642.293057.41544.2351.28720320.8000001.60.60.800239.652115.6071.81708.6329.41016.40362.40000084.219.458.406.4166.231.879.4054.917133520171123133805553.822055.7249.167insert into tbl_power_info_v2(P_A_DIANYA,P_B_DIANYA,P_C_DIANYA,P_UAB_XIANDIANYA,P_UBC_XIANDIANYA,P_UCA_XIANDIANYA,P_A_DIANLIU,P_B_DIANLIU,P_C_DIANLIU,P_A_YGGL,P_B_YGGL,P_C_YGGL,P_HXYGGL,P_A_WGGL,P_B_WGGL,P_C_WGGL,P_HXWGGL,P_A_SZGL,P_B_SZGL,P_C_SZGL,P_HXSZGL,P_A_GLYS,P_B_GLYS,P_C_GLYS,P_HXGLYS,P_DWPL,P_BY_KwhZ,P_BY_KwhJ,P_BY_KwhF,P_BY_KwhP,P_BY_KwhG,P_BY_HKwhZ,P_BY_HKwhJ,P_BY_HKwhF,P_BY_HKwhP,P_BY_HKwhG, P_BY_KvarhZ,P_BY_KvarhJ,P_BY_KvarhF,P_BY_KvarhP,P_BY_KvarhG, P_BY_HKvarhZ,P_BY_HKvarhJ,P_BY_HKvarhF,P_BY_HKvarhP,P_BY_HKvarhG, P_SY_KwhZ,P_SY_KwhJ,P_SY_KwhF,P_SY_KwhP,P_SY_KwhG, P_SY_HKwhZ,P_SY_HKwhJ,P_SY_HKwhF,P_SY_HKwhP,P_SY_HKwhG, P_SY_KvarhZ,P_SY_KvarhJ,P_SY_KvarhF,P_SY_KvarhP,P_SY_KvarhG, P_SY_HKvarhZ,P_SY_HKvarhJ,P_SY_HKvarhF,P_SY_HKvarhP,P_SY_HKvarhG, P_SSY_KwhZ,P_SSY_KwhJ,P_SSY_KwhF,P_SSY_KwhP,P_SSY_KwhG, P_SSY_HKwhZ,P_SSY_HKwhJ,P_SSY_HKwhF,P_SSY_HKwhP,P_SSY_HKwhG, P_SSY_KvarhZ,P_SSY_KvarhJ,P_SSY_KvarhF,P_SSY_KvarhP,P_SSY_KvarhG, P_SSY_HKvarhZ,P_SSY_HKvarhJ,P_SSY_HKvarhF,P_SSY_HKvarhP,P_SSY_HKvarhG,P_CODE,P_TIME,P_ZXYGDN,P_FXYGDN,P_ZXWGDN,P_FXWGDN)values(233.358,233.153,232.821,403.914,403.481,403.654,3.48,5.12,4.4,480,1120,760,2360,120,120,200,440,840,1200,1000,2400,0.597,0.937,0.759,0.983,50.011826,1249,299.8,689.8,0,259.2,0,0,0,0,0,0,0,0,0,0,192.6,42.2,93,0,57.4,1544.2,351.2,872,0,320.8,0,0,0,0,0,1.6,0.6,0.8,0,0,239.6,52,115.6,0,71.8,1708.6,329.4,1016.4,0,362.4,0,0,0,0,0,84.2,19.4,58.4,0,6.4,166.2,31.8,79.4,0,54.917133,5,20171123133805,553.822,0,55.72,49.167)
写入成功读取完毕一个
write:06 03 00 38 00 34 C4 67
06 03 68
643 68 23 96 43 68 52 6F 43 68 5C AC 43 C9 17 4C 43 C9 2D 71 43 C9 17 4C 40 87 AE 14 40 8B 85 1F 40 CF 5C 29 44 34 00 00 44 48 00 00 44 A0 00 00 45 2F 00 00 42 F0 00 00 00 00 00 00 43 20 00 00 43 8C 00 00 44 7A 00 00 44 7A 00 00 44 BE 00 00 45 31 80 00 3F 39 DB 23 3F 4D D2 F2 3F 59 99 9A 3F 7E B8 52 42 47 49 29
write:06 03 07 CF 00 78 75 14
06 03 F0
644 B7 D3 33 43 8E 99 9A 44 58 CC CD 00 00 00 00 43 9F 19 9A 00 00 00 00 00 00 00 00 00 00 00 00 00 00 00 00 00 00 00 00 3F B3 33 33 00 00 00 00 3F 80 00 00 00 00 00 00 3E 4C CC CD 43 09 00 00 41 D1 99 9A 42 80 66 66 00 00 00 00 42 39 99 9A 44 F8 A6 66 43 BF 33 33 44 93 80 00 00 00 00 00 43 D5 4C CD 00 00 00 00 00 00 00 00 00 00 00 00 00 00 00 00 00 00 00 00 40 C6 66 66 3E CC CC CD 40 A0 00 00 00 00 00 00 3F 19 99 9A 43 47 99 9A 42 16 66 66 42 BB 99 9A 00 00 00 00 42 88 00 00 45 15 00 00 43 EA 66 66 44 AC 53 33 00 00 00 00 44 06 0C CD 00 00 00 00 00 00 00 00 00 00 00 00 00 00 00 00 00 00 00 00 41 53 33 33 40 66 66 66 40 CC CC CD 00 00 00 00 40 40 00 00 43 38 33 33 42 10 00 00 42 A8 CC CD 00 00 00 00 42 7D 44 DF
write:06 03 01 0F 00 08 74 44
06 03 10
600 0B 1B 6F 00 00 00 00 00 00 17 8F 00 00 95 C8
43 68 23 96
232.139
43 68 52 6F
232.322
43 68 5C AC
232.362
43 C9 17 4C
402.182
43 C9 2D 71
402.355
43 C9 17 4C
402.182
40 87 AE 14
4.24
40 8B 85 1F
4.36
40 CF 5C 29
6.48
44 34 00 00
720
44 48 00 00
800
44 A0 00 00
1280
45 2F 00 00
2800
42 F0 00 00
120
00 00 00 00
0
43 20 00 00
160
43 8C 00 00
280
44 7A 00 00
1000
44 7A 00 00
1000
44 BE 00 00
1520
45 31 80 00
2840
3F 39 DB 23
0.726
3F 4D D2 F2
0.804
3F 59 99 9A
0.85
3F 7E B8 52
0.995
42 47 49 29
49.821445
44 B7 D3 33
1470.6
43 8E 99 9A
285.2
44 58 CC CD
867.2
00 00 00 00
0
43 9F 19 9A
318.2
00 00 00 00
0
00 00 00 00
0
00 00 00 00
0
00 00 00 00
0
00 00 00 00
0
3F B3 33 33
1.4
00 00 00 00
0
3F 80 00 00
1
00 00 00 00
0
3E 4C CC CD
0.2
43 09 00 00
137
41 D1 99 9A
26.2
42 80 66 66
64.2
00 00 00 00
0
42 39 99 9A
46.4
44 F8 A6 66
1989.2
43 BF 33 33
382.4
44 93 80 00
1180
00 00 00 00
0
43 D5 4C CD
426.6
00 00 00 00
0
00 00 00 00
0
00 00 00 00
0
00 00 00 00
0
00 00 00 00
0
40 C6 66 66
6.2
3E CC CC CD
0.4
40 A0 00 00
5
00 00 00 00
0
3F 19 99 9A
0.6
43 47 99 9A
199.6
42 16 66 66
37.6
42 BB 99 9A
93.8
00 00 00 00
0
42 88 00 00
68
45 15 00 00
2384
43 EA 66 66
468.8
44 AC 53 33
1378.6
00 00 00 00
0
44 06 0C CD
536.2
00 00 00 00
0
00 00 00 00
0
00 00 00 00
0
00 00 00 00
0
00 00 00 00
0
41 53 33 33
13.2
40 66 66 66
3.6
40 CC CC CD
6.4
00 00 00 00
0
40 40 00 00
3
43 38 33 33
184.2
42 10 00 00
36
42 A8 CC CD
84.4
00 00 00 00
0
42 7D 44 DF
63.317257
00 0B 1B 6F
727919
00 00 00 00
0
00 00 17 8F
6031
00 00 95 C8
38344
232.139232.322232.362402.182402.355402.1824.244.366.4872080012802800120016028010001000152028400.7260.8040.850.99549.8214451470.6285.2867.20318.2000001.40100.213726.264.2046.41989.2382.411800426.6000006.20.4500.6199.637.693.80682384468.81378.60536.20000013.23.66.403184.23684.4063.317257620171123133906727.91906.03138.344insert into tbl_power_info_v2(P_A_DIANYA,P_B_DIANYA,P_C_DIANYA,P_UAB_XIANDIANYA,P_UBC_XIANDIANYA,P_UCA_XIANDIANYA,P_A_DIANLIU,P_B_DIANLIU,P_C_DIANLIU,P_A_YGGL,P_B_YGGL,P_C_YGGL,P_HXYGGL,P_A_WGGL,P_B_WGGL,P_C_WGGL,P_HXWGGL,P_A_SZGL,P_B_SZGL,P_C_SZGL,P_HXSZGL,P_A_GLYS,P_B_GLYS,P_C_GLYS,P_HXGLYS,P_DWPL,P_BY_KwhZ,P_BY_KwhJ,P_BY_KwhF,P_BY_KwhP,P_BY_KwhG,P_BY_HKwhZ,P_BY_HKwhJ,P_BY_HKwhF,P_BY_HKwhP,P_BY_HKwhG, P_BY_KvarhZ,P_BY_KvarhJ,P_BY_KvarhF,P_BY_KvarhP,P_BY_KvarhG, P_BY_HKvarhZ,P_BY_HKvarhJ,P_BY_HKvarhF,P_BY_HKvarhP,P_BY_HKvarhG, P_SY_KwhZ,P_SY_KwhJ,P_SY_KwhF,P_SY_KwhP,P_SY_KwhG, P_SY_HKwhZ,P_SY_HKwhJ,P_SY_HKwhF,P_SY_HKwhP,P_SY_HKwhG, P_SY_KvarhZ,P_SY_KvarhJ,P_SY_KvarhF,P_SY_KvarhP,P_SY_KvarhG, P_SY_HKvarhZ,P_SY_HKvarhJ,P_SY_HKvarhF,P_SY_HKvarhP,P_SY_HKvarhG, P_SSY_KwhZ,P_SSY_KwhJ,P_SSY_KwhF,P_SSY_KwhP,P_SSY_KwhG, P_SSY_HKwhZ,P_SSY_HKwhJ,P_SSY_HKwhF,P_SSY_HKwhP,P_SSY_HKwhG, P_SSY_KvarhZ,P_SSY_KvarhJ,P_SSY_KvarhF,P_SSY_KvarhP,P_SSY_KvarhG, P_SSY_HKvarhZ,P_SSY_HKvarhJ,P_SSY_HKvarhF,P_SSY_HKvarhP,P_SSY_HKvarhG,P_CODE,P_TIME,P_ZXYGDN,P_FXYGDN,P_ZXWGDN,P_FXWGDN)values(232.139,232.322,232.362,402.182,402.355,402.182,4.24,4.36,6.48,720,800,1280,2800,120,0,160,280,1000,1000,1520,2840,0.726,0.804,0.85,0.995,49.821445,1470.6,285.2,867.2,0,318.2,0,0,0,0,0,1.4,0,1,0,0.2,137,26.2,64.2,0,46.4,1989.2,382.4,1180,0,426.6,0,0,0,0,0,6.2,0.4,5,0,0.6,199.6,37.6,93.8,0,68,2384,468.8,1378.6,0,536.2,0,0,0,0,0,13.2,3.6,6.4,0,3,184.2,36,84.4,0,63.317257,6,20171123133906,727.919,0,6.031,38.344)
写入成功读取完毕一个
write:07 03 00 38 00 34 C5 B6
write:07 03 07 CF 00 78 74 C5
write:07 03 01 0F 00 08 75 95
write:08 03 00 38 00 34 C5 49
08 03 68
843 68 26 25 43 68 86 A8 43 68 11 EC 43 C9 2D 71 43 C9 22 4E 43 C8 F6 04 00 00 00 00 00 00 00 00 00 00 00 00 00 00 00 00 00 00 00 00 00 00 00 00 00 00 00 00 00 00 00 00 00 00 00 00 00 00 00 00 00 00 00 00 00 00 00 00 00 00 00 00 00 00 00 00 00 00 00 00 00 00 00 00 00 00 00 00 00 00 00 00 00 00 00 00 00 00 00 00
40 04 7A
heart:40 04 7A E1 00 00 00 00 00 00 00 00 43 96 00 00 00 00 00 00 00 00 00 00 43 B4 00 00 42 70 00 00 00 00 00 00 00 00 00 00 42 70 00 00 43 F0 00 00 42 70 00 00 00 00 00 00 43 B4 00 00 3F 21 06 25 3F 33 33 33 00 00 00 00 3F 7B A5 E3 42 47 FB B0
write:08 03 07 CF 00 78 74 3A
08 03 F0
842 64 00 00 00 00 00 00 42 16 99 9A 00 00 00 00 41 9A CC CD 00 00 00 00 00 00 00 00 00 00 00 00 00 00 00 00 00 00 00 00 00 00 00 00 00 00 00 00 00 00 00 00 00 00 00 00 00 00 00 00 41 2A 66 66 00 00 00 00 40 D3 33 33 00 00 00 00 40 79 99 9A 42 67 00 00 00 00 00 00 42 28 00 00 00 00 00 00 41 79 99 9A 00 00 00 00 00 00 00 00 00 00 00 00 00 00 00 00 00 00 00 00 00 00 00 00 00 00 00 00 00 00 00 00 00 00 00 00 00 00 00 00 41 1E 66 66 00 00 00 00 40 DC CC CD 00 00 00 00 40 40 00 00 42 95 19 9A 00 00 00 00 42 3B CC CD 00 00 00 00 41 DB 99 9A 00 00 00 00 00 00 00 00 00 00 00 00 00 00 00 00 00 00 00 00 00 00 00 00 00 00 00 00 00 00 00 00 00 00 00 00 00 00 00 00 41 4E 66 66 00 00 00 00 41 06 66 66 00 00 00 00 40 8B FF 2B
write:08 03 01 0F 00 08 75 6A
08 03 10
800 00 48 A7 00 00 00 00 00 00 00 00 00 00 C3 52
43 68 26 25
232.149
43 68 86 A8
232.526
43 68 11 EC
232.07
43 C9 2D 71
402.355
43 C9 22 4E
402.268
43 C8 F6 04
401.922
00 00 00 00
0
00 00 00 00
0
00 00 00 00
0
00 00 00 00
0
00 00 00 00
0
00 00 00 00
0
00 00 00 00
0
00 00 00 00
0
00 00 00 00
0
00 00 00 00
0
00 00 00 00
0
00 00 00 00
0
00 00 00 00
0
00 00 00 00
0
00 00 00 00
0
00 00 00 00
0
00 00 00 00
0
00 00 00 00
0
00 00 00 00
0
00 00 00 00
0
42 64 00 00
57
00 00 00 00
0
42 16 99 9A
37.65
00 00 00 00
0
41 9A CC CD
19.35
00 00 00 00
0
00 00 00 00
0
00 00 00 00
0
00 00 00 00
0
00 00 00 00
0
00 00 00 00
0
00 00 00 00
0
00 00 00 00
0
00 00 00 00
0
00 00 00 00
0
41 2A 66 66
10.65
00 00 00 00
0
40 D3 33 33
6.6
00 00 00 00
0
40 79 99 9A
3.9
42 67 00 00
57.75
00 00 00 00
0
42 28 00 00
42
00 00 00 00
0
41 79 99 9A
15.6
00 00 00 00
0
00 00 00 00
0
00 00 00 00
0
00 00 00 00
0
00 00 00 00
0
00 00 00 00
0
00 00 00 00
0
00 00 00 00
0
00 00 00 00
0
00 00 00 00
0
41 1E 66 66
9.9
00 00 00 00
0
40 DC CC CD
6.9
00 00 00 00
0
40 40 00 00
3
42 95 19 9A
74.55
00 00 00 00
0
42 3B CC CD
46.95
00 00 00 00
0
41 DB 99 9A
27.45
00 00 00 00
0
00 00 00 00
0
00 00 00 00
0
00 00 00 00
0
00 00 00 00
0
00 00 00 00
0
00 00 00 00
0
00 00 00 00
0
00 00 00 00
0
00 00 00 00
0
41 4E 66 66
12.9
00 00 00 00
0
41 06 66 66
8.4
00 00 00 00
0
40 8B FF 2B
4.3748984
00 00 48 A7
18599
00 00 00 00
0
00 00 00 00
0
00 00 C3 52
50002
232.149232.526232.07402.355402.268401.9220000000000000000000057037.65019.35000000000010.6506.603.957.75042015.600000000009.906.90374.55046.95027.45000000000012.908.404.374898482017112313410518.5990050.002insert into tbl_power_info_v2(P_A_DIANYA,P_B_DIANYA,P_C_DIANYA,P_UAB_XIANDIANYA,P_UBC_XIANDIANYA,P_UCA_XIANDIANYA,P_A_DIANLIU,P_B_DIANLIU,P_C_DIANLIU,P_A_YGGL,P_B_YGGL,P_C_YGGL,P_HXYGGL,P_A_WGGL,P_B_WGGL,P_C_WGGL,P_HXWGGL,P_A_SZGL,P_B_SZGL,P_C_SZGL,P_HXSZGL,P_A_GLYS,P_B_GLYS,P_C_GLYS,P_HXGLYS,P_DWPL,P_BY_KwhZ,P_BY_KwhJ,P_BY_KwhF,P_BY_KwhP,P_BY_KwhG,P_BY_HKwhZ,P_BY_HKwhJ,P_BY_HKwhF,P_BY_HKwhP,P_BY_HKwhG, P_BY_KvarhZ,P_BY_KvarhJ,P_BY_KvarhF,P_BY_KvarhP,P_BY_KvarhG, P_BY_HKvarhZ,P_BY_HKvarhJ,P_BY_HKvarhF,P_BY_HKvarhP,P_BY_HKvarhG, P_SY_KwhZ,P_SY_KwhJ,P_SY_KwhF,P_SY_KwhP,P_SY_KwhG, P_SY_HKwhZ,P_SY_HKwhJ,P_SY_HKwhF,P_SY_HKwhP,P_SY_HKwhG, P_SY_KvarhZ,P_SY_KvarhJ,P_SY_KvarhF,P_SY_KvarhP,P_SY_KvarhG, P_SY_HKvarhZ,P_SY_HKvarhJ,P_SY_HKvarhF,P_SY_HKvarhP,P_SY_HKvarhG, P_SSY_KwhZ,P_SSY_KwhJ,P_SSY_KwhF,P_SSY_KwhP,P_SSY_KwhG, P_SSY_HKwhZ,P_SSY_HKwhJ,P_SSY_HKwhF,P_SSY_HKwhP,P_SSY_HKwhG, P_SSY_KvarhZ,P_SSY_KvarhJ,P_SSY_KvarhF,P_SSY_KvarhP,P_SSY_KvarhG, P_SSY_HKvarhZ,P_SSY_HKvarhJ,P_SSY_HKvarhF,P_SSY_HKvarhP,P_SSY_HKvarhG,P_CODE,P_TIME,P_ZXYGDN,P_FXYGDN,P_ZXWGDN,P_FXWGDN)values(232.149,232.526,232.07,402.355,402.268,401.922,0,0,0,0,0,0,0,0,0,0,0,0,0,0,0,0,0,0,0,0,57,0,37.65,0,19.35,0,0,0,0,0,0,0,0,0,0,10.65,0,6.6,0,3.9,57.75,0,42,0,15.6,0,0,0,0,0,0,0,0,0,0,9.9,0,6.9,0,3,74.55,0,46.95,0,27.45,0,0,0,0,0,0,0,0,0,0,12.9,0,8.4,0,4.3748984,8,20171123134105,18.599,0,0,50.002)
写入成功读取完毕一个
write:09 03 00 38 00 34 C4 98
09 03 68
943 68 89 BA 43 68 E4 5A 43 68 55 81 43 C9 7B 02 43 C9 64 DD 43 C9 43 96 00 00 00 00 00 00 00 00 3F 5E B8 52 42 70 00 00 00 00 00 00 43 34 00 00 43 70 00 00 42 70 00 00 42 70 00 00 42 70 00 00 43 52 00 00 42 B4 00 00 42 70 00 00 43 52 00 00 43 96 00 00 3E F6 45 A2 3E 10 62 4E 3F 5D 2F 1B 3F 3C AC 08 42 48 45 10
write:09 03 07 CF 00 78 75 EB
09 03 F0
943 0F D9 9A 41 93 99 9A 42 90 00 00 00 00 00 00 42 55 00 00 00 00 00 00 00 00 00 00 00 00 00 00 00 00 00 00 00 00 00 00 00 00 00 00 00 00 00 00 00 00 00 00 00 00 00 00 00 00 00 00 42 EB CC CD 41 96 00 00 42 44 33 33 00 00 00 00 42 47 CC CD 43 BC 2C CD 41 E7 99 9A 43 4D CC CD 00 00 00 00 43 0D 73 33 00 00 00 00 00 00 00 00 00 00 00 00 00 00 00 00 00 00 00 00 40 A3 33 33 00 00 00 00 40 19 99 9A 00 00 00 00 40 23 33 33 43 2C 33 33 41 D6 CC CD 42 95 19 9A 00 00 00 00 42 8D 4C CD 43 CA B9 9A 42 5D 66 66 43 44 33 33 00 00 00 00 43 19 C0 00 00 00 00 00 00 00 00 00 00 00 00 00 00 00 00 00 00 00 00 00 43 18 B3 33 41 B1 99 9A 42 8B 80 00 00 00 00 00 42 72 66 66 43 0F 8C CD 41 BC 66 66 42 72 66 66 00 00 00 00 42 6D 8E 04
write:09 03 01 0F 00 08 74 BB
09 03 10
900 00 93 6A 00 00 00 00 00 00 18 DA 00 00 39 3F
43 68 89 BA
232.538
43 68 E4 5A
232.892
43 68 55 81
232.334
43 C9 7B 02
402.961
43 C9 64 DD
402.788
43 C9 43 96
402.528
00 00 00 00
0
00 00 00 00
0
3F 5E B8 52
0.87
42 70 00 00
60
00 00 00 00
0
43 34 00 00
180
43 70 00 00
240
42 70 00 00
60
42 70 00 00
60
42 70 00 00
60
43 52 00 00
210
42 B4 00 00
90
42 70 00 00
60
43 52 00 00
210
43 96 00 00
300
3E F6 45 A2
0.481
3E 10 62 4E
0.141
3F 5D 2F 1B
0.864
3F 3C AC 08
0.737
42 48 45 10
50.067444
43 0F D9 9A
143.85
41 93 99 9A
18.45
42 90 00 00
72
00 00 00 00
0
42 55 00 00
53.25
00 00 00 00
0
00 00 00 00
0
00 00 00 00
0
00 00 00 00
0
00 00 00 00
0
00 00 00 00
0
00 00 00 00
0
00 00 00 00
0
00 00 00 00
0
00 00 00 00
0
42 EB CC CD
117.9
41 96 00 00
18.75
42 44 33 33
49.05
00 00 00 00
0
42 47 CC CD
49.95
43 BC 2C CD
376.35
41 E7 99 9A
28.95
43 4D CC CD
205.8
00 00 00 00
0
43 0D 73 33
141.45
00 00 00 00
0
00 00 00 00
0
00 00 00 00
0
00 00 00 00
0
00 00 00 00
0
40 A3 33 33
5.1
00 00 00 00
0
40 19 99 9A
2.4
00 00 00 00
0
40 23 33 33
2.55
43 2C 33 33
172.2
41 D6 CC CD
26.85
42 95 19 9A
74.55
00 00 00 00
0
42 8D 4C CD
70.65
43 CA B9 9A
405.45
42 5D 66 66
55.35
43 44 33 33
196.2
00 00 00 00
0
43 19 C0 00
153.75
00 00 00 00
0
00 00 00 00
0
00 00 00 00
0
00 00 00 00
0
00 00 00 00
0
43 18 B3 33
152.7
41 B1 99 9A
22.2
42 8B 80 00
69.75
00 00 00 00
0
42 72 66 66
60.6
43 0F 8C CD
143.55
41 BC 66 66
23.55
42 72 66 66
60.6
00 00 00 00
0
42 6D 8E 04
59.388687
00 00 93 6A
37738
00 00 00 00
0
00 00 18 DA
6362
00 00 39 3F
14655
232.538232.892232.334402.961402.788402.528000.8760018024060606021090602103000.4810.1410.8640.73750.067444143.8518.4572053.250000000000117.918.7549.05049.95376.3528.95205.80141.45000005.102.402.55172.226.8574.55070.65405.4555.35196.20153.7500000152.722.269.75060.6143.5523.5560.6059.38868792017112313421537.73806.36214.655insert into tbl_power_info_v2(P_A_DIANYA,P_B_DIANYA,P_C_DIANYA,P_UAB_XIANDIANYA,P_UBC_XIANDIANYA,P_UCA_XIANDIANYA,P_A_DIANLIU,P_B_DIANLIU,P_C_DIANLIU,P_A_YGGL,P_B_YGGL,P_C_YGGL,P_HXYGGL,P_A_WGGL,P_B_WGGL,P_C_WGGL,P_HXWGGL,P_A_SZGL,P_B_SZGL,P_C_SZGL,P_HXSZGL,P_A_GLYS,P_B_GLYS,P_C_GLYS,P_HXGLYS,P_DWPL,P_BY_KwhZ,P_BY_KwhJ,P_BY_KwhF,P_BY_KwhP,P_BY_KwhG,P_BY_HKwhZ,P_BY_HKwhJ,P_BY_HKwhF,P_BY_HKwhP,P_BY_HKwhG, P_BY_KvarhZ,P_BY_KvarhJ,P_BY_KvarhF,P_BY_KvarhP,P_BY_KvarhG, P_BY_HKvarhZ,P_BY_HKvarhJ,P_BY_HKvarhF,P_BY_HKvarhP,P_BY_HKvarhG, P_SY_KwhZ,P_SY_KwhJ,P_SY_KwhF,P_SY_KwhP,P_SY_KwhG, P_SY_HKwhZ,P_SY_HKwhJ,P_SY_HKwhF,P_SY_HKwhP,P_SY_HKwhG, P_SY_KvarhZ,P_SY_KvarhJ,P_SY_KvarhF,P_SY_KvarhP,P_SY_KvarhG, P_SY_HKvarhZ,P_SY_HKvarhJ,P_SY_HKvarhF,P_SY_HKvarhP,P_SY_HKvarhG, P_SSY_KwhZ,P_SSY_KwhJ,P_SSY_KwhF,P_SSY_KwhP,P_SSY_KwhG, P_SSY_HKwhZ,P_SSY_HKwhJ,P_SSY_HKwhF,P_SSY_HKwhP,P_SSY_HKwhG, P_SSY_KvarhZ,P_SSY_KvarhJ,P_SSY_KvarhF,P_SSY_KvarhP,P_SSY_KvarhG, P_SSY_HKvarhZ,P_SSY_HKvarhJ,P_SSY_HKvarhF,P_SSY_HKvarhP,P_SSY_HKvarhG,P_CODE,P_TIME,P_ZXYGDN,P_FXYGDN,P_ZXWGDN,P_FXWGDN)values(232.538,232.892,232.334,402.961,402.788,402.528,0,0,0.87,60,0,180,240,60,60,60,210,90,60,210,300,0.481,0.141,0.864,0.737,50.067444,143.85,18.45,72,0,53.25,0,0,0,0,0,0,0,0,0,0,117.9,18.75,49.05,0,49.95,376.35,28.95,205.8,0,141.45,0,0,0,0,0,5.1,0,2.4,0,2.55,172.2,26.85,74.55,0,70.65,405.45,55.35,196.2,0,153.75,0,0,0,0,0,152.7,22.2,69.75,0,60.6,143.55,23.55,60.6,0,59.388687,9,20171123134215,37.738,0,6.362,14.655)
写入成功读取完毕一个
write:01 03 00 38 00 34 C5 D0
01 03 68
143 68 DA E1 43 68 F2 6F 43 68 A2 0C 43 C9 A7 6D 43 C9 91 27 43 C9 86 25 40 D4 7A E1 40 6B 85 1F 00 00 00 00 44 82 00 00 44 0C 00 00 00 00 00 00 44 C8 00 00 43 A0 00 00 00 00 00 00 00 00 00 00 43 F0 00 00 44 BE 00 00 44 5C 00 00 00 00 00 00 44 D2 00 00 3F 2A 7E FA 3F 26 A7 F0 00 00 00 00 3F 77 0A 3D 42 47 C0 00
write:01 03 07 CF 00 78 74 A3
01 03 F0
143 E2 33 33 42 16 66 66 43 8E 00 00 00 00 00 00 43 02 66 66 00 00 00 00 00 00 00 00 00 00 00 00 00 00 00 00 00 00 00 00 3E CC CC CD 00 00 00 00 3E CC CC CD 00 00 00 00 00 00 00 00 43 10 66 66 41 96 66 66 42 91 99 9A 00 00 00 00 42 53 33 33 44 0E 99 9A 42 56 66 66 43 B2 00 00 00 00 00 00 43 20 00 00 00 00 00 00 00 00 00 00 00 00 00 00 00 00 00 00 00 00 00 00 3F CC CC CD 00 00 00 00 3F CC CC CD 00 00 00 00 00 00 00 00 43 33 33 33 41 C0 00 00 42 B7 33 33 00 00 00 00 42 7C CC CD 44 42 66 66 42 AF 33 33 43 F7 66 66 00 00 00 00 43 42 CC CD 00 00 00 00 00 00 00 00 00 00 00 00 00 00 00 00 00 00 00 00 00 00 00 00 00 00 00 00 00 00 00 00 00 00 00 00 00 00 00 00 00 00 00 00 00 00 00 00 00 00 00 00 00 00 00 00 00 00 00 00
00 00 00
heart:00 00 00 00 00 00 00 00 00 00 00 00 00 00 00 00 42 21 99 9A 3F CC CC CD 41 F3 33 33 00 00 00 00 41 00 00 00 43 36 CC CD 41 DC CC CD 42 BE 66 66 00 00 00 00 42 6E F6 41
write:01 03 01 0F 00 08 75 F3
01 03 10
100 01 9C 98 00 00 00 00 00 00 8A CA 00 00 E8 0D
43 68 DA E1
232.855
43 68 F2 6F
232.947
43 68 A2 0C
232.633
43 C9 A7 6D
403.308
43 C9 91 27
403.134
43 C9 86 25
403.048
40 D4 7A E1
6.64
40 6B 85 1F
3.68
00 00 00 00
0
44 82 00 00
1040
44 0C 00 00
560
00 00 00 00
0
44 C8 00 00
1600
43 A0 00 00
320
00 00 00 00
0
00 00 00 00
0
43 F0 00 00
480
44 BE 00 00
1520
44 5C 00 00
880
00 00 00 00
0
44 D2 00 00
1680
3F 2A 7E FA
0.666
3F 26 A7 F0
0.651
00 00 00 00
0
3F 77 0A 3D
0.965
42 47 C0 00
49.9375
43 E2 33 33
452.4
42 16 66 66
37.6
43 8E 00 00
284
00 00 00 00
0
43 02 66 66
130.4
00 00 00 00
0
00 00 00 00
0
00 00 00 00
0
00 00 00 00
0
00 00 00 00
0
3E CC CC CD
0.4
00 00 00 00
0
3E CC CC CD
0.4
00 00 00 00
0
00 00 00 00
0
43 10 66 66
144.4
41 96 66 66
18.8
42 91 99 9A
72.8
00 00 00 00
0
42 53 33 33
52.8
44 0E 99 9A
570.4
42 56 66 66
53.6
43 B2 00 00
356
00 00 00 00
0
43 20 00 00
160
00 00 00 00
0
00 00 00 00
0
00 00 00 00
0
00 00 00 00
0
00 00 00 00
0
3F CC CC CD
1.6
00 00 00 00
0
3F CC CC CD
1.6
00 00 00 00
0
00 00 00 00
0
43 33 33 33
179.2
41 C0 00 00
24
42 B7 33 33
91.6
00 00 00 00
0
42 7C CC CD
63.2
44 42 66 66
777.6
42 AF 33 33
87.6
43 F7 66 66
494.8
00 00 00 00
0
43 42 CC CD
194.8
00 00 00 00
0
00 00 00 00
0
00 00 00 00
0
00 00 00 00
0
00 00 00 00
0
00 00 00 00
0
00 00 00 00
0
00 00 00 00
0
00 00 00 00
0
00 00 00 00
0
00 00 00 00
0
00 00 00 00
0
00 00 00 00
0
00 00 00 00
0
00 00 00 00
0
00 01 9C 98
105624
00 00 00 00
0
00 00 8A CA
35530
00 00 E8 0D
59405
232.855232.947232.633403.308403.134403.0486.643.680104056001600320004801520880016800.6660.65100.96549.9375452.437.62840130.4000000.400.400144.418.872.8052.8570.453.63560160000001.601.600179.22491.6063.2777.687.6494.80194.8000000000000000120171123134312105.624035.5359.405insert into tbl_power_info_v2(P_A_DIANYA,P_B_DIANYA,P_C_DIANYA,P_UAB_XIANDIANYA,P_UBC_XIANDIANYA,P_UCA_XIANDIANYA,P_A_DIANLIU,P_B_DIANLIU,P_C_DIANLIU,P_A_YGGL,P_B_YGGL,P_C_YGGL,P_HXYGGL,P_A_WGGL,P_B_WGGL,P_C_WGGL,P_HXWGGL,P_A_SZGL,P_B_SZGL,P_C_SZGL,P_HXSZGL,P_A_GLYS,P_B_GLYS,P_C_GLYS,P_HXGLYS,P_DWPL,P_BY_KwhZ,P_BY_KwhJ,P_BY_KwhF,P_BY_KwhP,P_BY_KwhG,P_BY_HKwhZ,P_BY_HKwhJ,P_BY_HKwhF,P_BY_HKwhP,P_BY_HKwhG, P_BY_KvarhZ,P_BY_KvarhJ,P_BY_KvarhF,P_BY_KvarhP,P_BY_KvarhG, P_BY_HKvarhZ,P_BY_HKvarhJ,P_BY_HKvarhF,P_BY_HKvarhP,P_BY_HKvarhG, P_SY_KwhZ,P_SY_KwhJ,P_SY_KwhF,P_SY_KwhP,P_SY_KwhG, P_SY_HKwhZ,P_SY_HKwhJ,P_SY_HKwhF,P_SY_HKwhP,P_SY_HKwhG, P_SY_KvarhZ,P_SY_KvarhJ,P_SY_KvarhF,P_SY_KvarhP,P_SY_KvarhG, P_SY_HKvarhZ,P_SY_HKvarhJ,P_SY_HKvarhF,P_SY_HKvarhP,P_SY_HKvarhG, P_SSY_KwhZ,P_SSY_KwhJ,P_SSY_KwhF,P_SSY_KwhP,P_SSY_KwhG, P_SSY_HKwhZ,P_SSY_HKwhJ,P_SSY_HKwhF,P_SSY_HKwhP,P_SSY_HKwhG, P_SSY_KvarhZ,P_SSY_KvarhJ,P_SSY_KvarhF,P_SSY_KvarhP,P_SSY_KvarhG, P_SSY_HKvarhZ,P_SSY_HKvarhJ,P_SSY_HKvarhF,P_SSY_HKvarhP,P_SSY_HKvarhG,P_CODE,P_TIME,P_ZXYGDN,P_FXYGDN,P_ZXWGDN,P_FXWGDN)values(232.855,232.947,232.633,403.308,403.134,403.048,6.64,3.68,0,1040,560,0,1600,320,0,0,480,1520,880,0,1680,0.666,0.651,0,0.965,49.9375,452.4,37.6,284,0,130.4,0,0,0,0,0,0.4,0,0.4,0,0,144.4,18.8,72.8,0,52.8,570.4,53.6,356,0,160,0,0,0,0,0,1.6,0,1.6,0,0,179.2,24,91.6,0,63.2,777.6,87.6,494.8,0,194.8,0,0,0,0,0,0,0,0,0,0,0,0,0,0,0,1,20171123134312,105.624,0,35.53,59.405)
写入成功读取完毕一个
write:02 03 00 38 00 34 C5 E3
02 03 68
243 68 77 CF 43 68 BD 2F 43 68 3C 6A 43 C9 64 00 00 00 00 00 00 00 00 00 00 00 00 00 00 00 00 00 00 00 00 00 00 00 00 00 00 00 00 00 00 00 00 00 00 00 00 00 00 00 00 00 00 00 00 00 00 00 00 00 00 00 00 00 00 00 00 00 00 00 00 00 00 00 00 00 00 00 00 00 00 00 00 00 00 00 00 00 00 00 00 00 00 00 00 00 00 00 00 00
DD 43 C9
heart:DD 43 C9 70 00 43 C9 4E B8 41 9E 14 7B 41 88 F5 C3 41 41 47 AE 45 87 00 00 45 61 00 00 45 25 00 00 46 25 00 00 44 AA 00 00 44 A0 00 00 44 70 00 00 45 61 00 00 45 8E 80 00 45 7A 00 00 45 2F 00 00 46 2D C0 00 3F 70 E5 60 3F 68 72 B0 3F 6E 14 7B 3F 72 6E 98 42 48 5A 7D
write:02 03 07 CF 00 78 74 90
02 03 F0
244 84 99 9A 42 DD 99 9A 44 1A E6 66 00 00 00 00 43 A5 33 33 00 00 00 00 00 00 00 00 00 00 00 00 00 00 00 00 00 00 00 00 42 2B 33 33 40 B3 33 33 41 A3 33 33 00 00 00 00 41 80 00 00 42 29 99 9A 3F CC CC CD 41 F6 66 66 00 00 00 00 41 13 33 33 44 8E D9 9A 43 18 CC CD 44 1F E6 66 00 00 00 00 43 AF 00 00 00 00 00 00 00 00 00 00 00 00 00 00 00 00 00 00 00 00 00 00 42 21 99 9A 41 20 00 00 41 A9 99 9A 00 00 00 00 41 0C CC CD 42 30 00 00 40 4C CC CD 41 F3 33 33 00 00 00 00 41 19 99 9A 45 2F 66 66 43 E3 99 9A 44 DC 33 33 00 00 00 00 44 13 4C CD 00 00 00 00 00 00 00 00 00 00 00 00 00 00 00 00 00 00 00 00 44 77 E6 66 43 2E CC CD 44 24 B3 33 00 00 00 00 43 1D 99 9A 42 13 33 33 40 00 00 00 41 D9 99 9A 00 00 00 00 40 E6 D9 64
write:02 03 01 0F 00 08 75 C0
02 03 10
200 03 40 42 00 00 00 05 00 01 30 93 00 00 6D 75
43 68 77 CF
232.468
43 68 BD 2F
232.739
43 68 3C 6A
232.236
43 C9 64 00
402.78125
00 00 00 00
0
00 00 00 00
0
00 00 00 00
0
00 00 00 00
0
00 00 00 00
0
00 00 00 00
0
00 00 00 00
0
00 00 00 00
0
00 00 00 00
0
00 00 00 00
0
00 00 00 00
0
00 00 00 00
0
00 00 00 00
0
00 00 00 00
0
00 00 00 00
0
00 00 00 00
0
00 00 00 00
0
00 00 00 00
0
00 00 00 00
0
00 00 00 00
0
00 00 00 00
0
00 00 00 00
0
44 84 99 9A
1060.8
42 DD 99 9A
110.8
44 1A E6 66
619.6
00 00 00 00
0
43 A5 33 33
330.4
00 00 00 00
0
00 00 00 00
0
00 00 00 00
0
00 00 00 00
0
00 00 00 00
0
42 2B 33 33
42.8
40 B3 33 33
5.6
41 A3 33 33
20.4
00 00 00 00
0
41 80 00 00
16
42 29 99 9A
42.4
3F CC CC CD
1.6
41 F6 66 66
30.8
00 00 00 00
0
41 13 33 33
9.2
44 8E D9 9A
1142.8
43 18 CC CD
152.8
44 1F E6 66
639.6
00 00 00 00
0
43 AF 00 00
350
00 00 00 00
0
00 00 00 00
0
00 00 00 00
0
00 00 00 00
0
00 00 00 00
0
42 21 99 9A
40.4
41 20 00 00
10
41 A9 99 9A
21.2
00 00 00 00
0
41 0C CC CD
8.8
42 30 00 00
44
40 4C CC CD
3.2
41 F3 33 33
30.4
00 00 00 00
0
41 19 99 9A
9.6
45 2F 66 66
2806.4
43 E3 99 9A
455.2
44 DC 33 33
1761.6
00 00 00 00
0
44 13 4C CD
589.2
00 00 00 00
0
00 00 00 00
0
00 00 00 00
0
00 00 00 00
0
00 00 00 00
0
44 77 E6 66
991.6
43 2E CC CD
174.8
44 24 B3 33
658.8
00 00 00 00
0
43 1D 99 9A
157.6
42 13 33 33
36.8
40 00 00 00
2
41 D9 99 9A
27.2
00 00 00 00
0
40 E6 D9 64
7.214037
00 03 40 42
213058
00 00 00 05
5
00 01 30 93
77971
00 00 6D 75
28021
232.468232.739232.236402.7812500000000000000000000001060.8110.8619.60330.40000042.85.620.401642.41.630.809.21142.8152.8639.603500000040.41021.208.8443.230.409.62806.4455.21761.60589.200000991.6174.8658.80157.636.8227.207.214037220171123134412213.0580.00577.97128.021insert into tbl_power_info_v2(P_A_DIANYA,P_B_DIANYA,P_C_DIANYA,P_UAB_XIANDIANYA,P_UBC_XIANDIANYA,P_UCA_XIANDIANYA,P_A_DIANLIU,P_B_DIANLIU,P_C_DIANLIU,P_A_YGGL,P_B_YGGL,P_C_YGGL,P_HXYGGL,P_A_WGGL,P_B_WGGL,P_C_WGGL,P_HXWGGL,P_A_SZGL,P_B_SZGL,P_C_SZGL,P_HXSZGL,P_A_GLYS,P_B_GLYS,P_C_GLYS,P_HXGLYS,P_DWPL,P_BY_KwhZ,P_BY_KwhJ,P_BY_KwhF,P_BY_KwhP,P_BY_KwhG,P_BY_HKwhZ,P_BY_HKwhJ,P_BY_HKwhF,P_BY_HKwhP,P_BY_HKwhG, P_BY_KvarhZ,P_BY_KvarhJ,P_BY_KvarhF,P_BY_KvarhP,P_BY_KvarhG, P_BY_HKvarhZ,P_BY_HKvarhJ,P_BY_HKvarhF,P_BY_HKvarhP,P_BY_HKvarhG, P_SY_KwhZ,P_SY_KwhJ,P_SY_KwhF,P_SY_KwhP,P_SY_KwhG, P_SY_HKwhZ,P_SY_HKwhJ,P_SY_HKwhF,P_SY_HKwhP,P_SY_HKwhG, P_SY_KvarhZ,P_SY_KvarhJ,P_SY_KvarhF,P_SY_KvarhP,P_SY_KvarhG, P_SY_HKvarhZ,P_SY_HKvarhJ,P_SY_HKvarhF,P_SY_HKvarhP,P_SY_HKvarhG, P_SSY_KwhZ,P_SSY_KwhJ,P_SSY_KwhF,P_SSY_KwhP,P_SSY_KwhG, P_SSY_HKwhZ,P_SSY_HKwhJ,P_SSY_HKwhF,P_SSY_HKwhP,P_SSY_HKwhG, P_SSY_KvarhZ,P_SSY_KvarhJ,P_SSY_KvarhF,P_SSY_KvarhP,P_SSY_KvarhG, P_SSY_HKvarhZ,P_SSY_HKvarhJ,P_SSY_HKvarhF,P_SSY_HKvarhP,P_SSY_HKvarhG,P_CODE,P_TIME,P_ZXYGDN,P_FXYGDN,P_ZXWGDN,P_FXWGDN)values(232.468,232.739,232.236,402.78125,0,0,0,0,0,0,0,0,0,0,0,0,0,0,0,0,0,0,0,0,0,0,1060.8,110.8,619.6,0,330.4,0,0,0,0,0,42.8,5.6,20.4,0,16,42.4,1.6,30.8,0,9.2,1142.8,152.8,639.6,0,350,0,0,0,0,0,40.4,10,21.2,0,8.8,44,3.2,30.4,0,9.6,2806.4,455.2,1761.6,0,589.2,0,0,0,0,0,991.6,174.8,658.8,0,157.6,36.8,2,27.2,0,7.214037,2,20171123134412,213.058,0.005,77.971,28.021)
写入成功读取完毕一个
write:03 03 00 38 00 34 C4 32
03 03 68
343 67 B7 8D 43 68 04 5A 43 68 1B E7 43 C8 C9 BA 43 C8 F6 04 43 C8 D4 BC 40 17 AE 14 3F EA 3D 71 40 0E 14 7B 43 C3 00 00 43 B4 00 00 43 34 00 00 44 61 00 00 00 00 00 00 42 F0 00 00 00 00 00 00 00 00 00 00 00 00 00 00 00 00 00 00 00 00 00 00 00 00 00 00 00 00 00 00 00 00 00 00 00 00 00 00 00 00 00 00 00 00 00 00
00 00 43
heart:00 00 43 F0 00 00 44 16 00 00 44 0E 80 00 43 D2 00 00 43 FF 00 00 44 87 00 00 3F 35 81 06 3F 54 BC 6A 3E A0 41 89 3F 55 81 06 42 48 30 DE
write:03 03 07 CF 00 78 75 41
03 03 F0
343 A8 C0 00 42 84 99 9A 43 39 B3 33 00 00 00 00 42 AA B3 33 00 00 00 00 00 00 00 00 00 00 00 00 00 00 00 00 00 00 00 00 42 90 00 00 41 5F 33 33 42 38 33 33 00 00 00 00 41 3B 33 33 40 66 66 66 3F 40 00 00 40 23 33 33 00 00 00 00 3E 19 99 9A 43 EF 2C CD 42 F0 00 00 43 7D 33 33 00 00 00 00 42 D1 B3 33 00 00 00 00 00 00 00 00 00 00 00 00 00 00 00 00 00 00 00 00 42 9C E6 66 40 E6 66 66 42 5B 99 9A 00 00 00 00 41 80 66 66 41 68 CC CD 40 A8 00 00 40 F9 00 00 00 00 00 00 00 00 00 00 00 00 00 00 00 00 00 00 00 00 00 00 00 00 00 00 00 00 00 00 00 00 00 00 00 00 00 00 00 00 00 00 00 00 00 00 00 00 00 00 00 00 00 00 00 00 00 00 00 00 00 00 00 00 00 00 00 00 00 00 00 00 00 00 00 00 00 00 00 00 00 00 00 00 00 00 00 00 00 00
99 9A 00
heart:99 9A 00 00 00 00 3F AC CC CD 43 D8 60 00 42 B5 80 00 43 81 86 66 00 00 00 00 42 A5 99 9A 00 00 00 00 00 00 00 00 00 00 00 00 00 00 00 00 00 00 00 00 42 F7 CC CD 41 90 00 00 42 A5 99 9A 00 00 00 00 41 B8 CC CD 40 EB 33 33 40 06 66 66 40 53 33 33 00 00 00 00 3F E6 D2 42
write:03 03 01 0F 00 08 74 11
03 03 10
300 00 BD DF 00 00 00 00 00 00 25 C3 00 00 51 EB
43 67 B7 8D
231.717
43 68 04 5A
232.017
43 68 1B E7
232.109
43 C8 C9 BA
401.576
43 C8 F6 04
401.922
43 C8 D4 BC
401.662
40 17 AE 14
2.37
3F EA 3D 71
1.83
40 0E 14 7B
2.22
43 C3 00 00
390
43 B4 00 00
360
43 34 00 00
180
44 61 00 00
900
00 00 00 00
0
42 F0 00 00
120
00 00 00 00
0
00 00 00 00
0
00 00 00 00
0
00 00 00 00
0
00 00 00 00
0
00 00 00 00
0
00 00 00 00
0
00 00 00 00
0
00 00 00 00
0
00 00 00 00
0
00 00 00 00
0
43 A8 C0 00
337.5
42 84 99 9A
66.3
43 39 B3 33
185.7
00 00 00 00
0
42 AA B3 33
85.35
00 00 00 00
0
00 00 00 00
0
00 00 00 00
0
00 00 00 00
0
00 00 00 00
0
42 90 00 00
72
41 5F 33 33
13.95
42 38 33 33
46.05
00 00 00 00
0
41 3B 33 33
11.7
40 66 66 66
3.6
3F 40 00 00
0.75
40 23 33 33
2.55
00 00 00 00
0
3E 19 99 9A
0.15
43 EF 2C CD
478.35
42 F0 00 00
120
43 7D 33 33
253.2
00 00 00 00
0
42 D1 B3 33
104.85
00 00 00 00
0
00 00 00 00
0
00 00 00 00
0
00 00 00 00
0
00 00 00 00
0
42 9C E6 66
78.45
40 E6 66 66
7.2
42 5B 99 9A
54.9
00 00 00 00
0
41 80 66 66
16.05
41 68 CC CD
14.55
40 A8 00 00
5.25
40 F9 00 00
7.78125
00 00 00 00
0
00 00 00 00
0
00 00 00 00
0
00 00 00 00
0
00 00 00 00
0
00 00 00 00
0
00 00 00 00
0
00 00 00 00
0
00 00 00 00
0
00 00 00 00
0
00 00 00 00
0
00 00 00 00
0
00 00 00 00
0
00 00 00 00
0
00 00 00 00
0
00 00 00 00
0
00 00 00 00
0
00 00 00 00
0
00 00 00 00
0
00 00 00 00
0
00 00 00 00
0
00 00 00 00
0
00 00 BD DF
48607
00 00 00 00
0
00 00 25 C3
9667
00 00 51 EB
20971
231.717232.017232.109401.576401.922401.6622.371.832.22390360180900012000000000000337.566.3185.7085.35000007213.9546.05011.73.60.752.5500.15478.35120253.20104.850000078.457.254.9016.0514.555.257.78125000000000000000000000032017112313451148.60709.66720.971insert into tbl_power_info_v2(P_A_DIANYA,P_B_DIANYA,P_C_DIANYA,P_UAB_XIANDIANYA,P_UBC_XIANDIANYA,P_UCA_XIANDIANYA,P_A_DIANLIU,P_B_DIANLIU,P_C_DIANLIU,P_A_YGGL,P_B_YGGL,P_C_YGGL,P_HXYGGL,P_A_WGGL,P_B_WGGL,P_C_WGGL,P_HXWGGL,P_A_SZGL,P_B_SZGL,P_C_SZGL,P_HXSZGL,P_A_GLYS,P_B_GLYS,P_C_GLYS,P_HXGLYS,P_DWPL,P_BY_KwhZ,P_BY_KwhJ,P_BY_KwhF,P_BY_KwhP,P_BY_KwhG,P_BY_HKwhZ,P_BY_HKwhJ,P_BY_HKwhF,P_BY_HKwhP,P_BY_HKwhG, P_BY_KvarhZ,P_BY_KvarhJ,P_BY_KvarhF,P_BY_KvarhP,P_BY_KvarhG, P_BY_HKvarhZ,P_BY_HKvarhJ,P_BY_HKvarhF,P_BY_HKvarhP,P_BY_HKvarhG, P_SY_KwhZ,P_SY_KwhJ,P_SY_KwhF,P_SY_KwhP,P_SY_KwhG, P_SY_HKwhZ,P_SY_HKwhJ,P_SY_HKwhF,P_SY_HKwhP,P_SY_HKwhG, P_SY_KvarhZ,P_SY_KvarhJ,P_SY_KvarhF,P_SY_KvarhP,P_SY_KvarhG, P_SY_HKvarhZ,P_SY_HKvarhJ,P_SY_HKvarhF,P_SY_HKvarhP,P_SY_HKvarhG, P_SSY_KwhZ,P_SSY_KwhJ,P_SSY_KwhF,P_SSY_KwhP,P_SSY_KwhG, P_SSY_HKwhZ,P_SSY_HKwhJ,P_SSY_HKwhF,P_SSY_HKwhP,P_SSY_HKwhG, P_SSY_KvarhZ,P_SSY_KvarhJ,P_SSY_KvarhF,P_SSY_KvarhP,P_SSY_KvarhG, P_SSY_HKvarhZ,P_SSY_HKvarhJ,P_SSY_HKvarhF,P_SSY_HKvarhP,P_SSY_HKvarhG,P_CODE,P_TIME,P_ZXYGDN,P_FXYGDN,P_ZXWGDN,P_FXWGDN)values(231.717,232.017,232.109,401.576,401.922,401.662,2.37,1.83,2.22,390,360,180,900,0,120,0,0,0,0,0,0,0,0,0,0,0,337.5,66.3,185.7,0,85.35,0,0,0,0,0,72,13.95,46.05,0,11.7,3.6,0.75,2.55,0,0.15,478.35,120,253.2,0,104.85,0,0,0,0,0,78.45,7.2,54.9,0,16.05,14.55,5.25,7.78125,0,0,0,0,0,0,0,0,0,0,0,0,0,0,0,0,0,0,0,0,0,0,3,20171123134511,48.607,0,9.667,20.971)
写入成功读取完毕一个
write:04 03 00 38 00 34 C5 85
04 03 68
443 68 EA 7F 43 69 01 48 43 68 8E 98 43 C9 BD 91 43 C9 91 27 43 C9 86 25 3F DC 28 F6 00 00 00 00 40 11 EB 85 43 70 00 00 00 00 00 00 43 C8 00 00 44 34 00 00 42 A0 00 00 00 00 00 00 42 A0 00 00 42 F0 00 00 43 C8 00 00 42 A0 00 00 44 02 00 00 44 34 00 00 3F 1E B8 52 3F 25 E3 54 3F 48 31 27 3F 7B 64 5A 42 48 DE CF
write:04 03 07 CF 00 78 74 F6
04 03 F0
444 13 33 33 42 F6 00 00 43 A7 4C CD 00 00 00 00 43 03 00 00 00 00 00 00 00 00 00 00 00 00 00 00 00 00 00 00 00 00 00 00 40 AC CC CD 3E 4C CC CD 3F B3 33 33 00 00 00 00 40 66 66 66 42 70 CC CD 41 46 66 66 41 EC CC CD 00 00 00 00 41 90 00 00 44 1B 00 00 42 CE CC CD 43 AE 00 00 00 00 00 00 43 28 66 66 00 00 00 00 00 00 00 00 00 00 00 00 00 00 00 00 00 00 00 00 41 B0 00 00 40 26 66 66 40 C0 00 00 00 00 00 00 41 53 33 33 42 48 CC CD 41 06 66 66 41 D0 00 00 00 00 00 00 41 76 66 66 44 21 8C CD 42 DE CC CD 43 B0 99 9A 00 00 00 00 43 35 33 33 00 00 00 00 00 00 00 00 00 00 00 00 00 00 00 00 00 00 00 00 41 E8 00 00 40 B9 99 9A 40 E0 00 00 00 00 00 00 41 81 99 9A 42 14 CC CD 40 8C CC CD 41 9B 33 33 00 00 00 00 41 50 AA 27
write:04 03 01 0F 00 08 75 A6
04 03 10
400 02 8B 17 00 00 00 00 00 00 42 2F 00 00 A3 77
43 68 EA 7F
232.916
43 69 01 48
233.005
43 68 8E 98
232.557
43 C9 BD 91
403.481
43 C9 91 27
403.134
43 C9 86 25
403.048
3F DC 28 F6
1.72
00 00 00 00
0
40 11 EB 85
2.28
43 70 00 00
240
00 00 00 00
0
43 C8 00 00
400
44 34 00 00
720
42 A0 00 00
80
00 00 00 00
0
42 A0 00 00
80
42 F0 00 00
120
43 C8 00 00
400
42 A0 00 00
80
44 02 00 00
520
44 34 00 00
720
3F 1E B8 52
0.62
3F 25 E3 54
0.648
3F 48 31 27
0.782
3F 7B 64 5A
0.982
42 48 DE CF
50.217587
44 13 33 33
588.8
42 F6 00 00
123
43 A7 4C CD
334.6
00 00 00 00
0
43 03 00 00
131
00 00 00 00
0
00 00 00 00
0
00 00 00 00
0
00 00 00 00
0
00 00 00 00
0
40 AC CC CD
5.4
3E 4C CC CD
0.2
3F B3 33 33
1.4
00 00 00 00
0
40 66 66 66
3.6
42 70 CC CD
60.2
41 46 66 66
12.4
41 EC CC CD
29.6
00 00 00 00
0
41 90 00 00
18
44 1B 00 00
620
42 CE CC CD
103.4
43 AE 00 00
348
00 00 00 00
0
43 28 66 66
168.4
00 00 00 00
0
00 00 00 00
0
00 00 00 00
0
00 00 00 00
0
00 00 00 00
0
41 B0 00 00
22
40 26 66 66
2.6
40 C0 00 00
6
00 00 00 00
0
41 53 33 33
13.2
42 48 CC CD
50.2
41 06 66 66
8.4
41 D0 00 00
26
00 00 00 00
0
41 76 66 66
15.4
44 21 8C CD
646.2
42 DE CC CD
111.4
43 B0 99 9A
353.2
00 00 00 00
0
43 35 33 33
181.2
00 00 00 00
0
00 00 00 00
0
00 00 00 00
0
00 00 00 00
0
00 00 00 00
0
41 E8 00 00
29
40 B9 99 9A
5.8
40 E0 00 00
7
00 00 00 00
0
41 81 99 9A
16.2
42 14 CC CD
37.2
40 8C CC CD
4.4
41 9B 33 33
19.4
00 00 00 00
0
41 50 AA 27
13.041541
00 02 8B 17
166679
00 00 00 00
0
00 00 42 2F
16943
00 00 A3 77
41847
232.916233.005232.557403.481403.134403.0481.7202.28240040072080080120400805207200.620.6480.7820.98250.217587588.8123334.60131000005.40.21.403.660.212.429.6018620103.43480168.400000222.66013.250.28.426015.4646.2111.4353.20181.200000295.87016.237.24.419.4013.041541420171123134611166.679016.94341.847insert into tbl_power_info_v2(P_A_DIANYA,P_B_DIANYA,P_C_DIANYA,P_UAB_XIANDIANYA,P_UBC_XIANDIANYA,P_UCA_XIANDIANYA,P_A_DIANLIU,P_B_DIANLIU,P_C_DIANLIU,P_A_YGGL,P_B_YGGL,P_C_YGGL,P_HXYGGL,P_A_WGGL,P_B_WGGL,P_C_WGGL,P_HXWGGL,P_A_SZGL,P_B_SZGL,P_C_SZGL,P_HXSZGL,P_A_GLYS,P_B_GLYS,P_C_GLYS,P_HXGLYS,P_DWPL,P_BY_KwhZ,P_BY_KwhJ,P_BY_KwhF,P_BY_KwhP,P_BY_KwhG,P_BY_HKwhZ,P_BY_HKwhJ,P_BY_HKwhF,P_BY_HKwhP,P_BY_HKwhG, P_BY_KvarhZ,P_BY_KvarhJ,P_BY_KvarhF,P_BY_KvarhP,P_BY_KvarhG, P_BY_HKvarhZ,P_BY_HKvarhJ,P_BY_HKvarhF,P_BY_HKvarhP,P_BY_HKvarhG, P_SY_KwhZ,P_SY_KwhJ,P_SY_KwhF,P_SY_KwhP,P_SY_KwhG, P_SY_HKwhZ,P_SY_HKwhJ,P_SY_HKwhF,P_SY_HKwhP,P_SY_HKwhG, P_SY_KvarhZ,P_SY_KvarhJ,P_SY_KvarhF,P_SY_KvarhP,P_SY_KvarhG, P_SY_HKvarhZ,P_SY_HKvarhJ,P_SY_HKvarhF,P_SY_HKvarhP,P_SY_HKvarhG, P_SSY_KwhZ,P_SSY_KwhJ,P_SSY_KwhF,P_SSY_KwhP,P_SSY_KwhG, P_SSY_HKwhZ,P_SSY_HKwhJ,P_SSY_HKwhF,P_SSY_HKwhP,P_SSY_HKwhG, P_SSY_KvarhZ,P_SSY_KvarhJ,P_SSY_KvarhF,P_SSY_KvarhP,P_SSY_KvarhG, P_SSY_HKvarhZ,P_SSY_HKvarhJ,P_SSY_HKvarhF,P_SSY_HKvarhP,P_SSY_HKvarhG,P_CODE,P_TIME,P_ZXYGDN,P_FXYGDN,P_ZXWGDN,P_FXWGDN)values(232.916,233.005,232.557,403.481,403.134,403.048,1.72,0,2.28,240,0,400,720,80,0,80,120,400,80,520,720,0.62,0.648,0.782,0.982,50.217587,588.8,123,334.6,0,131,0,0,0,0,0,5.4,0.2,1.4,0,3.6,60.2,12.4,29.6,0,18,620,103.4,348,0,168.4,0,0,0,0,0,22,2.6,6,0,13.2,50.2,8.4,26,0,15.4,646.2,111.4,353.2,0,181.2,0,0,0,0,0,29,5.8,7,0,16.2,37.2,4.4,19.4,0,13.041541,4,20171123134611,166.679,0,16.943,41.847)
写入成功读取完毕一个
write:05 03 00 38 00 34 C4 54
05 03 68
543 67 F3 75 43 68 AB C7 43 68 C5 1F 43 C9 22 4E 43 C9 7B 02 43 C9 2D 71 40 87 AE 14 40 A3 D7 0A 40 93 33 33 44 2A 00 00 44 8C 00 00 44 52 00 00 45 25 00 00 42 F0 00 00 42 F0 00 00 42 A0 00 00 43 A0 00 00 44 7A 00 00 44 96 00 00 44 87 00 00 45 27 80 00 3F 33 33 33 3F 6F DF 3B 3F 49 FB E7 3F 7E 76 C9 42 48 32 F0
write:05 03 07 CF 00 78 75 27
05 03 F0
544 9C 2C CD 43 95 E6 66 44 2C 8C CD 00 00 00 00 43 81 99 9A 00 00 00 00 00 00 00 00 00 00 00 00 00 00 00 00 00 00 00 00 00 00 00 00 00 00 00 00 00 00 00 00 00 00 00 00 00 00 00 00 43 40 CC CD 42 28 CC CD 42 BA 00 00 00 00 00 00 42 65 99 9A 44 C1 06 66 43 AF 99 9A 44 5A 00 00 00 00 00 00 43 A0 66 66 00 00 00 00 00 00 00 00 00 00 00 00 00 00 00 00 00 00 00 00 3F CC CC CD 3F 19 99 9A 3F 4C CC CD 00 00 00 00 00 00 00 00 43 6F 99 9A 42 50 00 00 42 E7 33 33 00 00 00 00 42 8F 99 9A 44 D5 93 33 43 A4 B3 33 44 7E 19 9A 00 00 00 00 43 B5 33 33 00 00 00 00 00 00 00 00 00 00 00 00 00 00 00 00 00 00 00 00 42 A8 66 66 41 9B 33 33 42 69 99 9A 00 00 00 00 40 CC CC CD 43 26 33 33 41 FE 66 66 42 9E CC CD 00 00 00 00 42 5B B6 C6
write:05 03 01 0F 00 08 74 77
05 03 10
500 08 73 6A 00 00 00 00 00 00 D9 A8 00 00 2A 3F
43 67 F3 75
231.951
43 68 AB C7
232.671
43 68 C5 1F
232.77
43 C9 22 4E
402.268
43 C9 7B 02
402.961
43 C9 2D 71
402.355
40 87 AE 14
4.24
40 A3 D7 0A
5.12
40 93 33 33
4.6
44 2A 00 00
680
44 8C 00 00
1120
44 52 00 00
840
45 25 00 00
2640
42 F0 00 00
120
42 F0 00 00
120
42 A0 00 00
80
43 A0 00 00
320
44 7A 00 00
1000
44 96 00 00
1200
44 87 00 00
1080
45 27 80 00
2680
3F 33 33 33
0.7
3F 6F DF 3B
0.937
3F 49 FB E7
0.789
3F 7E 76 C9
0.994
42 48 32 F0
50.049744
44 9C 2C CD
1249.4
43 95 E6 66
299.8
44 2C 8C CD
690.2
00 00 00 00
0
43 81 99 9A
259.2
00 00 00 00
0
00 00 00 00
0
00 00 00 00
0
00 00 00 00
0
00 00 00 00
0
00 00 00 00
0
00 00 00 00
0
00 00 00 00
0
00 00 00 00
0
00 00 00 00
0
43 40 CC CD
192.8
42 28 CC CD
42.2
42 BA 00 00
93
00 00 00 00
0
42 65 99 9A
57.4
44 C1 06 66
1544.2
43 AF 99 9A
351.2
44 5A 00 00
872
00 00 00 00
0
43 A0 66 66
320.8
00 00 00 00
0
00 00 00 00
0
00 00 00 00
0
00 00 00 00
0
00 00 00 00
0
3F CC CC CD
1.6
3F 19 99 9A
0.6
3F 4C CC CD
0.8
00 00 00 00
0
00 00 00 00
0
43 6F 99 9A
239.6
42 50 00 00
52
42 E7 33 33
115.6
00 00 00 00
0
42 8F 99 9A
71.8
44 D5 93 33
1708.6
43 A4 B3 33
329.4
44 7E 19 9A
1016.4
00 00 00 00
0
43 B5 33 33
362.4
00 00 00 00
0
00 00 00 00
0
00 00 00 00
0
00 00 00 00
0
00 00 00 00
0
42 A8 66 66
84.2
41 9B 33 33
19.4
42 69 99 9A
58.4
00 00 00 00
0
40 CC CC CD
6.4
43 26 33 33
166.2
41 FE 66 66
31.8
42 9E CC CD
79.4
00 00 00 00
0
42 5B B6 C6
54.92849
00 08 73 6A
553834
00 00 00 00
0
00 00 D9 A8
55720
00 00 2A 3F
10815
231.951232.671232.77402.268402.961402.3554.245.124.6680112084026401201208032010001200108026800.70.9370.7890.99450.0497441249.4299.8690.20259.20000000000192.842.293057.41544.2351.28720320.8000001.60.60.800239.652115.6071.81708.6329.41016.40362.40000084.219.458.406.4166.231.879.4054.92849520171123134711553.834055.7210.815insert into tbl_power_info_v2(P_A_DIANYA,P_B_DIANYA,P_C_DIANYA,P_UAB_XIANDIANYA,P_UBC_XIANDIANYA,P_UCA_XIANDIANYA,P_A_DIANLIU,P_B_DIANLIU,P_C_DIANLIU,P_A_YGGL,P_B_YGGL,P_C_YGGL,P_HXYGGL,P_A_WGGL,P_B_WGGL,P_C_WGGL,P_HXWGGL,P_A_SZGL,P_B_SZGL,P_C_SZGL,P_HXSZGL,P_A_GLYS,P_B_GLYS,P_C_GLYS,P_HXGLYS,P_DWPL,P_BY_KwhZ,P_BY_KwhJ,P_BY_KwhF,P_BY_KwhP,P_BY_KwhG,P_BY_HKwhZ,P_BY_HKwhJ,P_BY_HKwhF,P_BY_HKwhP,P_BY_HKwhG, P_BY_KvarhZ,P_BY_KvarhJ,P_BY_KvarhF,P_BY_KvarhP,P_BY_KvarhG, P_BY_HKvarhZ,P_BY_HKvarhJ,P_BY_HKvarhF,P_BY_HKvarhP,P_BY_HKvarhG, P_SY_KwhZ,P_SY_KwhJ,P_SY_KwhF,P_SY_KwhP,P_SY_KwhG, P_SY_HKwhZ,P_SY_HKwhJ,P_SY_HKwhF,P_SY_HKwhP,P_SY_HKwhG, P_SY_KvarhZ,P_SY_KvarhJ,P_SY_KvarhF,P_SY_KvarhP,P_SY_KvarhG, P_SY_HKvarhZ,P_SY_HKvarhJ,P_SY_HKvarhF,P_SY_HKvarhP,P_SY_HKvarhG, P_SSY_KwhZ,P_SSY_KwhJ,P_SSY_KwhF,P_SSY_KwhP,P_SSY_KwhG, P_SSY_HKwhZ,P_SSY_HKwhJ,P_SSY_HKwhF,P_SSY_HKwhP,P_SSY_HKwhG, P_SSY_KvarhZ,P_SSY_KvarhJ,P_SSY_KvarhF,P_SSY_KvarhP,P_SSY_KvarhG, P_SSY_HKvarhZ,P_SSY_HKvarhJ,P_SSY_HKvarhF,P_SSY_HKvarhP,P_SSY_HKvarhG,P_CODE,P_TIME,P_ZXYGDN,P_FXYGDN,P_ZXWGDN,P_FXWGDN)values(231.951,232.671,232.77,402.268,402.961,402.355,4.24,5.12,4.6,680,1120,840,2640,120,120,80,320,1000,1200,1080,2680,0.7,0.937,0.789,0.994,50.049744,1249.4,299.8,690.2,0,259.2,0,0,0,0,0,0,0,0,0,0,192.8,42.2,93,0,57.4,1544.2,351.2,872,0,320.8,0,0,0,0,0,1.6,0.6,0.8,0,0,239.6,52,115.6,0,71.8,1708.6,329.4,1016.4,0,362.4,0,0,0,0,0,84.2,19.4,58.4,0,6.4,166.2,31.8,79.4,0,54.92849,5,20171123134711,553.834,0,55.72,10.815)
写入成功读取完毕一个
write:06 03 00 38 00 34 C4 67
06 03 68
643 68 2A C1 43 68 65 1F 43 68 A0 83 43 C9 17 4C 43 C9 4E B8 43 C9 38 93 40 81 47 AE 40 E8 F5 C3 40 CC CC CD 44 2A 00 00 44 C3 00 00 44 A0 00 00 45 5C 00 00 42 F0 00 00 00 00 00 00 43 20 00 00 43 A0 00 00 44 70 00 00 44 D2 00 00 44 B9 00 00 45 5C 00 00 3F 3A E1 48 3F 6B C6 A8 3F 59 DB 23 3F 7E F9 DB 42 48 59 F9
write:06 03 07 CF 00 78 75 14
06 03 F0
644 B7 EC CD 43 8E 99 9A 44 58 F3 33 00 00 00 00 43 9F 19 9A 00 00 00 00 00 00 00 00 00 00 00 00 00 00 00 00 00 00 00 00 3F B3 33 33 00 00 00 00 3F 80 00 00 00 00 00 00 3E 4C CC CD 43 09 00 00 41 D1 99 9A 42 80 66 66 00 00 00 00 42 39 99 9A 44 F8 A6 66 43 BF 33 33 44 93 80 00 00 00 00 00 43 D5 4C CD 00 00 00 00 00 00 00 00 00 00 00 00 00 00 00 00 00 00 00 00 40 C6 66 66 3E CC CC CD 40 A0 00 00 00 00 00 00 3F 19 99 9A 43 47 99 9A 42 16 66 66 42 BB 99 9A 00 00 00 00 42 88 00 00 45 15 00 00 43 EA 66 66 44 AC 53 33 00 00 00 00 44 06 0C CD 00 00 00 00 00 00 00 00 00 00 00 00 00 00 00 00 00 00 00 00 41 53 33 33 40 66 66 66 40 CC CC CD 00 00 00 00 40 40 00 00 43 38 33 33 42 10 00 00 42 A8 CC CD 00 00 00 00 42 7D 3B EE
write:06 03 01 0F 00 08 74 44
06 03 10
600 0B 1B 7F 00 00 00 00 00 00 17 8F 00 00 C1 08
43 68 2A C1
232.167
43 68 65 1F
232.395
43 68 A0 83
232.627
43 C9 17 4C
402.182
43 C9 4E B8
402.615
43 C9 38 93
402.442
40 81 47 AE
4.04
40 E8 F5 C3
7.28
40 CC CC CD
6.4
44 2A 00 00
680
44 C3 00 00
1560
44 A0 00 00
1280
45 5C 00 00
3520
42 F0 00 00
120
00 00 00 00
0
43 20 00 00
160
43 A0 00 00
320
44 70 00 00
960
44 D2 00 00
1680
44 B9 00 00
1480
45 5C 00 00
3520
3F 3A E1 48
0.73
3F 6B C6 A8
0.921
3F 59 DB 23
0.851
3F 7E F9 DB
0.996
42 48 59 F9
50.087864
44 B7 EC CD
1471.4
43 8E 99 9A
285.2
44 58 F3 33
867.8
00 00 00 00
0
43 9F 19 9A
318.2
00 00 00 00
0
00 00 00 00
0
00 00 00 00
0
00 00 00 00
0
00 00 00 00
0
3F B3 33 33
1.4
00 00 00 00
0
3F 80 00 00
1
00 00 00 00
0
3E 4C CC CD
0.2
43 09 00 00
137
41 D1 99 9A
26.2
42 80 66 66
64.2
00 00 00 00
0
42 39 99 9A
46.4
44 F8 A6 66
1989.2
43 BF 33 33
382.4
44 93 80 00
1180
00 00 00 00
0
43 D5 4C CD
426.6
00 00 00 00
0
00 00 00 00
0
00 00 00 00
0
00 00 00 00
0
00 00 00 00
0
40 C6 66 66
6.2
3E CC CC CD
0.4
40 A0 00 00
5
00 00 00 00
0
3F 19 99 9A
0.6
43 47 99 9A
199.6
42 16 66 66
37.6
42 BB 99 9A
93.8
00 00 00 00
0
42 88 00 00
68
45 15 00 00
2384
43 EA 66 66
468.8
44 AC 53 33
1378.6
00 00 00 00
0
44 06 0C CD
536.2
00 00 00 00
0
00 00 00 00
0
00 00 00 00
0
00 00 00 00
0
00 00 00 00
0
41 53 33 33
13.2
40 66 66 66
3.6
40 CC CC CD
6.4
00 00 00 00
0
40 40 00 00
3
43 38 33 33
184.2
42 10 00 00
36
42 A8 CC CD
84.4
00 00 00 00
0
42 7D 3B EE
63.308525
00 0B 1B 7F
727935
00 00 00 00
0
00 00 17 8F
6031
00 00 C1 08
49416
