nohup: ignoring input
Listening on :6004
received messag ?->? 
 124.160.216.183:29427 172.16.246.153:6004
write:21 03 00 38 00 34 C2 B0
34 30 32
heart:34 30 32 37 32 32 35 36 30 34 38 32
write:21 03 07 CF 00 78 73 C3
write:21 03 01 0F 00 08 72 93
write:22 03 00 38 00 34 C2 83
22 03 68
3443 6A 2B 44 43 6A 94 7B 43 6A 0B 85 43 CA E8 D5 43 CA DD B2 43 CA B1 68 42 6A 7A E1 42 80 75 C3 42 81 8A 3D 46 18 D0 00 46 35 68 00 46 2E 60 00 46 FE 88 00 46 07 00 00 46 07 00 00 46 12 B8 00 46 D0 5C 00 46 55 48 00 46 6A D8 00 46 6C B8 00 47 24 E2 00 3F 37 CE D9 3F 46 66 66 3F 3C ED 91 3F 46 66 66 42 48 6C 09
write:22 03 07 CF 00 78 73 F0
write:22 03 01 0F 00 08 72 A0
22 03 F0
34write:23 03 00 38 00 34 C3 52
write:23 03 07 CF 00 78 72 21
write:23 03 01 0F 00 08 73 71
write:24 03 00 38 00 34 C2 E5
totalsize 268
46 7A 6D 66 45 81 42 00 46 1A 9F 33 00 00 B7 FF FF 69 9A 00 00 00 00 00 00 00 00 00 00 00 00 00 00 00 00 00 00 00 00 46 37 4C 33 45 38 4D 9A 45 E3 3E CD 00 00 00 00 44 BC C6 66 40 D3 33 33 00 00 00 00 3F 40 00 00 00 00 00 00 40 B6 66 66 46 A2 7B E6 45 AB C7 33 46 39 CA 9A 00 00 00 00 45 55 24 00 00 00 00 00 00 00 00 00 00 00 00 00 00 00 00 00 00 00 00 00 46 67 37 33 45 6B CC CD 46 06 3E 33 00 00 00 00 45 18 14 CD 41 28 00 00 3E E6 66 66 3F F9 99 9A 00 00 00 00 40 FE 66 66 46 28 7C CD 44 CD 5E 66 45 D8 06 00 00 00 00 00 45 0B 35 9A 00 00 00 00 00 00 00 00 00 00 00 00 00 00 00 00 00 00 00 00 46 14 0F 33 44 A5 86 66 45 BE D0 66 00 00 00 00 44 FF AC CD 40 53 33 33 00 00 00 00 3E 19 99 9A 00 00 00 00 40 40 F7 77 24 03 68 00 00 43 69 D9 17 43 6A 4E 98 43 6A 2F 5C 43 CA B1 68 43 CA D2 B0 43 CA 9B 44
40 E0 A3
heart:40 E0 A3 D7 41 0B AE 14 40 F2 E1 48 44 43 00 00 44 99 C0 00 44 59 80 00 45 35 E0 00 44 B0 40 00 44 AC 80 00 44 BB 80 00 45 86 10 00 44 CE 40 00 44 FF 00 00 44 DD 40 00 45 A2 30 00 3E F4 39 58 3F 1B 22 D1 3E FC ED 91 3F 0F 1A A0 42 48 E5 C9
write:24 03 07 CF 00 78 73 96
24 03 F0
36totalsize 240
44 C7 46 66 42 7D CC CD 44 9D E4 CD 00 00 00 00 43 85 B9 9A 00 00 00 00 00 00 00 00 00 00 00 00 00 00 00 00 00 00 00 00 44 C4 FC CD 41 97 33 33 44 A9 C3 33 00 00 00 00 43 46 C0 00 40 23 33 33 3E 99 99 9A 3E E6 66 66 00 00 00 00 3F D3 33 33 44 FE DE 66 42 D6 CC CD 44 C8 0B 33 00 00 00 00 43 A5 99 9A 00 00 00 00 00 00 00 00 00 00 00 00 00 00 00 00 00 00 00 00 44 FD F8 00 42 43 00 00 44 D9 B0 00 00 00 00 00 43 71 80 00 40 A3 33 33 3E 99 99 9A 3F D3 33 33 00 00 00 00 40 40 00 00 44 FE E3 33 42 4A 33 33 44 CD C3 33 00 00 00 00 43 AB 26 66 00 00 00 00 00 00 00 00 00 00 00 00 00 00 00 00 00 00 00 00 45 00 B3 33 41 23 33 33 44 E2 4B 33 00 00 00 00 43 6E 80 00 40 A8 00 00 3F 66 66 66 40 06 66 66 00 00 00 00 40 10 8A 7D
write:24 03 01 0F 00 08 72 C6
24 03 10
3600 08 F6 1F 00 00 00 00 00 08 CC A3 00 00 BD 74
write:25 03 00 38 00 34 C3 34
25 03 68
3743 69 0C 08 43 69 9A 5E 43 69 9C 6A 43 CA 0B 23 43 CA 4D B2 43 CA 0B 23 42 25 F5 C3 42 2C 33 33 42 3D 5C 29 46 0C A0 00 46 10 D8 00 46 1D F8 00 46 DD B8 00 45 5D 40 00 45 71 E0 00 45 8B B0 00 46 39 A0 00 46 16 F0 00 46 1D 08 00 46 2C F8 00 46 F0 3C 00 3F 6E 14 7B 3F 6C 08 31 3F 69 FB E7 3F 6C 49 BA 42 47 2E FA
write:25 03 07 CF 00 78 72 47
25 03 F0
37totalsize 240
45 58 5D 9A 43 D9 0C CD 45 15 4C 00 00 00 00 00 44 1F AC CD 00 00 00 00 00 00 00 00 00 00 00 00 00 00 00 00 00 00 00 00 44 AD F6 66 43 5B 4C CD 44 73 D3 33 00 00 00 00 43 45 19 9A 3F F9 99 9A 3E 99 99 9A 3E 19 99 9A 00 00 00 00 3F AC CC CD 45 5E 62 66 43 A5 E6 66 45 25 D8 00 00 00 00 00 44 0F 2C CD 00 00 00 00 00 00 00 00 00 00 00 00 00 00 00 00 00 00 00 00 45 0E 46 66 43 77 F3 33 44 D2 51 9A 00 00 00 00 43 AC E0 00 40 10 00 00 3E 99 99 9A 3F 19 99 9A 00 00 00 00 3F 99 99 9A 45 22 37 33 43 83 EC CD 44 F1 46 66 00 00 00 00 43 C8 A0 00 00 00 00 00 00 00 00 00 00 00 00 00 00 00 00 00 00 00 00 00 44 DC 50 00 43 48 19 9A 44 A5 5B 33 00 00 00 00 43 6F 66 66 40 E1 99 9A 40 66 66 66 40 10 00 00 00 00 00 00 3F 99 F9 CB
write:25 03 01 0F 00 08 73 17
25 03 10
3700 06 6B E2 00 00 00 00 00 03 A4 30 00 00 C9 77
43 69 0C 08
233.047
43 69 9A 5E
233.603
43 69 9C 6A
233.611
43 CA 0B 23
404.087
43 CA 4D B2
404.607
43 CA 0B 23
404.087
42 25 F5 C3
41.49
42 2C 33 33
43.05
42 3D 5C 29
47.34
46 0C A0 00
9000
46 10 D8 00
9270
46 1D F8 00
10110
46 DD B8 00
28380
45 5D 40 00
3540
45 71 E0 00
3870
45 8B B0 00
4470
46 39 A0 00
11880
46 16 F0 00
9660
46 1D 08 00
10050
46 2C F8 00
11070
46 F0 3C 00
30750
3F 6E 14 7B
0.93
3F 6C 08 31
0.922
3F 69 FB E7
0.914
3F 6C 49 BA
0.923
42 47 2E FA
49.795876
45 58 5D 9A
3461.85
43 D9 0C CD
434.1
45 15 4C 00
2388.75
00 00 00 00
0
44 1F AC CD
638.7
00 00 00 00
0
00 00 00 00
0
00 00 00 00
0
00 00 00 00
0
00 00 00 00
0
44 AD F6 66
1391.7
43 5B 4C CD
219.3
44 73 D3 33
975.3
00 00 00 00
0
43 45 19 9A
197.1
3F F9 99 9A
1.95
3E 99 99 9A
0.3
3E 19 99 9A
0.15
00 00 00 00
0
3F AC CC CD
1.35
45 5E 62 66
3558.15
43 A5 E6 66
331.8
45 25 D8 00
2653.5
00 00 00 00
0
44 0F 2C CD
572.7
00 00 00 00
0
00 00 00 00
0
00 00 00 00
0
00 00 00 00
0
00 00 00 00
0
45 0E 46 66
2276.4
43 77 F3 33
247.95
44 D2 51 9A
1682.55
00 00 00 00
0
43 AC E0 00
345.75
40 10 00 00
2.25
3E 99 99 9A
0.3
3F 19 99 9A
0.6
00 00 00 00
0
3F 99 99 9A
1.2
45 22 37 33
2595.45
43 83 EC CD
263.85
44 F1 46 66
1930.2
00 00 00 00
0
43 C8 A0 00
401.25
00 00 00 00
0
00 00 00 00
0
00 00 00 00
0
00 00 00 00
0
00 00 00 00
0
44 DC 50 00
1762.5
43 48 19 9A
200.1
44 A5 5B 33
1322.85
00 00 00 00
0
43 6F 66 66
239.4
40 E1 99 9A
7.05
40 66 66 66
3.6
40 10 00 00
2.25
00 00 00 00
0
3F 99 F9 CB
1.2029356
00 06 6B E2
420834
00 00 00 00
0
00 03 A4 30
238640
00 00 C9 77
51575
233.047233.603233.611404.087404.607404.08741.4943.0547.349000927010110283803540387044701188096601005011070307500.930.9220.9140.92349.7958763461.85434.12388.750638.7000001391.7219.3975.30197.11.950.30.1501.353558.15331.82653.50572.7000002276.4247.951682.550345.752.250.30.601.22595.45263.851930.20401.25000001762.5200.11322.850239.47.053.62.2501.20293563720171124120525420.8340238.6451.575insert into tbl_power_info_v2(P_A_DIANYA,P_B_DIANYA,P_C_DIANYA,P_UAB_XIANDIANYA,P_UBC_XIANDIANYA,P_UCA_XIANDIANYA,P_A_DIANLIU,P_B_DIANLIU,P_C_DIANLIU,P_A_YGGL,P_B_YGGL,P_C_YGGL,P_HXYGGL,P_A_WGGL,P_B_WGGL,P_C_WGGL,P_HXWGGL,P_A_SZGL,P_B_SZGL,P_C_SZGL,P_HXSZGL,P_A_GLYS,P_B_GLYS,P_C_GLYS,P_HXGLYS,P_DWPL,P_BY_KwhZ,P_BY_KwhJ,P_BY_KwhF,P_BY_KwhP,P_BY_KwhG,P_BY_HKwhZ,P_BY_HKwhJ,P_BY_HKwhF,P_BY_HKwhP,P_BY_HKwhG, P_BY_KvarhZ,P_BY_KvarhJ,P_BY_KvarhF,P_BY_KvarhP,P_BY_KvarhG, P_BY_HKvarhZ,P_BY_HKvarhJ,P_BY_HKvarhF,P_BY_HKvarhP,P_BY_HKvarhG, P_SY_KwhZ,P_SY_KwhJ,P_SY_KwhF,P_SY_KwhP,P_SY_KwhG, P_SY_HKwhZ,P_SY_HKwhJ,P_SY_HKwhF,P_SY_HKwhP,P_SY_HKwhG, P_SY_KvarhZ,P_SY_KvarhJ,P_SY_KvarhF,P_SY_KvarhP,P_SY_KvarhG, P_SY_HKvarhZ,P_SY_HKvarhJ,P_SY_HKvarhF,P_SY_HKvarhP,P_SY_HKvarhG, P_SSY_KwhZ,P_SSY_KwhJ,P_SSY_KwhF,P_SSY_KwhP,P_SSY_KwhG, P_SSY_HKwhZ,P_SSY_HKwhJ,P_SSY_HKwhF,P_SSY_HKwhP,P_SSY_HKwhG, P_SSY_KvarhZ,P_SSY_KvarhJ,P_SSY_KvarhF,P_SSY_KvarhP,P_SSY_KvarhG, P_SSY_HKvarhZ,P_SSY_HKvarhJ,P_SSY_HKvarhF,P_SSY_HKvarhP,P_SSY_HKvarhG,P_CODE,P_TIME,P_ZXYGDN,P_FXYGDN,P_ZXWGDN,P_FXWGDN)values(233.047,233.603,233.611,404.087,404.607,404.087,41.49,43.05,47.34,9000,9270,10110,28380,3540,3870,4470,11880,9660,10050,11070,30750,0.93,0.922,0.914,0.923,49.795876,3461.85,434.1,2388.75,0,638.7,0,0,0,0,0,1391.7,219.3,975.3,0,197.1,1.95,0.3,0.15,0,1.35,3558.15,331.8,2653.5,0,572.7,0,0,0,0,0,2276.4,247.95,1682.55,0,345.75,2.25,0.3,0.6,0,1.2,2595.45,263.85,1930.2,0,401.25,0,0,0,0,0,1762.5,200.1,1322.85,0,239.4,7.05,3.6,2.25,0,1.2029356,37,20171124120525,420.834,0,238.64,51.575)
写入成功读取完毕一个
write:26 03 00 38 00 34 C3 07
26 03 68
3843 68 ED 91 43 69 3C 6A 43 68 DF 7D 43 C9 D3 B6 43 C9 C8 93 43 C9 A7 6D 42 02 8F 5C 41 BC A3 D7 41 D1 0A 3D 45 87 F0 00 45 4A 80 00 45 91 50 00 46 3F 40 00 45 B9 A0 00 45 85 20 00 45 6E 20 00 46 5A 70 00 45 ED 30 00 45 AB 90 00 45 BE 50 00 46 91 50 00 3F 12 F1 AA 3F 16 87 2B 3F 43 12 6F 3F 28 72 B0 42 48 0B 28
write:26 03 07 CF 00 78 72 74
26 03 F0
38totalsize 240
45 3E FC CD 42 22 99 9A 45 0D 30 00 00 00 00 00 44 3D 00 00 40 5C CC CD 00 00 00 00 40 2C CC CD 00 00 00 00 3F 19 99 9A 45 32 9A 66 40 40 00 00 45 08 98 00 00 00 00 00 44 27 40 00 42 8B CC CD 41 8E CC CD 41 74 CC CD 00 00 00 00 42 12 66 66 44 90 73 33 42 5B 00 00 44 55 13 33 00 00 00 00 43 78 66 66 3F AC CC CD 00 00 00 00 3F 86 66 66 00 00 00 00 3E 19 99 9A 44 89 53 33 42 2F CC CD 44 50 FC CD 00 00 00 00 43 5A 8C CD 41 C6 00 00 40 C9 99 9A 40 A8 00 00 00 00 00 00 41 50 CC CD 42 AF 33 33 40 19 99 9A 42 77 CC CD 00 00 00 00 41 B8 CC CD 00 00 00 00 00 00 00 00 00 00 00 00 00 00 00 00 00 00 00 00 42 1D 33 33 3F C0 00 00 41 E7 99 9A 00 00 00 00 41 0B 33 33 41 01 99 9A 3E 99 99 9A 40 B6 66 66 00 00 00 00 3F F9 A2 94
write:26 03 01 0F 00 08 73 24
26 03 10
3800 02 48 89 00 00 00 A5 00 02 0C FB 00 00 44 7D
43 68 ED 91
232.928
43 69 3C 6A
233.236
43 68 DF 7D
232.873
43 C9 D3 B6
403.654
43 C9 C8 93
403.567
43 C9 A7 6D
403.308
42 02 8F 5C
32.64
41 BC A3 D7
23.58
41 D1 0A 3D
26.13
45 87 F0 00
4350
45 4A 80 00
3240
45 91 50 00
4650
46 3F 40 00
12240
45 B9 A0 00
5940
45 85 20 00
4260
45 6E 20 00
3810
46 5A 70 00
13980
45 ED 30 00
7590
45 AB 90 00
5490
45 BE 50 00
6090
46 91 50 00
18600
3F 12 F1 AA
0.574
3F 16 87 2B
0.588
3F 43 12 6F
0.762
3F 28 72 B0
0.658
42 48 0B 28
50.010895
45 3E FC CD
3055.8
42 22 99 9A
40.65
45 0D 30 00
2259
00 00 00 00
0
44 3D 00 00
756
40 5C CC CD
3.45
00 00 00 00
0
40 2C CC CD
2.7
00 00 00 00
0
3F 19 99 9A
0.6
45 32 9A 66
2857.65
40 40 00 00
3
45 08 98 00
2185.5
00 00 00 00
0
44 27 40 00
669
42 8B CC CD
69.9
41 8E CC CD
17.85
41 74 CC CD
15.3
00 00 00 00
0
42 12 66 66
36.6
44 90 73 33
1155.6
42 5B 00 00
54.75
44 55 13 33
852.3
00 00 00 00
0
43 78 66 66
248.4
3F AC CC CD
1.35
00 00 00 00
0
3F 86 66 66
1.05
00 00 00 00
0
3E 19 99 9A
0.15
44 89 53 33
1098.6
42 2F CC CD
43.95
44 50 FC CD
835.95
00 00 00 00
0
43 5A 8C CD
218.55
41 C6 00 00
24.75
40 C9 99 9A
6.3
40 A8 00 00
5.25
00 00 00 00
0
41 50 CC CD
13.05
42 AF 33 33
87.6
40 19 99 9A
2.4
42 77 CC CD
61.95
00 00 00 00
0
41 B8 CC CD
23.1
00 00 00 00
0
00 00 00 00
0
00 00 00 00
0
00 00 00 00
0
00 00 00 00
0
42 1D 33 33
39.3
3F C0 00 00
1.5
41 E7 99 9A
28.95
00 00 00 00
0
41 0B 33 33
8.7
41 01 99 9A
8.1
3E 99 99 9A
0.3
40 B6 66 66
5.7
00 00 00 00
0
3F F9 A2 94
1.950274
00 02 48 89
149641
00 00 00 A5
165
00 02 0C FB
134395
00 00 44 7D
17533
232.928233.236232.873403.654403.567403.30832.6423.5826.134350324046501224059404260381013980759054906090186000.5740.5880.7620.65850.0108953055.840.65225907563.4502.700.62857.6532185.5066969.917.8515.3036.61155.654.75852.30248.41.3501.0500.151098.643.95835.950218.5524.756.35.25013.0587.62.461.95023.10000039.31.528.9508.78.10.35.701.9502743820171124120625149.6410.165134.39517.533insert into tbl_power_info_v2(P_A_DIANYA,P_B_DIANYA,P_C_DIANYA,P_UAB_XIANDIANYA,P_UBC_XIANDIANYA,P_UCA_XIANDIANYA,P_A_DIANLIU,P_B_DIANLIU,P_C_DIANLIU,P_A_YGGL,P_B_YGGL,P_C_YGGL,P_HXYGGL,P_A_WGGL,P_B_WGGL,P_C_WGGL,P_HXWGGL,P_A_SZGL,P_B_SZGL,P_C_SZGL,P_HXSZGL,P_A_GLYS,P_B_GLYS,P_C_GLYS,P_HXGLYS,P_DWPL,P_BY_KwhZ,P_BY_KwhJ,P_BY_KwhF,P_BY_KwhP,P_BY_KwhG,P_BY_HKwhZ,P_BY_HKwhJ,P_BY_HKwhF,P_BY_HKwhP,P_BY_HKwhG, P_BY_KvarhZ,P_BY_KvarhJ,P_BY_KvarhF,P_BY_KvarhP,P_BY_KvarhG, P_BY_HKvarhZ,P_BY_HKvarhJ,P_BY_HKvarhF,P_BY_HKvarhP,P_BY_HKvarhG, P_SY_KwhZ,P_SY_KwhJ,P_SY_KwhF,P_SY_KwhP,P_SY_KwhG, P_SY_HKwhZ,P_SY_HKwhJ,P_SY_HKwhF,P_SY_HKwhP,P_SY_HKwhG, P_SY_KvarhZ,P_SY_KvarhJ,P_SY_KvarhF,P_SY_KvarhP,P_SY_KvarhG, P_SY_HKvarhZ,P_SY_HKvarhJ,P_SY_HKvarhF,P_SY_HKvarhP,P_SY_HKvarhG, P_SSY_KwhZ,P_SSY_KwhJ,P_SSY_KwhF,P_SSY_KwhP,P_SSY_KwhG, P_SSY_HKwhZ,P_SSY_HKwhJ,P_SSY_HKwhF,P_SSY_HKwhP,P_SSY_HKwhG, P_SSY_KvarhZ,P_SSY_KvarhJ,P_SSY_KvarhF,P_SSY_KvarhP,P_SSY_KvarhG, P_SSY_HKvarhZ,P_SSY_HKvarhJ,P_SSY_HKvarhF,P_SSY_HKvarhP,P_SSY_HKvarhG,P_CODE,P_TIME,P_ZXYGDN,P_FXYGDN,P_ZXWGDN,P_FXWGDN)values(232.928,233.236,232.873,403.654,403.567,403.308,32.64,23.58,26.13,4350,3240,4650,12240,5940,4260,3810,13980,7590,5490,6090,18600,0.574,0.588,0.762,0.658,50.010895,3055.8,40.65,2259,0,756,3.45,0,2.7,0,0.6,2857.65,3,2185.5,0,669,69.9,17.85,15.3,0,36.6,1155.6,54.75,852.3,0,248.4,1.35,0,1.05,0,0.15,1098.6,43.95,835.95,0,218.55,24.75,6.3,5.25,0,13.05,87.6,2.4,61.95,0,23.1,0,0,0,0,0,39.3,1.5,28.95,0,8.7,8.1,0.3,5.7,0,1.950274,38,20171124120625,149.641,0.165,134.395,17.533)
写入成功读取完毕一个
write:27 03 00 38 00 34 C2 D6
27 03 68
3943 6A 01 CB 43 6A 76 46 43 6A 28 B4 43 CA D2 B0 43 CA DD B2 43 CA B1 68 00 00 00 00 00 00 00 00 41 45 47 AE 00 00 00 00 00 00 00 00 45 30 40 00 45 32 20 00 00 00 00 00 00 00 00 00 00 00 00 00 42 70 00 00 00 00 00 00 00 00 00 00 45 34 00 00 45 32 20 00 00 00 00 00 00 00 00 00 3F 79 16 87 3F 80 00 00 42 48 CA 6B
write:27 03 07 CF 00 78 73 A5
27 03 F0
39totalsize 240
43 86 A0 00 41 14 CC CD 43 3E A6 66 00 00 00 00 42 8A 4C CD 00 00 00 00 00 00 00 00 00 00 00 00 00 00 00 00 00 00 00 00 42 F8 66 66 00 00 00 00 42 C3 4C CD 00 00 00 00 41 D4 66 66 40 B1 99 9A 00 00 00 00 40 8B 33 33 00 00 00 00 3F 86 66 66 43 0C 66 66 41 38 CC CD 42 A5 E6 66 00 00 00 00 42 37 99 9A 00 00 00 00 00 00 00 00 00 00 00 00 00 00 00 00 00 00 00 00 3F AC CC CD 00 00 00 00 3F 19 99 9A 00 00 00 00 3F 19 99 9A 41 08 CC CD 00 00 00 00 40 D8 00 00 00 00 00 00 3F E6 66 66 43 68 59 9A 41 38 CC CD 43 1A CC CD 00 00 00 00 42 83 B3 33 00 00 00 00 00 00 00 00 00 00 00 00 00 00 00 00 00 00 00 00 41 8A 00 00 00 00 00 00 41 77 33 33 00 00 00 00 3F D3 33 33 41 88 CC CD 3E 19 99 9A 41 53 33 33 00 00 00 00 40 66 36 EF
write:27 03 01 0F 00 08 72 F5
27 03 10
3900 01 3D 0B 00 00 00 00 00 00 39 89 00 00 B0 56
43 6A 01 CB
234.007
43 6A 76 46
234.462
43 6A 28 B4
234.159
43 CA D2 B0
405.646
43 CA DD B2
405.732
43 CA B1 68
405.386
00 00 00 00
0
00 00 00 00
0
41 45 47 AE
12.33
00 00 00 00
0
00 00 00 00
0
45 30 40 00
2820
45 32 20 00
2850
00 00 00 00
0
00 00 00 00
0
00 00 00 00
0
42 70 00 00
60
00 00 00 00
0
00 00 00 00
0
45 34 00 00
2880
45 32 20 00
2850
00 00 00 00
0
00 00 00 00
0
3F 79 16 87
0.973
3F 80 00 00
1
42 48 CA 6B
50.197674
43 86 A0 00
269.25
41 14 CC CD
9.3
43 3E A6 66
190.65
00 00 00 00
0
42 8A 4C CD
69.15
00 00 00 00
0
00 00 00 00
0
00 00 00 00
0
00 00 00 00
0
00 00 00 00
0
42 F8 66 66
124.2
00 00 00 00
0
42 C3 4C CD
97.65
00 00 00 00
0
41 D4 66 66
26.55
40 B1 99 9A
5.55
00 00 00 00
0
40 8B 33 33
4.35
00 00 00 00
0
3F 86 66 66
1.05
43 0C 66 66
140.4
41 38 CC CD
11.55
42 A5 E6 66
82.95
00 00 00 00
0
42 37 99 9A
45.9
00 00 00 00
0
00 00 00 00
0
00 00 00 00
0
00 00 00 00
0
00 00 00 00
0
3F AC CC CD
1.35
00 00 00 00
0
3F 19 99 9A
0.6
00 00 00 00
0
3F 19 99 9A
0.6
41 08 CC CD
8.55
00 00 00 00
0
40 D8 00 00
6.75
00 00 00 00
0
3F E6 66 66
1.8
43 68 59 9A
232.35
41 38 CC CD
11.55
43 1A CC CD
154.8
00 00 00 00
0
42 83 B3 33
65.85
00 00 00 00
0
00 00 00 00
0
00 00 00 00
0
00 00 00 00
0
00 00 00 00
0
41 8A 00 00
17.25
00 00 00 00
0
41 77 33 33
15.45
00 00 00 00
0
3F D3 33 33
1.65
41 88 CC CD
17.1
3E 19 99 9A
0.15
41 53 33 33
13.2
00 00 00 00
0
40 66 36 EF
3.5971029
00 01 3D 0B
81163
00 00 00 00
0
00 00 39 89
14729
00 00 B0 56
45142
234.007234.462234.159405.646405.732405.3860012.330028202850000600028802850000.973150.197674269.259.3190.65069.1500000124.2097.65026.555.5504.3501.05140.411.5582.95045.9000001.3500.600.68.5506.7501.8232.3511.55154.8065.850000017.25015.4501.6517.10.1513.203.5971029392017112412072481.163014.72945.142insert into tbl_power_info_v2(P_A_DIANYA,P_B_DIANYA,P_C_DIANYA,P_UAB_XIANDIANYA,P_UBC_XIANDIANYA,P_UCA_XIANDIANYA,P_A_DIANLIU,P_B_DIANLIU,P_C_DIANLIU,P_A_YGGL,P_B_YGGL,P_C_YGGL,P_HXYGGL,P_A_WGGL,P_B_WGGL,P_C_WGGL,P_HXWGGL,P_A_SZGL,P_B_SZGL,P_C_SZGL,P_HXSZGL,P_A_GLYS,P_B_GLYS,P_C_GLYS,P_HXGLYS,P_DWPL,P_BY_KwhZ,P_BY_KwhJ,P_BY_KwhF,P_BY_KwhP,P_BY_KwhG,P_BY_HKwhZ,P_BY_HKwhJ,P_BY_HKwhF,P_BY_HKwhP,P_BY_HKwhG, P_BY_KvarhZ,P_BY_KvarhJ,P_BY_KvarhF,P_BY_KvarhP,P_BY_KvarhG, P_BY_HKvarhZ,P_BY_HKvarhJ,P_BY_HKvarhF,P_BY_HKvarhP,P_BY_HKvarhG, P_SY_KwhZ,P_SY_KwhJ,P_SY_KwhF,P_SY_KwhP,P_SY_KwhG, P_SY_HKwhZ,P_SY_HKwhJ,P_SY_HKwhF,P_SY_HKwhP,P_SY_HKwhG, P_SY_KvarhZ,P_SY_KvarhJ,P_SY_KvarhF,P_SY_KvarhP,P_SY_KvarhG, P_SY_HKvarhZ,P_SY_HKvarhJ,P_SY_HKvarhF,P_SY_HKvarhP,P_SY_HKvarhG, P_SSY_KwhZ,P_SSY_KwhJ,P_SSY_KwhF,P_SSY_KwhP,P_SSY_KwhG, P_SSY_HKwhZ,P_SSY_HKwhJ,P_SSY_HKwhF,P_SSY_HKwhP,P_SSY_HKwhG, P_SSY_KvarhZ,P_SSY_KvarhJ,P_SSY_KvarhF,P_SSY_KvarhP,P_SSY_KvarhG, P_SSY_HKvarhZ,P_SSY_HKvarhJ,P_SSY_HKvarhF,P_SSY_HKvarhP,P_SSY_HKvarhG,P_CODE,P_TIME,P_ZXYGDN,P_FXYGDN,P_ZXWGDN,P_FXWGDN)values(234.007,234.462,234.159,405.646,405.732,405.386,0,0,12.33,0,0,2820,2850,0,0,0,60,0,0,2880,2850,0,0,0.973,1,50.197674,269.25,9.3,190.65,0,69.15,0,0,0,0,0,124.2,0,97.65,0,26.55,5.55,0,4.35,0,1.05,140.4,11.55,82.95,0,45.9,0,0,0,0,0,1.35,0,0.6,0,0.6,8.55,0,6.75,0,1.8,232.35,11.55,154.8,0,65.85,0,0,0,0,0,17.25,0,15.45,0,1.65,17.1,0.15,13.2,0,3.5971029,39,20171124120724,81.163,0,14.729,45.142)
写入成功读取完毕一个
write:28 03 00 38 00 34 C2 29
28 03 68
4043 69 E1 CB 43 6A 64 5A 43 6A 0E 98 43 CA B1 68 43 CA C7 8D 43 CA 90 21 00 00 00 00 3E F5 C2 8F 00 00 00 00 00 00 00 00 42 B4 00 00 00 00 00 00 42 F0 00 00 00 00 00 00 42 70 00 00 00 00 00 00 42 70 00 00 00 00 00 00 42 F0 00 00 42 70 00 00 42 F0 00 00 00 00 00 00 3F 46 E9 79 3E EA 7E FA 3F 63 95 81 42 48 CA EB
write:28 03 07 CF 00 78 73 5A
28 03 F0
40totalsize 240
43 1F 4C CD 41 06 66 66 42 E6 66 66 00 00 00 00 42 0E 33 33 00 00 00 00 00 00 00 00 00 00 00 00 00 00 00 00 00 00 00 00 42 B2 CC CD 40 A3 33 33 42 77 CC CD 00 00 00 00 41 B1 99 9A 3F 19 99 9A 00 00 00 00 3E E6 66 66 00 00 00 00 00 00 00 00 43 2B C0 00 41 20 CC CD 42 D2 4C CD 00 00 00 00 42 61 99 9A 00 00 00 00 00 00 00 00 00 00 00 00 00 00 00 00 00 00 00 00 42 58 99 9A 40 E1 99 9A 41 D4 66 66 00 00 00 00 41 A3 33 33 3E 19 99 9A 00 00 00 00 3E 19 99 9A 00 00 00 00 00 00 00 00 44 49 69 9A 41 77 33 33 43 FD 59 9A 00 00 00 00 43 8D AC CD 00 00 00 00 00 00 00 00 00 00 00 00 00 00 00 00 00 00 00 00 43 67 73 33 41 1C 00 00 43 14 33 33 00 00 00 00 42 93 00 00 3E 19 99 9A 00 00 00 00 00 00 00 00 00 00 00 00 00 00 91 19
write:28 03 01 0F 00 08 72 0A
28 03 10
4000 01 56 88 00 00 00 00 00 00 69 4F 00 00 D5 A3
43 69 E1 CB
233.882
43 6A 64 5A
234.392
43 6A 0E 98
234.057
43 CA B1 68
405.386
43 CA C7 8D
405.559
43 CA 90 21
405.126
00 00 00 00
0
3E F5 C2 8F
0.48
00 00 00 00
0
00 00 00 00
0
42 B4 00 00
90
00 00 00 00
0
42 F0 00 00
120
00 00 00 00
0
42 70 00 00
60
00 00 00 00
0
42 70 00 00
60
00 00 00 00
0
42 F0 00 00
120
42 70 00 00
60
42 F0 00 00
120
00 00 00 00
0
3F 46 E9 79
0.777
3E EA 7E FA
0.458
3F 63 95 81
0.889
42 48 CA EB
50.198162
43 1F 4C CD
159.3
41 06 66 66
8.4
42 E6 66 66
115.2
00 00 00 00
0
42 0E 33 33
35.55
00 00 00 00
0
00 00 00 00
0
00 00 00 00
0
00 00 00 00
0
00 00 00 00
0
42 B2 CC CD
89.4
40 A3 33 33
5.1
42 77 CC CD
61.95
00 00 00 00
0
41 B1 99 9A
22.2
3F 19 99 9A
0.6
00 00 00 00
0
3E E6 66 66
0.45
00 00 00 00
0
00 00 00 00
0
43 2B C0 00
171.75
41 20 CC CD
10.05
42 D2 4C CD
105.15
00 00 00 00
0
42 61 99 9A
56.4
00 00 00 00
0
00 00 00 00
0
00 00 00 00
0
00 00 00 00
0
00 00 00 00
0
42 58 99 9A
54.15
40 E1 99 9A
7.05
41 D4 66 66
26.55
00 00 00 00
0
41 A3 33 33
20.4
3E 19 99 9A
0.15
00 00 00 00
0
3E 19 99 9A
0.15
00 00 00 00
0
00 00 00 00
0
44 49 69 9A
805.65
41 77 33 33
15.45
43 FD 59 9A
506.7
00 00 00 00
0
43 8D AC CD
283.35
00 00 00 00
0
00 00 00 00
0
00 00 00 00
0
00 00 00 00
0
00 00 00 00
0
43 67 73 33
231.45
41 1C 00 00
9.75
43 14 33 33
148.2
00 00 00 00
0
42 93 00 00
73.5
3E 19 99 9A
0.15
00 00 00 00
0
00 00 00 00
0
00 00 00 00
0
00 00 91 19
5.2051e-41
00 01 56 88
87688
00 00 00 00
0
00 00 69 4F
26959
00 00 D5 A3
54691
233.882234.392234.057405.386405.559405.12600.480090012006006001206012000.7770.4580.88950.198162159.38.4115.2035.550000089.45.161.95022.20.600.4500171.7510.05105.15056.40000054.157.0526.55020.40.1500.1500805.6515.45506.70283.3500000231.459.75148.2073.50.150005.2051e-41402017112412082587.688026.95954.691insert into tbl_power_info_v2(P_A_DIANYA,P_B_DIANYA,P_C_DIANYA,P_UAB_XIANDIANYA,P_UBC_XIANDIANYA,P_UCA_XIANDIANYA,P_A_DIANLIU,P_B_DIANLIU,P_C_DIANLIU,P_A_YGGL,P_B_YGGL,P_C_YGGL,P_HXYGGL,P_A_WGGL,P_B_WGGL,P_C_WGGL,P_HXWGGL,P_A_SZGL,P_B_SZGL,P_C_SZGL,P_HXSZGL,P_A_GLYS,P_B_GLYS,P_C_GLYS,P_HXGLYS,P_DWPL,P_BY_KwhZ,P_BY_KwhJ,P_BY_KwhF,P_BY_KwhP,P_BY_KwhG,P_BY_HKwhZ,P_BY_HKwhJ,P_BY_HKwhF,P_BY_HKwhP,P_BY_HKwhG, P_BY_KvarhZ,P_BY_KvarhJ,P_BY_KvarhF,P_BY_KvarhP,P_BY_KvarhG, P_BY_HKvarhZ,P_BY_HKvarhJ,P_BY_HKvarhF,P_BY_HKvarhP,P_BY_HKvarhG, P_SY_KwhZ,P_SY_KwhJ,P_SY_KwhF,P_SY_KwhP,P_SY_KwhG, P_SY_HKwhZ,P_SY_HKwhJ,P_SY_HKwhF,P_SY_HKwhP,P_SY_HKwhG, P_SY_KvarhZ,P_SY_KvarhJ,P_SY_KvarhF,P_SY_KvarhP,P_SY_KvarhG, P_SY_HKvarhZ,P_SY_HKvarhJ,P_SY_HKvarhF,P_SY_HKvarhP,P_SY_HKvarhG, P_SSY_KwhZ,P_SSY_KwhJ,P_SSY_KwhF,P_SSY_KwhP,P_SSY_KwhG, P_SSY_HKwhZ,P_SSY_HKwhJ,P_SSY_HKwhF,P_SSY_HKwhP,P_SSY_HKwhG, P_SSY_KvarhZ,P_SSY_KvarhJ,P_SSY_KvarhF,P_SSY_KvarhP,P_SSY_KvarhG, P_SSY_HKvarhZ,P_SSY_HKvarhJ,P_SSY_HKvarhF,P_SSY_HKvarhP,P_SSY_HKvarhG,P_CODE,P_TIME,P_ZXYGDN,P_FXYGDN,P_ZXWGDN,P_FXWGDN)values(233.882,234.392,234.057,405.386,405.559,405.126,0,0.48,0,0,90,0,120,0,60,0,60,0,120,60,120,0,0.777,0.458,0.889,50.198162,159.3,8.4,115.2,0,35.55,0,0,0,0,0,89.4,5.1,61.95,0,22.2,0.6,0,0.45,0,0,171.75,10.05,105.15,0,56.4,0,0,0,0,0,54.15,7.05,26.55,0,20.4,0.15,0,0.15,0,0,805.65,15.45,506.7,0,283.35,0,0,0,0,0,231.45,9.75,148.2,0,73.5,0.15,0,0,0,5.2051e-41,40,20171124120825,87.688,0,26.959,54.691)
写入成功读取完毕一个
write:29 03 00 38 00 34 C3 F8
29 03 68
4143 6A 28 F6 43 6A C2 D1 43 6A 8E 98 43 CA FE FA 43 CB 2B 64 43 CA E8 D5 00 00 00 00 40 91 EB 85 40 40 00 00 00 00 00 00 44 87 00 00 43 F0 00 00 44 C3 00 00 00 00 00 00 00 00 00 00 43 34 00 00 43 70 00 00 00 00 00 00 44 87 00 00 44 34 00 00 44 C3 00 00 00 00 00 00 3F 7D 70 A4 3F 27 6C 8B 3F 7C ED 91 42 48 E2 0D
write:29 03 07 CF 00 78 72 8B
29 03 F0
41totalsize 240
44 27 53 33 41 06 66 66 43 F4 59 9A 41 06 66 66 43 23 80 00 00 00 00 00 00 00 00 00 00 00 00 00 00 00 00 00 00 00 00 00 44 0E 20 00 00 00 00 00 43 E4 26 66 00 00 00 00 42 DF 33 33 42 B1 99 9A 40 F0 00 00 42 07 99 9A 41 01 99 9A 42 1A CC CD 43 D1 D9 9A 40 90 00 00 43 A3 80 00 40 90 00 00 42 A6 33 33 00 00 00 00 00 00 00 00 00 00 00 00 00 00 00 00 00 00 00 00 43 A4 B3 33 3E 99 99 9A 43 8E 33 33 3E 99 99 9A 42 2F 33 33 42 9F 00 00 40 F9 99 9A 41 E1 99 9A 41 01 99 9A 42 0C 66 66 43 D6 F3 33 40 06 66 66 43 9B B3 33 40 06 66 66 42 E4 00 00 00 00 00 00 00 00 00 00 00 00 00 00 00 00 00 00 00 00 00 00 43 E1 E6 66 3F 99 99 9A 43 AF F3 33 3F C0 00 00 42 C1 33 33 42 35 33 33 40 B6 66 66 41 2C CC CD 40 C0 00 00 41 B1 C0 46
write:29 03 01 0F 00 08 73 DB
29 03 10
4100 00 65 12 00 00 00 00 00 00 5B 36 00 00 AD 21
43 6A 28 F6
234.16
43 6A C2 D1
234.761
43 6A 8E 98
234.557
43 CA FE FA
405.992
43 CB 2B 64
406.339
43 CA E8 D5
405.819
00 00 00 00
0
40 91 EB 85
4.56
40 40 00 00
3
00 00 00 00
0
44 87 00 00
1080
43 F0 00 00
480
44 C3 00 00
1560
00 00 00 00
0
00 00 00 00
0
43 34 00 00
180
43 70 00 00
240
00 00 00 00
0
44 87 00 00
1080
44 34 00 00
720
44 C3 00 00
1560
00 00 00 00
0
3F 7D 70 A4
0.99
3F 27 6C 8B
0.654
3F 7C ED 91
0.988
42 48 E2 0D
50.220753
44 27 53 33
669.3
41 06 66 66
8.4
43 F4 59 9A
488.7
41 06 66 66
8.4
43 23 80 00
163.5
00 00 00 00
0
00 00 00 00
0
00 00 00 00
0
00 00 00 00
0
00 00 00 00
0
44 0E 20 00
568.5
00 00 00 00
0
43 E4 26 66
456.3
00 00 00 00
0
42 DF 33 33
111.6
42 B1 99 9A
88.8
40 F0 00 00
7.5
42 07 99 9A
33.9
41 01 99 9A
8.1
42 1A CC CD
38.7
43 D1 D9 9A
419.7
40 90 00 00
4.5
43 A3 80 00
327
40 90 00 00
4.5
42 A6 33 33
83.1
00 00 00 00
0
00 00 00 00
0
00 00 00 00
0
00 00 00 00
0
00 00 00 00
0
43 A4 B3 33
329.4
3E 99 99 9A
0.3
43 8E 33 33
284.4
3E 99 99 9A
0.3
42 2F 33 33
43.8
42 9F 00 00
79.5
40 F9 99 9A
7.8
41 E1 99 9A
28.2
41 01 99 9A
8.1
42 0C 66 66
35.1
43 D6 F3 33
429.9
40 06 66 66
2.1
43 9B B3 33
311.4
40 06 66 66
2.1
42 E4 00 00
114
00 00 00 00
0
00 00 00 00
0
00 00 00 00
0
00 00 00 00
0
00 00 00 00
0
43 E1 E6 66
451.8
3F 99 99 9A
1.2
43 AF F3 33
351.9
3F C0 00 00
1.5
42 C1 33 33
96.6
42 35 33 33
45.3
40 B6 66 66
5.7
41 2C CC CD
10.8
40 C0 00 00
6
41 B1 C0 46
22.218884
00 00 65 12
25874
00 00 00 00
0
00 00 5B 36
23350
00 00 AD 21
44321
234.16234.761234.557405.992406.339405.81904.5630108048015600018024001080720156000.990.6540.98850.220753669.38.4488.78.4163.500000568.50456.30111.688.87.533.98.138.7419.74.53274.583.100000329.40.3284.40.343.879.57.828.28.135.1429.92.1311.42.111400000451.81.2351.91.596.645.35.710.8622.218884412017112412093425.874023.3544.321insert into tbl_power_info_v2(P_A_DIANYA,P_B_DIANYA,P_C_DIANYA,P_UAB_XIANDIANYA,P_UBC_XIANDIANYA,P_UCA_XIANDIANYA,P_A_DIANLIU,P_B_DIANLIU,P_C_DIANLIU,P_A_YGGL,P_B_YGGL,P_C_YGGL,P_HXYGGL,P_A_WGGL,P_B_WGGL,P_C_WGGL,P_HXWGGL,P_A_SZGL,P_B_SZGL,P_C_SZGL,P_HXSZGL,P_A_GLYS,P_B_GLYS,P_C_GLYS,P_HXGLYS,P_DWPL,P_BY_KwhZ,P_BY_KwhJ,P_BY_KwhF,P_BY_KwhP,P_BY_KwhG,P_BY_HKwhZ,P_BY_HKwhJ,P_BY_HKwhF,P_BY_HKwhP,P_BY_HKwhG, P_BY_KvarhZ,P_BY_KvarhJ,P_BY_KvarhF,P_BY_KvarhP,P_BY_KvarhG, P_BY_HKvarhZ,P_BY_HKvarhJ,P_BY_HKvarhF,P_BY_HKvarhP,P_BY_HKvarhG, P_SY_KwhZ,P_SY_KwhJ,P_SY_KwhF,P_SY_KwhP,P_SY_KwhG, P_SY_HKwhZ,P_SY_HKwhJ,P_SY_HKwhF,P_SY_HKwhP,P_SY_HKwhG, P_SY_KvarhZ,P_SY_KvarhJ,P_SY_KvarhF,P_SY_KvarhP,P_SY_KvarhG, P_SY_HKvarhZ,P_SY_HKvarhJ,P_SY_HKvarhF,P_SY_HKvarhP,P_SY_HKvarhG, P_SSY_KwhZ,P_SSY_KwhJ,P_SSY_KwhF,P_SSY_KwhP,P_SSY_KwhG, P_SSY_HKwhZ,P_SSY_HKwhJ,P_SSY_HKwhF,P_SSY_HKwhP,P_SSY_HKwhG, P_SSY_KvarhZ,P_SSY_KvarhJ,P_SSY_KvarhF,P_SSY_KvarhP,P_SSY_KvarhG, P_SSY_HKvarhZ,P_SSY_HKvarhJ,P_SSY_HKvarhF,P_SSY_HKvarhP,P_SSY_HKvarhG,P_CODE,P_TIME,P_ZXYGDN,P_FXYGDN,P_ZXWGDN,P_FXWGDN)values(234.16,234.761,234.557,405.992,406.339,405.819,0,4.56,3,0,1080,480,1560,0,0,180,240,0,1080,720,1560,0,0.99,0.654,0.988,50.220753,669.3,8.4,488.7,8.4,163.5,0,0,0,0,0,568.5,0,456.3,0,111.6,88.8,7.5,33.9,8.1,38.7,419.7,4.5,327,4.5,83.1,0,0,0,0,0,329.4,0.3,284.4,0.3,43.8,79.5,7.8,28.2,8.1,35.1,429.9,2.1,311.4,2.1,114,0,0,0,0,0,451.8,1.2,351.9,1.5,96.6,45.3,5.7,10.8,6,22.218884,41,20171124120934,25.874,0,23.35,44.321)
写入成功读取完毕一个
write:2A 03 00 38 00 34 C3 CB
write:2A 03 07 CF 00 78 72 B8
write:2A 03 01 0F 00 08 73 E8
EB F1 ED
heart:EB F1 ED FF E3 67 DD E1 69 F4 BC 43 69 BA E1 43 CA 4D B2 43 CA 79 FC 43 CA 37 6D 41 4E 66 66 41 C0 7A E1 41 F3 AE 14 45 39 00 00 45 AD C0 00 45 DD E0 00 46 73 C0 00 43 B4 00 00 44 3E 00 00 00 00 00 00 44 8C 00 00 45 3B 80 00 45 AF A0 00 45 DE 80 00 46 74 60 00 3F 7C AC 08 3F 7C AC 08 3F 7F 3B 64 3F 7F 3B 64 42 48 FF 66
write:2B 03 00 38 00 34 C2 1A
write:2B 03 07 CF 00 78 73 69
write:2B 03 01 0F 00 08 72 39
write:2C 03 00 38 00 34 C3 AD
2B 2C 03
heart:2B 2C 03 68 00 00 43 69 1E 77 43 69 AD 0E 43 69 67 AE 43 CA 16 46 43 CA 37 6D 43 CA 00 00 41 3B 85 1F 41 86 B8 52 41 24 7A E1 44 E6 00 00 45 39 00 00 44 AF 00 00 45 C0 80 00 44 F0 00 00 44 E6 00 00 44 F5 00 00 45 B2 C0 00 45 2A 00 00 45 75 00 00 45 16 00 00 46 03 40 00 3F 2D 0E 56 3F 3F 3B 64 3F 13 B6 46 3F 3B E7 6D 42 48 D3 AE
write:2C 03 07 CF 00 78 72 DE
2C 03 F0
44totalsize 240
45 3B 50 00 44 11 80 00 44 F8 60 00 00 00 00 00 43 D5 E6 66 00 00 00 00 00 00 00 00 00 00 00 00 00 00 00 00 00 00 00 00 44 BB 40 00 43 9B 66 66 44 7D 99 9A 00 00 00 00 43 2C 66 66 42 7C CC CD 41 46 66 66 42 10 CC CD 00 00 00 00 41 66 66 66 45 5D 1C CD 44 48 F3 33 45 05 66 66 00 00 00 00 44 15 E6 66 00 00 00 00 00 00 00 00 00 00 00 00 00 00 00 00 00 00 00 00 44 8B 99 9A 43 18 00 00 44 48 D9 9A 00 00 00 00 43 21 33 33 43 27 99 9A 42 5C 00 00 42 98 66 66 00 00 00 00 42 10 00 00 45 29 09 9A 44 2A 99 9A 44 BC F9 9A 00 00 00 00 43 FF 19 9A 00 00 00 00 00 00 00 00 00 00 00 00 00 00 00 00 00 00 00 00 43 B2 19 9A 42 69 99 9A 43 6E 33 33 00 00 00 00 42 6D 99 9A 43 51 99 9A 42 63 33 33 42 DC CC CD 00 00 00 00 42 28 EE D7
write:2C 03 01 0F 00 08 73 8E
2C 03 10
4400 04 E5 26 00 00 00 00 00 01 51 1E 00 00 39 37
write:2D 03 00 38 00 34 C2 7C
2D 03 68
4543 6A 07 2B 43 6A B8 10 43 6A 92 6F 43 CA F3 F8 43 CB 2B 64 43 CA DD B2 41 71 EB 85 40 7A E1 48 40 AE 14 7B 45 48 00 00 44 34 00 00 44 34 00 00 45 8F C0 00 43 8C 00 00 43 48 00 00 44 16 00 00 44 8C 00 00 45 5C 00 00 44 66 00 00 44 A0 00 00 45 93 80 00 3F 66 66 66 3F 46 E9 79 3F 0D 91 68 3F 78 D4 FE 42 48 FE F7
write:2D 03 07 CF 00 78 73 0F
2D 03 F0
45totalsize 240
45 50 13 33 43 EB E6 66 45 0F 83 33 00 00 00 00 44 0C 40 00 00 00 00 00 00 00 00 00 00 00 00 00 00 00 00 00 00 00 00 00 40 F9 99 9A 3F 19 99 9A 40 D3 33 33 00 00 00 00 3E 4C CC CD 44 53 A6 66 43 0E 33 33 43 BF 80 00 00 00 00 00 43 A0 80 00 45 59 E9 9A 44 17 99 9A 45 0A CC CD 00 00 00 00 44 24 CC CD 00 00 00 00 00 00 00 00 00 00 00 00 00 00 00 00 00 00 00 00 3F B3 33 33 3E 4C CC CD 3F 80 00 00 00 00 00 00 00 00 00 00 44 A2 A6 66 43 6C CC CD 44 1D F3 33 00 00 00 00 43 D8 33 33 45 38 96 66 43 C5 00 00 44 F1 8C CD 00 00 00 00 44 1C B3 33 00 00 00 00 00 00 00 00 00 00 00 00 00 00 00 00 00 00 00 00 3E CC CC CD 00 00 00 00 3E 4C CC CD 00 00 00 00 00 00 00 00 44 8E C0 00 43 45 66 66 44 05 E6 66 00 00 00 00 43 CC 02 1F
write:2D 03 01 0F 00 08 72 5F
write:2E 03 00 38 00 34 C2 4F
EF FF EF
heart:EF FF EF F7 84 00 10 5E D8 00 00 00 00 00 00 27 75 00 03 B2 84
write:2E 03 07 CF 00 78 73 3C
2E 03 F0
46totalsize 240
45 9A C0 00 44 58 F3 33 45 4D 3C CD 00 00 00 00 44 48 00 00 00 00 00 00 00 00 00 00 00 00 00 00 00 00 00 00 00 00 00 00 40 B3 33 33 3F 4C CC CD 40 80 00 00 00 00 00 00 3F 19 99 9A 44 2F 4C CD 42 EC 00 00 43 9E CC CD 00 00 00 00 43 84 B3 33 46 38 B4 CD 45 18 13 33 45 F1 63 33 00 00 00 00 44 CF EC CD 00 00 00 00 00 00 00 00 00 00 00 00 00 00 00 00 00 00 00 00 40 40 00 00 00 00 00 00 40 26 66 66 00 00 00 00 3E 4C CC CD 44 6D 4C CD 43 24 33 33 43 DE B3 33 00 00 00 00 43 A9 CC CD 46 61 63 33 45 17 7C CD 46 1D 2A 66 00 00 00 00 44 F2 C0 00 00 00 00 00 00 00 00 00 00 00 00 00 00 00 00 00 00 00 00 00 42 1E 66 66 40 AC CC CD 41 F0 00 00 00 00 00 00 40 80 00 00 44 24 26 66 42 CA CC CD 43 93 99 9A 00 00 00 00 43 82 E1 4E
write:2E 03 01 0F 00 08 72 6C
2E 03 10
4600 26 08 2D 00 00 00 00 00 00 31 AB 00 02 C1 43
write:2F 03 00 38 00 34 C3 9E
2F 03 68
4743 6A 35 C3 43 6A 33 B6 43 6A 40 00 43 CA D2 B0 43 CA D2 B0 43 CA D2 B0 42 12 47 AE 41 9D AE 14 42 1A CC CD 46 00 E8 00 45 90 60 00 46 0A 48 00 46 A9 74 00 45 10 60 00 42 70 00 00 44 F3 C0 00 43 96 00 00 46 06 10 00 45 90 60 00 46 0D 90 00 00 00 00 00 00 00 00 00 00 00 00 00 00 00 00 00 00 00 00 00 00 00 00 00
46 A9 74
heart:46 A9 74 00 3F 76 87 2B 3F 80 00 00 3F 79 99 9A 3F 80 00 00 42 47 A2 FB
write:2F 03 07 CF 00 78 72 ED
2F 03 F0
47totalsize 240
44 C0 A3 33 40 79 99 9A 44 9E 44 CD 00 00 00 00 43 87 60 00 00 00 00 00 00 00 00 00 00 00 00 00 00 00 00 00 00 00 00 00 42 E5 33 33 00 00 00 00 42 D2 E6 66 00 00 00 00 41 10 00 00 41 14 CC CD 3F 40 00 00 40 D3 33 33 00 00 00 00 3F E6 66 66 44 D7 83 33 40 53 33 33 44 A5 2B 33 00 00 00 00 43 C7 A6 66 00 00 00 00 00 00 00 00 00 00 00 00 00 00 00 00 00 00 00 00 41 CD 33 33 00 00 00 00 41 B6 66 66 00 00 00 00 40 36 66 66 41 23 33 33 3F 66 66 66 40 E1 99 9A 00 00 00 00 40 06 66 66 44 FF 48 00 3F 86 66 66 44 CF 34 CD 00 00 00 00 43 BF B3 33 00 00 00 00 00 00 00 00 00 00 00 00 00 00 00 00 00 00 00 00 42 52 99 9A 00 00 00 00 42 3A 99 9A 00 00 00 00 40 BB 33 33 41 23 33 33 3E E6 66 66 40 DC CC CD 00 00 00 00 40 2C D2 87
write:2F 03 01 0F 00 08 73 BD
2F 03 10
4700 04 82 A5 00 00 00 00 00 00 26 E1 00 00 B8 FA
43 6A 35 C3
234.21
43 6A 33 B6
234.202
43 6A 40 00
234.25
43 CA D2 B0
405.646
43 CA D2 B0
405.646
43 CA D2 B0
405.646
42 12 47 AE
36.57
41 9D AE 14
19.71
42 1A CC CD
38.7
46 00 E8 00
8250
45 90 60 00
4620
46 0A 48 00
8850
46 A9 74 00
21690
45 10 60 00
2310
42 70 00 00
60
44 F3 C0 00
1950
43 96 00 00
300
46 06 10 00
8580
45 90 60 00
4620
46 0D 90 00
9060
00 00 00 00
0
00 00 00 00
0
00 00 00 00
0
00 00 00 00
0
00 00 00 00
0
00 00 00 00
0
44 C0 A3 33
1541.1
40 79 99 9A
3.9
44 9E 44 CD
1266.15
00 00 00 00
0
43 87 60 00
270.75
00 00 00 00
0
00 00 00 00
0
00 00 00 00
0
00 00 00 00
0
00 00 00 00
0
42 E5 33 33
114.6
00 00 00 00
0
42 D2 E6 66
105.45
00 00 00 00
0
41 10 00 00
9
41 14 CC CD
9.3
3F 40 00 00
0.75
40 D3 33 33
6.6
00 00 00 00
0
3F E6 66 66
1.8
44 D7 83 33
1724.1
40 53 33 33
3.3
44 A5 2B 33
1321.35
00 00 00 00
0
43 C7 A6 66
399.3
00 00 00 00
0
00 00 00 00
0
00 00 00 00
0
00 00 00 00
0
00 00 00 00
0
41 CD 33 33
25.65
00 00 00 00
0
41 B6 66 66
22.8
00 00 00 00
0
40 36 66 66
2.85
41 23 33 33
10.2
3F 66 66 66
0.9
40 E1 99 9A
7.05
00 00 00 00
0
40 06 66 66
2.1
44 FF 48 00
2042.25
3F 86 66 66
1.05
44 CF 34 CD
1657.65
00 00 00 00
0
43 BF B3 33
383.4
00 00 00 00
0
00 00 00 00
0
00 00 00 00
0
00 00 00 00
0
00 00 00 00
0
42 52 99 9A
52.65
00 00 00 00
0
42 3A 99 9A
46.65
00 00 00 00
0
40 BB 33 33
5.85
41 23 33 33
10.2
3E E6 66 66
0.45
40 DC CC CD
6.9
00 00 00 00
0
40 2C D2 87
2.7003496
00 04 82 A5
295589
00 00 00 00
0
00 00 26 E1
9953
00 00 B8 FA
47354
234.21234.202234.25405.646405.646405.64636.5719.7138.78250462088502169023106019503008580462090600000001541.13.91266.150270.7500000114.60105.45099.30.756.601.81724.13.31321.350399.30000025.65022.802.8510.20.97.0502.12042.251.051657.650383.40000052.65046.6505.8510.20.456.902.70034964720171124121533295.58909.95347.354insert into tbl_power_info_v2(P_A_DIANYA,P_B_DIANYA,P_C_DIANYA,P_UAB_XIANDIANYA,P_UBC_XIANDIANYA,P_UCA_XIANDIANYA,P_A_DIANLIU,P_B_DIANLIU,P_C_DIANLIU,P_A_YGGL,P_B_YGGL,P_C_YGGL,P_HXYGGL,P_A_WGGL,P_B_WGGL,P_C_WGGL,P_HXWGGL,P_A_SZGL,P_B_SZGL,P_C_SZGL,P_HXSZGL,P_A_GLYS,P_B_GLYS,P_C_GLYS,P_HXGLYS,P_DWPL,P_BY_KwhZ,P_BY_KwhJ,P_BY_KwhF,P_BY_KwhP,P_BY_KwhG,P_BY_HKwhZ,P_BY_HKwhJ,P_BY_HKwhF,P_BY_HKwhP,P_BY_HKwhG, P_BY_KvarhZ,P_BY_KvarhJ,P_BY_KvarhF,P_BY_KvarhP,P_BY_KvarhG, P_BY_HKvarhZ,P_BY_HKvarhJ,P_BY_HKvarhF,P_BY_HKvarhP,P_BY_HKvarhG, P_SY_KwhZ,P_SY_KwhJ,P_SY_KwhF,P_SY_KwhP,P_SY_KwhG, P_SY_HKwhZ,P_SY_HKwhJ,P_SY_HKwhF,P_SY_HKwhP,P_SY_HKwhG, P_SY_KvarhZ,P_SY_KvarhJ,P_SY_KvarhF,P_SY_KvarhP,P_SY_KvarhG, P_SY_HKvarhZ,P_SY_HKvarhJ,P_SY_HKvarhF,P_SY_HKvarhP,P_SY_HKvarhG, P_SSY_KwhZ,P_SSY_KwhJ,P_SSY_KwhF,P_SSY_KwhP,P_SSY_KwhG, P_SSY_HKwhZ,P_SSY_HKwhJ,P_SSY_HKwhF,P_SSY_HKwhP,P_SSY_HKwhG, P_SSY_KvarhZ,P_SSY_KvarhJ,P_SSY_KvarhF,P_SSY_KvarhP,P_SSY_KvarhG, P_SSY_HKvarhZ,P_SSY_HKvarhJ,P_SSY_HKvarhF,P_SSY_HKvarhP,P_SSY_HKvarhG,P_CODE,P_TIME,P_ZXYGDN,P_FXYGDN,P_ZXWGDN,P_FXWGDN)values(234.21,234.202,234.25,405.646,405.646,405.646,36.57,19.71,38.7,8250,4620,8850,21690,2310,60,1950,300,8580,4620,9060,0,0,0,0,0,0,1541.1,3.9,1266.15,0,270.75,0,0,0,0,0,114.6,0,105.45,0,9,9.3,0.75,6.6,0,1.8,1724.1,3.3,1321.35,0,399.3,0,0,0,0,0,25.65,0,22.8,0,2.85,10.2,0.9,7.05,0,2.1,2042.25,1.05,1657.65,0,383.4,0,0,0,0,0,52.65,0,46.65,0,5.85,10.2,0.45,6.9,0,2.7003496,47,20171124121533,295.589,0,9.953,47.354)
写入成功读取完毕一个
write:30 03 00 38 00 34 C1 F1
30 03 68
4843 69 A9 BA 43 6A 69 37 43 69 E5 60 43 CA A6 66 43 CA BC 8B 43 CA 63 D7 41 06 66 66 41 1D 70 A4 41 80 66 66 44 9D 80 00 44 C6 C0 00 45 10 60 00 45 A0 50 00 44 BB 80 00 44 CA 80 00 45 37 C0 00 45 BC 70 00 44 F3 C0 00 45 10 60 00 45 6A 60 00 45 F7 80 00 3F 23 12 6F 3F 31 68 73 3F 1C ED 91 3F 25 E3 54 42 48 46 81
write:30 03 07 CF 00 78 70 82
30 03 F0
48totalsize 240
44 26 9C CD 41 C1 33 33 43 C0 99 9A 00 00 00 00 43 80 79 9A 00 00 00 00 00 00 00 00 00 00 00 00 00 00 00 00 00 00 00 00 44 30 E3 33 41 FA CC CD 43 C6 39 9A 00 00 00 00 43 8B E0 00 40 10 00 00 00 00 00 00 3F 86 66 66 00 00 00 00 3F 86 66 66 44 9C F4 CD 42 90 4C CD 44 39 96 66 00 00 00 00 43 DC 93 33 00 00 00 00 00 00 00 00 00 00 00 00 00 00 00 00 00 00 00 00 44 A1 3B 33 42 B2 33 33 44 37 43 33 00 00 00 00 43 E9 C6 66 40 E1 99 9A 00 00 00 00 40 A3 33 33 00 00 00 00 3F F9 99 9A 43 56 59 9A 40 10 00 00 43 15 B3 33 00 00 00 00 42 79 00 00 00 00 00 00 00 00 00 00 00 00 00 00 00 00 00 00 00 00 00 00 43 24 66 66 40 53 33 33 42 DC CC CD 00 00 00 00 42 4A CC CD 40 8B 33 33 00 00 00 00 40 49 99 9A 00 00 00 00 3F 86 47 EC
write:30 03 01 0F 00 08 71 D2
30 03 10
4800 01 17 00 00 00 00 00 00 00 00 00 00 00 00 00
43 69 A9 BA
233.663
43 6A 69 37
234.411
43 69 E5 60
233.896
43 CA A6 66
405.3
43 CA BC 8B
405.473
43 CA 63 D7
404.78
41 06 66 66
8.4
41 1D 70 A4
9.84
41 80 66 66
16.05
44 9D 80 00
1260
44 C6 C0 00
1590
45 10 60 00
2310
45 A0 50 00
5130
44 BB 80 00
1500
44 CA 80 00
1620
45 37 C0 00
2940
45 BC 70 00
6030
44 F3 C0 00
1950
45 10 60 00
2310
45 6A 60 00
3750
45 F7 80 00
7920
3F 23 12 6F
0.637
3F 31 68 73
0.693
3F 1C ED 91
0.613
3F 25 E3 54
0.648
42 48 46 81
50.06885
44 26 9C CD
666.45
41 C1 33 33
24.15
43 C0 99 9A
385.2
00 00 00 00
0
43 80 79 9A
256.95
00 00 00 00
0
00 00 00 00
0
00 00 00 00
0
00 00 00 00
0
00 00 00 00
0
44 30 E3 33
707.55
41 FA CC CD
31.35
43 C6 39 9A
396.45
00 00 00 00
0
43 8B E0 00
279.75
40 10 00 00
2.25
00 00 00 00
0
3F 86 66 66
1.05
00 00 00 00
0
3F 86 66 66
1.05
44 9C F4 CD
1255.65
42 90 4C CD
72.15
44 39 96 66
742.35
00 00 00 00
0
43 DC 93 33
441.15
00 00 00 00
0
00 00 00 00
0
00 00 00 00
0
00 00 00 00
0
00 00 00 00
0
44 A1 3B 33
1289.85
42 B2 33 33
89.1
44 37 43 33
733.05
00 00 00 00
0
43 E9 C6 66
467.55
40 E1 99 9A
7.05
00 00 00 00
0
40 A3 33 33
5.1
00 00 00 00
0
3F F9 99 9A
1.95
43 56 59 9A
214.35
40 10 00 00
2.25
43 15 B3 33
149.7
00 00 00 00
0
42 79 00 00
62.25
00 00 00 00
0
00 00 00 00
0
00 00 00 00
0
00 00 00 00
0
00 00 00 00
0
43 24 66 66
164.4
40 53 33 33
3.3
42 DC CC CD
110.4
00 00 00 00
0
42 4A CC CD
50.7
40 8B 33 33
4.35
00 00 00 00
0
40 49 99 9A
3.15
00 00 00 00
0
3F 86 47 EC
1.0490699
00 01 17 00
71424
00 00 00 00
0
00 00 00 00
0
00 00 00 00
0
233.663234.411233.896405.3405.473404.788.49.8416.051260159023105130150016202940603019502310375079200.6370.6930.6130.64850.06885666.4524.15385.20256.9500000707.5531.35396.450279.752.2501.0501.051255.6572.15742.350441.15000001289.8589.1733.050467.557.0505.101.95214.352.25149.7062.2500000164.43.3110.4050.74.3503.1501.0490699482017112412162471.424000insert into tbl_power_info_v2(P_A_DIANYA,P_B_DIANYA,P_C_DIANYA,P_UAB_XIANDIANYA,P_UBC_XIANDIANYA,P_UCA_XIANDIANYA,P_A_DIANLIU,P_B_DIANLIU,P_C_DIANLIU,P_A_YGGL,P_B_YGGL,P_C_YGGL,P_HXYGGL,P_A_WGGL,P_B_WGGL,P_C_WGGL,P_HXWGGL,P_A_SZGL,P_B_SZGL,P_C_SZGL,P_HXSZGL,P_A_GLYS,P_B_GLYS,P_C_GLYS,P_HXGLYS,P_DWPL,P_BY_KwhZ,P_BY_KwhJ,P_BY_KwhF,P_BY_KwhP,P_BY_KwhG,P_BY_HKwhZ,P_BY_HKwhJ,P_BY_HKwhF,P_BY_HKwhP,P_BY_HKwhG, P_BY_KvarhZ,P_BY_KvarhJ,P_BY_KvarhF,P_BY_KvarhP,P_BY_KvarhG, P_BY_HKvarhZ,P_BY_HKvarhJ,P_BY_HKvarhF,P_BY_HKvarhP,P_BY_HKvarhG, P_SY_KwhZ,P_SY_KwhJ,P_SY_KwhF,P_SY_KwhP,P_SY_KwhG, P_SY_HKwhZ,P_SY_HKwhJ,P_SY_HKwhF,P_SY_HKwhP,P_SY_HKwhG, P_SY_KvarhZ,P_SY_KvarhJ,P_SY_KvarhF,P_SY_KvarhP,P_SY_KvarhG, P_SY_HKvarhZ,P_SY_HKvarhJ,P_SY_HKvarhF,P_SY_HKvarhP,P_SY_HKvarhG, P_SSY_KwhZ,P_SSY_KwhJ,P_SSY_KwhF,P_SSY_KwhP,P_SSY_KwhG, P_SSY_HKwhZ,P_SSY_HKwhJ,P_SSY_HKwhF,P_SSY_HKwhP,P_SSY_HKwhG, P_SSY_KvarhZ,P_SSY_KvarhJ,P_SSY_KvarhF,P_SSY_KvarhP,P_SSY_KvarhG, P_SSY_HKvarhZ,P_SSY_HKvarhJ,P_SSY_HKvarhF,P_SSY_HKvarhP,P_SSY_HKvarhG,P_CODE,P_TIME,P_ZXYGDN,P_FXYGDN,P_ZXWGDN,P_FXWGDN)values(233.663,234.411,233.896,405.3,405.473,404.78,8.4,9.84,16.05,1260,1590,2310,5130,1500,1620,2940,6030,1950,2310,3750,7920,0.637,0.693,0.613,0.648,50.06885,666.45,24.15,385.2,0,256.95,0,0,0,0,0,707.55,31.35,396.45,0,279.75,2.25,0,1.05,0,1.05,1255.65,72.15,742.35,0,441.15,0,0,0,0,0,1289.85,89.1,733.05,0,467.55,7.05,0,5.1,0,1.95,214.35,2.25,149.7,0,62.25,0,0,0,0,0,164.4,3.3,110.4,0,50.7,4.35,0,3.15,0,1.0490699,48,20171124121624,71.424,0,0,0)
写入成功读取完毕一个
DD 00 00
heart:DD 00 00 00 00 00 01 1A 88 00 00 89 89
write:31 03 00 38 00 34 C0 20
31 03 68
4943 69 80 C5 43 6A 32 B0 43 69 C2 D1 43 CA 79 FC 43 CA 90 21 43 CA 4D B2 00 00 00 00 00 00 00 00 00 00 00 00 00 00 00 00 00 00 00 00 00 00 00 00 00 00 00 00 00 00 00 00 00 00 00 00 00 00 00 00 00 00 00 00 00 00 00 00 00 00 00 00 00 00 00 00 00 00 00 00 00 00 00 00 00 00 00 00 00 00 00 00 00 00 00 00 42 48 26 8E
write:31 03 07 CF 00 78 71 53
31 03 F0
49totalsize 240
42 16 66 66 41 73 33 33 41 8B 33 33 00 00 00 00 40 A0 00 00 00 00 00 00 00 00 00 00 00 00 00 00 00 00 00 00 00 00 00 00 42 10 CC CD 41 A4 CC CD 41 76 66 66 00 00 00 00 00 00 00 00 3F B3 33 33 00 00 00 00 3F 80 00 00 00 00 00 00 3E CC CC CD 43 88 CC CD 42 1E 66 66 43 04 00 00 00 00 00 00 42 CB 99 9A 00 00 00 00 00 00 00 00 00 00 00 00 00 00 00 00 00 00 00 00 43 B2 33 33 42 68 CC CD 43 1E 33 33 00 00 00 00 43 0B 99 9A 40 0C CC CD 00 00 00 00 3F CC CC CD 00 00 00 00 3F 19 99 9A 42 9A CC CD 42 73 33 33 41 7C CC CD 00 00 00 00 3E CC CC CD 00 00 00 00 00 00 00 00 00 00 00 00 00 00 00 00 00 00 00 00 42 E3 33 33 42 B6 CC CD 41 B0 00 00 00 00 00 00 00 00 00 00 00 00 00 00 00 00 00 00 00 00 00 00 00 00 00 00 00 00 ED D7
write:31 03 01 0F 00 08 70 03
31 03 10
4900 00 30 C1 00 00 00 00 00 00 41 22 00 00 A7 D4
43 69 80 C5
233.503
43 6A 32 B0
234.198
43 69 C2 D1
233.761
43 CA 79 FC
404.953
43 CA 90 21
405.126
43 CA 4D B2
404.607
00 00 00 00
0
00 00 00 00
0
00 00 00 00
0
00 00 00 00
0
00 00 00 00
0
00 00 00 00
0
00 00 00 00
0
00 00 00 00
0
00 00 00 00
0
00 00 00 00
0
00 00 00 00
0
00 00 00 00
0
00 00 00 00
0
00 00 00 00
0
00 00 00 00
0
00 00 00 00
0
00 00 00 00
0
00 00 00 00
0
00 00 00 00
0
42 48 26 8E
50.03765
42 16 66 66
37.6
41 73 33 33
15.2
41 8B 33 33
17.4
00 00 00 00
0
40 A0 00 00
5
00 00 00 00
0
00 00 00 00
0
00 00 00 00
0
00 00 00 00
0
00 00 00 00
0
42 10 CC CD
36.2
41 A4 CC CD
20.6
41 76 66 66
15.4
00 00 00 00
0
00 00 00 00
0
3F B3 33 33
1.4
00 00 00 00
0
3F 80 00 00
1
00 00 00 00
0
3E CC CC CD
0.4
43 88 CC CD
273.6
42 1E 66 66
39.6
43 04 00 00
132
00 00 00 00
0
42 CB 99 9A
101.8
00 00 00 00
0
00 00 00 00
0
00 00 00 00
0
00 00 00 00
0
00 00 00 00
0
43 B2 33 33
356.4
42 68 CC CD
58.2
43 1E 33 33
158.2
00 00 00 00
0
43 0B 99 9A
139.6
40 0C CC CD
2.2
00 00 00 00
0
3F CC CC CD
1.6
00 00 00 00
0
3F 19 99 9A
0.6
42 9A CC CD
77.4
42 73 33 33
60.8
41 7C CC CD
15.8
00 00 00 00
0
3E CC CC CD
0.4
00 00 00 00
0
00 00 00 00
0
00 00 00 00
0
00 00 00 00
0
00 00 00 00
0
42 E3 33 33
113.6
42 B6 CC CD
91.4
41 B0 00 00
22
00 00 00 00
0
00 00 00 00
0
00 00 00 00
0
00 00 00 00
0
00 00 00 00
0
00 00 00 00
0
00 00 ED D7
8.5321e-41
00 00 30 C1
12481
00 00 00 00
0
00 00 41 22
16674
00 00 A7 D4
42964
233.503234.198233.761404.953405.126404.607000000000000000000050.0376537.615.217.4050000036.220.615.4001.40100.4273.639.61320101.800000356.458.2158.20139.62.201.600.677.460.815.800.400000113.691.4220000008.5321e-41492017112412173412.481016.67442.964insert into tbl_power_info_v2(P_A_DIANYA,P_B_DIANYA,P_C_DIANYA,P_UAB_XIANDIANYA,P_UBC_XIANDIANYA,P_UCA_XIANDIANYA,P_A_DIANLIU,P_B_DIANLIU,P_C_DIANLIU,P_A_YGGL,P_B_YGGL,P_C_YGGL,P_HXYGGL,P_A_WGGL,P_B_WGGL,P_C_WGGL,P_HXWGGL,P_A_SZGL,P_B_SZGL,P_C_SZGL,P_HXSZGL,P_A_GLYS,P_B_GLYS,P_C_GLYS,P_HXGLYS,P_DWPL,P_BY_KwhZ,P_BY_KwhJ,P_BY_KwhF,P_BY_KwhP,P_BY_KwhG,P_BY_HKwhZ,P_BY_HKwhJ,P_BY_HKwhF,P_BY_HKwhP,P_BY_HKwhG, P_BY_KvarhZ,P_BY_KvarhJ,P_BY_KvarhF,P_BY_KvarhP,P_BY_KvarhG, P_BY_HKvarhZ,P_BY_HKvarhJ,P_BY_HKvarhF,P_BY_HKvarhP,P_BY_HKvarhG, P_SY_KwhZ,P_SY_KwhJ,P_SY_KwhF,P_SY_KwhP,P_SY_KwhG, P_SY_HKwhZ,P_SY_HKwhJ,P_SY_HKwhF,P_SY_HKwhP,P_SY_HKwhG, P_SY_KvarhZ,P_SY_KvarhJ,P_SY_KvarhF,P_SY_KvarhP,P_SY_KvarhG, P_SY_HKvarhZ,P_SY_HKvarhJ,P_SY_HKvarhF,P_SY_HKvarhP,P_SY_HKvarhG, P_SSY_KwhZ,P_SSY_KwhJ,P_SSY_KwhF,P_SSY_KwhP,P_SSY_KwhG, P_SSY_HKwhZ,P_SSY_HKwhJ,P_SSY_HKwhF,P_SSY_HKwhP,P_SSY_HKwhG, P_SSY_KvarhZ,P_SSY_KvarhJ,P_SSY_KvarhF,P_SSY_KvarhP,P_SSY_KvarhG, P_SSY_HKvarhZ,P_SSY_HKvarhJ,P_SSY_HKvarhF,P_SSY_HKvarhP,P_SSY_HKvarhG,P_CODE,P_TIME,P_ZXYGDN,P_FXYGDN,P_ZXWGDN,P_FXWGDN)values(233.503,234.198,233.761,404.953,405.126,404.607,0,0,0,0,0,0,0,0,0,0,0,0,0,0,0,0,0,0,0,50.03765,37.6,15.2,17.4,0,5,0,0,0,0,0,36.2,20.6,15.4,0,0,1.4,0,1,0,0.4,273.6,39.6,132,0,101.8,0,0,0,0,0,356.4,58.2,158.2,0,139.6,2.2,0,1.6,0,0.6,77.4,60.8,15.8,0,0.4,0,0,0,0,0,113.6,91.4,22,0,0,0,0,0,0,8.5321e-41,49,20171124121734,12.481,0,16.674,42.964)
写入成功读取完毕一个
write:32 03 00 38 00 34 C0 13
32 03 68
5043 8B 20 62 43 41 44 5A 43 75 C9 FC 43 CD 39 9A 43 BE 80 62 43 E3 00 21 41 7C CC CD 41 65 1E B8 40 E8 F5 C3 45 77 80 00 45 07 00 00 44 C3 00 00 45 F0 00 00 44 34 00 00 44 82 00 00 42 F0 00 00 44 CD 00 00 45 89 80 00 45 2C 80 00 44 E1 00 00 45 F6 40 00 3F 66 66 66 3F 48 B4 39 3F 5F 3B 64 3F 7A 5E 35 42 48 FB CC
write:32 03 07 CF 00 78 71 60
write:32 03 01 0F 00 08 70 30
32 03 F0
50totalsize 240
45 20 A3 33 44 14 B3 33 44 AE 59 9A 00 00 00 00 44 11 19 9A 00 00 00 00 00 00 00 00 00 00 00 00 00 00 00 00 00 00 00 00 00 00 00 00 00 00 00 00 00 00 00 00 00 00 00 00 00 00 00 00 44 27 40 00 43 00 CC CD 43 A6 66 66 00 00 00 00 43 4F 66 66 45 27 30 00 44 24 E6 66 44 AE 66 66 00 00 00 00 44 1B 00 00 00 00 00 00 00 00 00 00 00 00 00 00 00 00 00 00 00 00 00 00 00 00 00 00 00 00 00 00 00 00 00 00 00 00 00 00 00 00 00 00 44 51 8C CD 43 29 66 66 43 CE 19 9A 00 00 00 00 43 80 4C CD 45 1C 83 33 44 0D B3 33 44 9C 99 9A 00 00 00 00 44 2B 19 9A 00 00 00 00 00 00 00 00 00 00 00 00 00 00 00 00 00 00 00 00 42 23 33 33 41 23 33 33 41 E4 CC CD 00 00 00 00 3F E6 66 66 44 3B 4C CD 43 11 CC CD 43 AE 33 33 00 00 00 00 43 7E 1F 65
write:21 03 00 38 00 34 C2 B0
FF CF D7
heart:FF CF D7 7C 00 08 2B 78 00 00 00 00 00 00 F0 57 00 01 57 84
write:21 03 07 CF 00 78 73 C3
write:21 03 01 0F 00 08 72 93
write:22 03 00 38 00 34 C2 83
22 03 68
3443 68 C1 06 43 69 6D 0E 43 69 11 AA 43 C9 D3 B6 43 C9 F4 FE 43 C9 A7 6D 43 07 DE B8 43 0F 85 1F 43 06 CA 3D 46 EB 14 00 46 FA C8 00 46 E9 AC 00 47 B3 E2 00 46 07 F0 00 46 05 20 00 46 05 20 00 46 C9 18 00 46 F7 08 00 47 02 E6 00 46 F5 64 00 47 BA BD 00 3F 73 74 BC 3F 75 3F 7D 3F 73 B6 46 3F 76 87 2B 42 48 D9 7F
write:22 03 07 CF 00 78 73 F0
22 03 F0
34totalsize 240
46 7A A7 9A 45 81 42 00 46 1A 9F 33 00 00 00 00 44 FB 3B 33 00 00 00 00 00 00 00 00 00 00 00 00 00 00 00 00 00 00 00 00 46 37 6C 00 45 38 4D 9A 45 E3 3E CD 00 00 00 00 44 BD C4 CD 40 D3 33 33 00 00 00 00 3F 40 00 00 00 00 00 00 40 B6 66 66 46 A2 7B E6 45 AB C7 33 46 39 CA 9A 00 00 00 00 45 55 24 00 00 00 00 00 00 00 00 00 00 00 00 00 00 00 00 00 00 00 00 00 46 67 37 33 45 6B CC CD 46 06 3E 33 00 00 00 00 45 18 14 CD 41 28 00 00 3E E6 66 66 3F F9 99 9A 00 00 00 00 40 FE 66 66 46 28 7C CD 44 CD 5E 66 45 D8 06 00 00 00 00 00 45 0B 35 9A 00 00 00 00 00 00 00 00 00 00 00 00 00 00 00 00 00 00 00 00 46 14 0F 33 44 A5 86 66 45 BE D0 66 00 00 00 00 44 FF AC CD 40 53 33 33 00 00 00 00 3E 19 99 9A 00 00 00 00 40 40 74 DC
write:22 03 01 0F 00 08 72 A0
22 03 10
3400 1C 82 D4 00 00 00 00 00 16 36 6F 00 00 34 9A
43 68 C1 06
232.754
43 69 6D 0E
233.426
43 69 11 AA
233.069
43 C9 D3 B6
403.654
43 C9 F4 FE
403.914
43 C9 A7 6D
403.308
43 07 DE B8
135.87
43 0F 85 1F
143.52
43 06 CA 3D
134.79
46 EB 14 00
30090
46 FA C8 00
32100
46 E9 AC 00
29910
47 B3 E2 00
92100
46 07 F0 00
8700
46 05 20 00
8520
46 05 20 00
8520
46 C9 18 00
25740
46 F7 08 00
31620
47 02 E6 00
33510
46 F5 64 00
31410
47 BA BD 00
95610
3F 73 74 BC
0.951
3F 75 3F 7D
0.958
3F 73 B6 46
0.952
3F 76 87 2B
0.963
42 48 D9 7F
50.2124
46 7A A7 9A
16041.9
45 81 42 00
4136.25
46 1A 9F 33
9895.8
00 00 00 00
0
44 FB 3B 33
2009.85
00 00 00 00
0
00 00 00 00
0
00 00 00 00
0
00 00 00 00
0
00 00 00 00
0
46 37 6C 00
11739
45 38 4D 9A
2948.85
45 E3 3E CD
7271.85
00 00 00 00
0
44 BD C4 CD
1518.15
40 D3 33 33
6.6
00 00 00 00
0
3F 40 00 00
0.75
00 00 00 00
0
40 B6 66 66
5.7
46 A2 7B E6
20797.95
45 AB C7 33
5496.9
46 39 CA 9A
11890.65
00 00 00 00
0
45 55 24 00
3410.25
00 00 00 00
0
00 00 00 00
0
00 00 00 00
0
00 00 00 00
0
00 00 00 00
0
46 67 37 33
14797.8
45 6B CC CD
3772.8
46 06 3E 33
8591.55
00 00 00 00
0
45 18 14 CD
2433.3
41 28 00 00
10.5
3E E6 66 66
0.45
3F F9 99 9A
1.95
00 00 00 00
0
40 FE 66 66
7.95
46 28 7C CD
10783.2
44 CD 5E 66
1642.95
45 D8 06 00
6912.75
00 00 00 00
0
45 0B 35 9A
2227.35
00 00 00 00
0
00 00 00 00
0
00 00 00 00
0
00 00 00 00
0
00 00 00 00
0
46 14 0F 33
9475.8
44 A5 86 66
1324.2
45 BE D0 66
6106.05
00 00 00 00
0
44 FF AC CD
2045.4
40 53 33 33
3.3
00 00 00 00
0
3E 19 99 9A
0.15
00 00 00 00
0
40 40 74 DC
3.0071325
00 1C 82 D4
1868500
00 00 00 00
0
00 16 36 6F
1455727
00 00 34 9A
13466
232.754233.426233.069403.654403.914403.308135.87143.52134.793009032100299109210087008520852025740316203351031410956100.9510.9580.9520.96350.212416041.94136.259895.802009.8500000117392948.857271.8501518.156.600.7505.720797.955496.911890.6503410.250000014797.83772.88591.5502433.310.50.451.9507.9510783.21642.956912.7502227.35000009475.81324.26106.0502045.43.300.1503.007132534201711241220311868.501455.72713.466insert into tbl_power_info_v2(P_A_DIANYA,P_B_DIANYA,P_C_DIANYA,P_UAB_XIANDIANYA,P_UBC_XIANDIANYA,P_UCA_XIANDIANYA,P_A_DIANLIU,P_B_DIANLIU,P_C_DIANLIU,P_A_YGGL,P_B_YGGL,P_C_YGGL,P_HXYGGL,P_A_WGGL,P_B_WGGL,P_C_WGGL,P_HXWGGL,P_A_SZGL,P_B_SZGL,P_C_SZGL,P_HXSZGL,P_A_GLYS,P_B_GLYS,P_C_GLYS,P_HXGLYS,P_DWPL,P_BY_KwhZ,P_BY_KwhJ,P_BY_KwhF,P_BY_KwhP,P_BY_KwhG,P_BY_HKwhZ,P_BY_HKwhJ,P_BY_HKwhF,P_BY_HKwhP,P_BY_HKwhG, P_BY_KvarhZ,P_BY_KvarhJ,P_BY_KvarhF,P_BY_KvarhP,P_BY_KvarhG, P_BY_HKvarhZ,P_BY_HKvarhJ,P_BY_HKvarhF,P_BY_HKvarhP,P_BY_HKvarhG, P_SY_KwhZ,P_SY_KwhJ,P_SY_KwhF,P_SY_KwhP,P_SY_KwhG, P_SY_HKwhZ,P_SY_HKwhJ,P_SY_HKwhF,P_SY_HKwhP,P_SY_HKwhG, P_SY_KvarhZ,P_SY_KvarhJ,P_SY_KvarhF,P_SY_KvarhP,P_SY_KvarhG, P_SY_HKvarhZ,P_SY_HKvarhJ,P_SY_HKvarhF,P_SY_HKvarhP,P_SY_HKvarhG, P_SSY_KwhZ,P_SSY_KwhJ,P_SSY_KwhF,P_SSY_KwhP,P_SSY_KwhG, P_SSY_HKwhZ,P_SSY_HKwhJ,P_SSY_HKwhF,P_SSY_HKwhP,P_SSY_HKwhG, P_SSY_KvarhZ,P_SSY_KvarhJ,P_SSY_KvarhF,P_SSY_KvarhP,P_SSY_KvarhG, P_SSY_HKvarhZ,P_SSY_HKvarhJ,P_SSY_HKvarhF,P_SSY_HKvarhP,P_SSY_HKvarhG,P_CODE,P_TIME,P_ZXYGDN,P_FXYGDN,P_ZXWGDN,P_FXWGDN)values(232.754,233.426,233.069,403.654,403.914,403.308,135.87,143.52,134.79,30090,32100,29910,92100,8700,8520,8520,25740,31620,33510,31410,95610,0.951,0.958,0.952,0.963,50.2124,16041.9,4136.25,9895.8,0,2009.85,0,0,0,0,0,11739,2948.85,7271.85,0,1518.15,6.6,0,0.75,0,5.7,20797.95,5496.9,11890.65,0,3410.25,0,0,0,0,0,14797.8,3772.8,8591.55,0,2433.3,10.5,0.45,1.95,0,7.95,10783.2,1642.95,6912.75,0,2227.35,0,0,0,0,0,9475.8,1324.2,6106.05,0,2045.4,3.3,0,0.15,0,3.0071325,34,20171124122031,1868.5,0,1455.727,13.466)
写入成功读取完毕一个
write:23 03 00 38 00 34 C3 52
write:23 03 07 CF 00 78 72 21
write:23 03 01 0F 00 08 73 71
write:24 03 00 38 00 34 C2 E5
24 03 68
3643 69 48 31 43 69 C3 12 43 69 3C 6A 43 CA 2C 6A 43 CA 2C 6A 43 C9 F4 FE 41 81 5C 29 41 86 66 66 41 62 14 7B 44 FF 00 00 45 19 C0 00 44 B4 00 00 45 B9 A0 00 45 35 E0 00 45 37 C0 00 45 35 E0 00 46 09 58 00 45 6C 40 00 45 75 A0 00 45 4E 40 00 46 25 F0 00 3F 0B 02 0C 3F 20 41 89 3E E0 C4 9C 3F 0F 9D B2 42 48 5F 91
write:24 03 07 CF 00 78 73 96
write:24 03 01 0F 00 08 72 C6
24 03 F0
36totalsize 240
44 C7 71 9A 42 7D CC CD 44 9D E4 CD 00 00 00 00 43 86 79 9A 00 00 00 00 00 00 00 00 00 00 00 00 00 00 00 00 00 00 00 00 44 C5 40 00 41 97 33 33 44 A9 C3 33 00 00 00 00 43 49 00 00 40 23 33 33 3E 99 99 9A 3E E6 66 66 00 00 00 00 3F D3 33 33 44 FE DE 66 42 D6 CC CD 44 C8 0B 33 00 00 00 00 43 A5 99 9A 00 00 00 00 00 00 00 00 00 00 00 00 00 00 00 00 00 00 00 00 44 FD F8 00 42 43 00 00 44 D9 B0 00 00 00 00 00 43 71 80 00 40 A3 33 33 3E 99 99 9A 3F D3 33 33 00 00 00 00 40 40 00 00 44 FE E3 33 42 4A 33 33 44 CD C3 33 00 00 00 00 43 AB 26 66 00 00 00 00 00 00 00 00 00 00 00 00 00 00 00 00 00 00 00 00 45 00 B3 33 41 23 33 33 44 E2 4B 33 00 00 00 00 43 6E 80 00 40 A8 00 00 3F 66 66 66 40 06 66 66 00 00 00 00 40 10 6A 6E
24 03 10
3600 08 F6 4F 00 00 00 00 00 08 CC E9 00 00 9D A3
43 69 48 31
233.282
43 69 C3 12
233.762
43 69 3C 6A
233.236
43 CA 2C 6A
404.347
43 CA 2C 6A
404.347
43 C9 F4 FE
403.914
41 81 5C 29
16.17
41 86 66 66
16.8
41 62 14 7B
14.13
44 FF 00 00
2040
45 19 C0 00
2460
44 B4 00 00
1440
45 B9 A0 00
5940
45 35 E0 00
2910
45 37 C0 00
2940
45 35 E0 00
2910
46 09 58 00
8790
45 6C 40 00
3780
45 75 A0 00
3930
45 4E 40 00
3300
46 25 F0 00
10620
3F 0B 02 0C
0.543
3F 20 41 89
0.626
3E E0 C4 9C
0.439
3F 0F 9D B2
0.561
42 48 5F 91
50.093327
44 C7 71 9A
1595.55
42 7D CC CD
63.45
44 9D E4 CD
1263.15
00 00 00 00
0
43 86 79 9A
268.95
00 00 00 00
0
00 00 00 00
0
00 00 00 00
0
00 00 00 00
0
00 00 00 00
0
44 C5 40 00
1578
41 97 33 33
18.9
44 A9 C3 33
1358.1
00 00 00 00
0
43 49 00 00
201
40 23 33 33
2.55
3E 99 99 9A
0.3
3E E6 66 66
0.45
00 00 00 00
0
3F D3 33 33
1.65
44 FE DE 66
2038.95
42 D6 CC CD
107.4
44 C8 0B 33
1600.35
00 00 00 00
0
43 A5 99 9A
331.2
00 00 00 00
0
00 00 00 00
0
00 00 00 00
0
00 00 00 00
0
00 00 00 00
0
44 FD F8 00
2031.75
42 43 00 00
48.75
44 D9 B0 00
1741.5
00 00 00 00
0
43 71 80 00
241.5
40 A3 33 33
5.1
3E 99 99 9A
0.3
3F D3 33 33
1.65
00 00 00 00
0
40 40 00 00
3
44 FE E3 33
2039.1
42 4A 33 33
50.55
44 CD C3 33
1646.1
00 00 00 00
0
43 AB 26 66
342.3
00 00 00 00
0
00 00 00 00
0
00 00 00 00
0
00 00 00 00
0
00 00 00 00
0
45 00 B3 33
2059.2
41 23 33 33
10.2
44 E2 4B 33
1810.35
00 00 00 00
0
43 6E 80 00
238.5
40 A8 00 00
5.25
3F 66 66 66
0.9
40 06 66 66
2.1
00 00 00 00
0
40 10 6A 6E
2.256496
00 08 F6 4F
587343
00 00 00 00
0
00 08 CC E9
576745
00 00 9D A3
40355
233.282233.762233.236404.347404.347403.91416.1716.814.1320402460144059402910294029108790378039303300106200.5430.6260.4390.56150.0933271595.5563.451263.150268.9500000157818.91358.102012.550.30.4501.652038.95107.41600.350331.2000002031.7548.751741.50241.55.10.31.65032039.150.551646.10342.3000002059.210.21810.350238.55.250.92.102.2564963620171124122238587.3430576.74540.355insert into tbl_power_info_v2(P_A_DIANYA,P_B_DIANYA,P_C_DIANYA,P_UAB_XIANDIANYA,P_UBC_XIANDIANYA,P_UCA_XIANDIANYA,P_A_DIANLIU,P_B_DIANLIU,P_C_DIANLIU,P_A_YGGL,P_B_YGGL,P_C_YGGL,P_HXYGGL,P_A_WGGL,P_B_WGGL,P_C_WGGL,P_HXWGGL,P_A_SZGL,P_B_SZGL,P_C_SZGL,P_HXSZGL,P_A_GLYS,P_B_GLYS,P_C_GLYS,P_HXGLYS,P_DWPL,P_BY_KwhZ,P_BY_KwhJ,P_BY_KwhF,P_BY_KwhP,P_BY_KwhG,P_BY_HKwhZ,P_BY_HKwhJ,P_BY_HKwhF,P_BY_HKwhP,P_BY_HKwhG, P_BY_KvarhZ,P_BY_KvarhJ,P_BY_KvarhF,P_BY_KvarhP,P_BY_KvarhG, P_BY_HKvarhZ,P_BY_HKvarhJ,P_BY_HKvarhF,P_BY_HKvarhP,P_BY_HKvarhG, P_SY_KwhZ,P_SY_KwhJ,P_SY_KwhF,P_SY_KwhP,P_SY_KwhG, P_SY_HKwhZ,P_SY_HKwhJ,P_SY_HKwhF,P_SY_HKwhP,P_SY_HKwhG, P_SY_KvarhZ,P_SY_KvarhJ,P_SY_KvarhF,P_SY_KvarhP,P_SY_KvarhG, P_SY_HKvarhZ,P_SY_HKvarhJ,P_SY_HKvarhF,P_SY_HKvarhP,P_SY_HKvarhG, P_SSY_KwhZ,P_SSY_KwhJ,P_SSY_KwhF,P_SSY_KwhP,P_SSY_KwhG, P_SSY_HKwhZ,P_SSY_HKwhJ,P_SSY_HKwhF,P_SSY_HKwhP,P_SSY_HKwhG, P_SSY_KvarhZ,P_SSY_KvarhJ,P_SSY_KvarhF,P_SSY_KvarhP,P_SSY_KvarhG, P_SSY_HKvarhZ,P_SSY_HKvarhJ,P_SSY_HKvarhF,P_SSY_HKvarhP,P_SSY_HKvarhG,P_CODE,P_TIME,P_ZXYGDN,P_FXYGDN,P_ZXWGDN,P_FXWGDN)values(233.282,233.762,233.236,404.347,404.347,403.914,16.17,16.8,14.13,2040,2460,1440,5940,2910,2940,2910,8790,3780,3930,3300,10620,0.543,0.626,0.439,0.561,50.093327,1595.55,63.45,1263.15,0,268.95,0,0,0,0,0,1578,18.9,1358.1,0,201,2.55,0.3,0.45,0,1.65,2038.95,107.4,1600.35,0,331.2,0,0,0,0,0,2031.75,48.75,1741.5,0,241.5,5.1,0.3,1.65,0,3,2039.1,50.55,1646.1,0,342.3,0,0,0,0,0,2059.2,10.2,1810.35,0,238.5,5.25,0.9,2.1,0,2.256496,36,20171124122238,587.343,0,576.745,40.355)
写入成功读取完毕一个
write:25 03 00 38 00 34 C3 34
25 03 68
3743 68 EF 1B 43 69 4C 08 43 68 DB 64 43 C9 D3 B6 43 C9 C8 93 43 C9 A7 6D 41 EC E1 48 41 F0 F5 C3 42 0A B8 52 45 C3 00 00 45 C6 C0 00 45 DE 30 00 46 99 FC 00 45 26 E0 00 45 30 40 00 45 62 E0 00 46 0E 80 00 45 D7 A0 00 45 DB 60 00 45 FC 30 00 46 A9 B0 00 3F 68 31 27 3F 67 2B 02 3F 61 89 37 3F 68 72 B0 42 48 9C A6
write:25 03 07 CF 00 78 72 47
25 03 F0
37totalsize 240
45 58 F4 CD 43 D9 0C CD 45 15 4C 00 00 00 00 00 44 22 09 9A 00 00 00 00 00 00 00 00 00 00 00 00 00 00 00 00 00 00 00 00 44 AE 5B 33 43 5B 4C CD 44 73 D3 33 00 00 00 00 43 48 19 9A 3F F9 99 9A 3E 99 99 9A 3E 19 99 9A 00 00 00 00 3F AC CC CD 45 5E 62 66 43 A5 E6 66 45 25 D8 00 00 00 00 00 44 0F 2C CD 00 00 00 00 00 00 00 00 00 00 00 00 00 00 00 00 00 00 00 00 45 0E 46 66 43 77 F3 33 44 D2 51 9A 00 00 00 00 43 AC E0 00 40 10 00 00 3E 99 99 9A 3F 19 99 9A 00 00 00 00 3F 99 99 9A 45 22 37 33 43 83 EC CD 44 F1 46 66 00 00 00 00 43 C8 A0 00 00 00 00 00 00 00 00 00 00 00 00 00 00 00 00 00 00 00 00 00 44 DC 50 00 43 48 19 9A 44 A5 5B 33 00 00 00 00 43 6F 66 66 40 E1 99 9A 40 66 66 66 40 10 00 00 00 00 00 00 3F 99 E4 0F
write:25 03 01 0F 00 08 73 17
write:26 03 00 38 00 34 C3 07
write:26 03 07 CF 00 78 72 74
write:26 03 01 0F 00 08 73 24
34 30 32
heart:34 30 32 37 32 32 35 36 30 34 38 32
26 03 68
3843 69 36 87 43 69 BB A6 43 69 0E 14 43 CA 2C 6A 43 CA 16 46 43 C9 DE D9 41 EC 66 66 41 AB 1E B8 41 BE 51 EC 45 52 00 00 45 1D 80 00 45 75 A0 00 46 19 C0 00 45 B3 10 00 45 81 60 00 45 68 80 00 46 54 58 00 45 D7 A0 00 45 9C 90 00 45 AD 70 00 46 83 04 00 3E FA 5E 35 3F 01 89 37 3F 25 01 10 E0 80 83 80 02 66 30 8E
68 2F 58
heart:68 2F 58 01 F0 08 80 13 F0 00 00 03 A4 9C 00 00 CD 49
EF FD FF
heart:EF FD FF EF BA 45 3F 40 00 42 22 99 9A 45 0D 30 00 00 00 00 00 44 3E 0C CD 40 5C CC CD 00 00 00 00 40 2C CC CD 00 00 00 00 3F 19 99 9A 45 32 E0 00 40 40 00 00 45 08 98 00 00 00 00 00 44 28 4C CD 42 8B CC CD 41 8E CC CD 41 74 CC CD 00 00 00 00 42 12 66 66 44 90 73 33 42 5B 00 00 44 55 13 33 00 00 00 00 43 78 66 66 3F AC CC CD 00 00 00 00 3F 86 66 66 00 00 00 00 3E 19 99 9A 44 89 53 33 42 2F CC CD 44 50 FC CD 00 00 00 00 43 5A 8C CD 41 C6 00 00 40 C9 99 9A 40 A8 00 00 00 00 00 00 41 50 CC CD 42 AF 33 33 40 19 99 9A 42 77 CC CD 00 00 00 00 41 B8 CC CD 00 00 00 00 00 00 00 00 00 00 00 00 00 00 00 00 00 00 00 00 42 1D 33 33 3F C0 00 00 41 E7 99 9A 00 00 00 00 41 0B 33 33 41 01 99 9A 3E 99 99 9A 40 B6 66 66 00 00 00 00 3F F9 7D 30
write:27 03 00 38 00 34 C2 D6
27 03 68
3943 69 34 39 43 69 C3 D7 43 69 78 52 43 CA 2C 6A 43 CA 42 8F 43 CA 0B 23 00 00 00 00 00 00 00 00 41 73 5C 29 00 00 00 00 00 00 00 00 45 59 80 00 45 5B 60 00 00 00 00 00 00 00 00 00 42 F0 00 00 43 34 00 00 00 00 00 00 00 00 00 00 45 5D 40 00 45 5B 60 00 00 00 00 00 00 00 00 00 3F 7B 64 5A 3F 7F BE 77 42 48 21 FC
write:27 03 07 CF 00 78 73 A5
27 03 F0
39totalsize 240
43 87 26 66 41 14 CC CD 43 3E A6 66 00 00 00 00 42 8C 19 9A 00 00 00 00 00 00 00 00 00 00 00 00 00 00 00 00 00 00 00 00 42 F8 B3 33 00 00 00 00 42 C3 4C CD 00 00 00 00 41 D4 66 66 40 B1 99 9A 00 00 00 00 40 8B 33 33 00 00 00 00 3F 86 66 66 43 0C 66 66 41 38 CC CD 42 A5 E6 66 00 00 00 00 42 37 99 9A 00 00 00 00 00 00 00 00 00 00 00 00 00 00 00 00 00 00 00 00 3F AC CC CD 00 00 00 00 3F 19 99 9A 00 00 00 00 3F 19 99 9A 41 08 CC CD 00 00 00 00 40 D8 00 00 00 00 00 00 3F E6 66 66 43 68 59 9A 41 38 CC CD 43 1A CC CD 00 00 00 00 42 83 B3 33 00 00 00 00 00 00 00 00 00 00 00 00 00 00 00 00 00 00 00 00 41 8A 00 00 00 00 00 00 41 77 33 33 00 00 00 00 3F D3 33 33 41 88 CC CD 3E 19 99 9A 41 53 33 33 00 00 00 00 40 66 D9 18
write:27 03 01 0F 00 08 72 F5
27 03 10
3900 01 3D 2B 00 00 00 00 00 00 39 8B 00 00 BA 56
43 69 34 39
233.204
43 69 C3 D7
233.765
43 69 78 52
233.47
43 CA 2C 6A
404.347
43 CA 42 8F
404.52
43 CA 0B 23
404.087
00 00 00 00
0
00 00 00 00
0
41 73 5C 29
15.21
00 00 00 00
0
00 00 00 00
0
45 59 80 00
3480
45 5B 60 00
3510
00 00 00 00
0
00 00 00 00
0
42 F0 00 00
120
43 34 00 00
180
00 00 00 00
0
00 00 00 00
0
45 5D 40 00
3540
45 5B 60 00
3510
00 00 00 00
0
00 00 00 00
0
3F 7B 64 5A
0.982
3F 7F BE 77
0.999
42 48 21 FC
50.033188
43 87 26 66
270.3
41 14 CC CD
9.3
43 3E A6 66
190.65
00 00 00 00
0
42 8C 19 9A
70.05
00 00 00 00
0
00 00 00 00
0
00 00 00 00
0
00 00 00 00
0
00 00 00 00
0
42 F8 B3 33
124.35
00 00 00 00
0
42 C3 4C CD
97.65
00 00 00 00
0
41 D4 66 66
26.55
40 B1 99 9A
5.55
00 00 00 00
0
40 8B 33 33
4.35
00 00 00 00
0
3F 86 66 66
1.05
43 0C 66 66
140.4
41 38 CC CD
11.55
42 A5 E6 66
82.95
00 00 00 00
0
42 37 99 9A
45.9
00 00 00 00
0
00 00 00 00
0
00 00 00 00
0
00 00 00 00
0
00 00 00 00
0
3F AC CC CD
1.35
00 00 00 00
0
3F 19 99 9A
0.6
00 00 00 00
0
3F 19 99 9A
0.6
41 08 CC CD
8.55
00 00 00 00
0
40 D8 00 00
6.75
00 00 00 00
0
3F E6 66 66
1.8
43 68 59 9A
232.35
41 38 CC CD
11.55
43 1A CC CD
154.8
00 00 00 00
0
42 83 B3 33
65.85
00 00 00 00
0
00 00 00 00
0
00 00 00 00
0
00 00 00 00
0
00 00 00 00
0
41 8A 00 00
17.25
00 00 00 00
0
41 77 33 33
15.45
00 00 00 00
0
3F D3 33 33
1.65
41 88 CC CD
17.1
3E 19 99 9A
0.15
41 53 33 33
13.2
00 00 00 00
0
40 66 D9 18
3.6070004
00 01 3D 2B
81195
00 00 00 00
0
00 00 39 8B
14731
00 00 BA 56
47702
233.204233.765233.47404.347404.52404.0870015.210034803510001201800035403510000.9820.99950.033188270.39.3190.65070.0500000124.35097.65026.555.5504.3501.05140.411.5582.95045.9000001.3500.600.68.5506.7501.8232.3511.55154.8065.850000017.25015.4501.6517.10.1513.203.6070004392017112412252881.195014.73147.702insert into tbl_power_info_v2(P_A_DIANYA,P_B_DIANYA,P_C_DIANYA,P_UAB_XIANDIANYA,P_UBC_XIANDIANYA,P_UCA_XIANDIANYA,P_A_DIANLIU,P_B_DIANLIU,P_C_DIANLIU,P_A_YGGL,P_B_YGGL,P_C_YGGL,P_HXYGGL,P_A_WGGL,P_B_WGGL,P_C_WGGL,P_HXWGGL,P_A_SZGL,P_B_SZGL,P_C_SZGL,P_HXSZGL,P_A_GLYS,P_B_GLYS,P_C_GLYS,P_HXGLYS,P_DWPL,P_BY_KwhZ,P_BY_KwhJ,P_BY_KwhF,P_BY_KwhP,P_BY_KwhG,P_BY_HKwhZ,P_BY_HKwhJ,P_BY_HKwhF,P_BY_HKwhP,P_BY_HKwhG, P_BY_KvarhZ,P_BY_KvarhJ,P_BY_KvarhF,P_BY_KvarhP,P_BY_KvarhG, P_BY_HKvarhZ,P_BY_HKvarhJ,P_BY_HKvarhF,P_BY_HKvarhP,P_BY_HKvarhG, P_SY_KwhZ,P_SY_KwhJ,P_SY_KwhF,P_SY_KwhP,P_SY_KwhG, P_SY_HKwhZ,P_SY_HKwhJ,P_SY_HKwhF,P_SY_HKwhP,P_SY_HKwhG, P_SY_KvarhZ,P_SY_KvarhJ,P_SY_KvarhF,P_SY_KvarhP,P_SY_KvarhG, P_SY_HKvarhZ,P_SY_HKvarhJ,P_SY_HKvarhF,P_SY_HKvarhP,P_SY_HKvarhG, P_SSY_KwhZ,P_SSY_KwhJ,P_SSY_KwhF,P_SSY_KwhP,P_SSY_KwhG, P_SSY_HKwhZ,P_SSY_HKwhJ,P_SSY_HKwhF,P_SSY_HKwhP,P_SSY_HKwhG, P_SSY_KvarhZ,P_SSY_KvarhJ,P_SSY_KvarhF,P_SSY_KvarhP,P_SSY_KvarhG, P_SSY_HKvarhZ,P_SSY_HKvarhJ,P_SSY_HKvarhF,P_SSY_HKvarhP,P_SSY_HKvarhG,P_CODE,P_TIME,P_ZXYGDN,P_FXYGDN,P_ZXWGDN,P_FXWGDN)values(233.204,233.765,233.47,404.347,404.52,404.087,0,0,15.21,0,0,3480,3510,0,0,120,180,0,0,3540,3510,0,0,0.982,0.999,50.033188,270.3,9.3,190.65,0,70.05,0,0,0,0,0,124.35,0,97.65,0,26.55,5.55,0,4.35,0,1.05,140.4,11.55,82.95,0,45.9,0,0,0,0,0,1.35,0,0.6,0,0.6,8.55,0,6.75,0,1.8,232.35,11.55,154.8,0,65.85,0,0,0,0,0,17.25,0,15.45,0,1.65,17.1,0.15,13.2,0,3.6070004,39,20171124122528,81.195,0,14.731,47.702)
写入成功读取完毕一个
write:28 03 00 38 00 34 C2 29
28 03 68
4043 69 6E 56 43 69 DA 5E 43 69 61 06 43 CA 4D B2 43 CA 42 8F 43 CA 16 46 00 00 00 00 00 00 00 00 00 00 00 00 00 00 00 00 00 00 00 00 00 00 00 00 42 70 00 00 00 00 00 00 00 00 00 00 00 00 00 00 00 00 00 00 00 00 00 00 00 00 00 00 42 70 00 00 42 70 00 00 00 00 00 00 00 00 00 00 3E D2 6E 98 3F 6D 0E 56 42 47 23 F1
write:28 03 07 CF 00 78 73 5A
28 03 F0
40totalsize 240
43 1F 4C CD 41 06 66 66 42 E6 66 66 00 00 00 00 42 0E 33 33 00 00 00 00 00 00 00 00 00 00 00 00 00 00 00 00 00 00 00 00 42 B2 CC CD 40 A3 33 33 42 77 CC CD 00 00 00 00 41 B1 99 9A 3F 19 99 9A 00 00 00 00 3E E6 66 66 00 00 00 00 00 00 00 00 43 2B C0 00 41 20 CC CD 42 D2 4C CD 00 00 00 00 42 61 99 9A 00 00 00 00 00 00 00 00 00 00 00 00 00 00 00 00 00 00 00 00 42 58 99 9A 40 E1 99 9A 41 D4 66 66 00 00 00 00 41 A3 33 33 3E 19 99 9A 00 00 00 00 3E 19 99 9A 00 00 00 00 00 00 00 00 44 49 69 9A 41 77 33 33 43 FD 59 9A 00 00 00 00 43 8D AC CD 00 00 00 00 00 00 00 00 00 00 00 00 00 00 00 00 00 00 00 00 43 67 73 33 41 1C 00 00 43 14 33 33 00 00 00 00 42 93 00 00 3E 19 99 9A 00 00 00 00 00 00 00 00 00 00 00 00 00 00 91 19
write:28 03 01 0F 00 08 72 0A
28 03 10
4000 01 56 89 00 00 00 00 00 00 69 50 00 00 E0 99
43 69 6E 56
233.431
43 69 DA 5E
233.853
43 69 61 06
233.379
43 CA 4D B2
404.607
43 CA 42 8F
404.52
43 CA 16 46
404.174
00 00 00 00
0
00 00 00 00
0
00 00 00 00
0
00 00 00 00
0
00 00 00 00
0
00 00 00 00
0
42 70 00 00
60
00 00 00 00
0
00 00 00 00
0
00 00 00 00
0
00 00 00 00
0
00 00 00 00
0
00 00 00 00
0
42 70 00 00
60
42 70 00 00
60
00 00 00 00
0
00 00 00 00
0
3E D2 6E 98
0.411
3F 6D 0E 56
0.926
42 47 23 F1
49.7851
43 1F 4C CD
159.3
41 06 66 66
8.4
42 E6 66 66
115.2
00 00 00 00
0
42 0E 33 33
35.55
00 00 00 00
0
00 00 00 00
0
00 00 00 00
0
00 00 00 00
0
00 00 00 00
0
42 B2 CC CD
89.4
40 A3 33 33
5.1
42 77 CC CD
61.95
00 00 00 00
0
41 B1 99 9A
22.2
3F 19 99 9A
0.6
00 00 00 00
0
3E E6 66 66
0.45
00 00 00 00
0
00 00 00 00
0
43 2B C0 00
171.75
41 20 CC CD
10.05
42 D2 4C CD
105.15
00 00 00 00
0
42 61 99 9A
56.4
00 00 00 00
0
00 00 00 00
0
00 00 00 00
0
00 00 00 00
0
00 00 00 00
0
42 58 99 9A
54.15
40 E1 99 9A
7.05
41 D4 66 66
26.55
00 00 00 00
0
41 A3 33 33
20.4
3E 19 99 9A
0.15
00 00 00 00
0
3E 19 99 9A
0.15
00 00 00 00
0
00 00 00 00
0
44 49 69 9A
805.65
41 77 33 33
15.45
43 FD 59 9A
506.7
00 00 00 00
0
43 8D AC CD
283.35
00 00 00 00
0
00 00 00 00
0
00 00 00 00
0
00 00 00 00
0
00 00 00 00
0
43 67 73 33
231.45
41 1C 00 00
9.75
43 14 33 33
148.2
00 00 00 00
0
42 93 00 00
73.5
3E 19 99 9A
0.15
00 00 00 00
0
00 00 00 00
0
00 00 00 00
0
00 00 91 19
5.2051e-41
00 01 56 89
87689
00 00 00 00
0
00 00 69 50
26960
00 00 E0 99
57497
233.431233.853233.379404.607404.52404.174000000600000006060000.4110.92649.7851159.38.4115.2035.550000089.45.161.95022.20.600.4500171.7510.05105.15056.40000054.157.0526.55020.40.1500.1500805.6515.45506.70283.3500000231.459.75148.2073.50.150005.2051e-41402017112412262987.689026.9657.497insert into tbl_power_info_v2(P_A_DIANYA,P_B_DIANYA,P_C_DIANYA,P_UAB_XIANDIANYA,P_UBC_XIANDIANYA,P_UCA_XIANDIANYA,P_A_DIANLIU,P_B_DIANLIU,P_C_DIANLIU,P_A_YGGL,P_B_YGGL,P_C_YGGL,P_HXYGGL,P_A_WGGL,P_B_WGGL,P_C_WGGL,P_HXWGGL,P_A_SZGL,P_B_SZGL,P_C_SZGL,P_HXSZGL,P_A_GLYS,P_B_GLYS,P_C_GLYS,P_HXGLYS,P_DWPL,P_BY_KwhZ,P_BY_KwhJ,P_BY_KwhF,P_BY_KwhP,P_BY_KwhG,P_BY_HKwhZ,P_BY_HKwhJ,P_BY_HKwhF,P_BY_HKwhP,P_BY_HKwhG, P_BY_KvarhZ,P_BY_KvarhJ,P_BY_KvarhF,P_BY_KvarhP,P_BY_KvarhG, P_BY_HKvarhZ,P_BY_HKvarhJ,P_BY_HKvarhF,P_BY_HKvarhP,P_BY_HKvarhG, P_SY_KwhZ,P_SY_KwhJ,P_SY_KwhF,P_SY_KwhP,P_SY_KwhG, P_SY_HKwhZ,P_SY_HKwhJ,P_SY_HKwhF,P_SY_HKwhP,P_SY_HKwhG, P_SY_KvarhZ,P_SY_KvarhJ,P_SY_KvarhF,P_SY_KvarhP,P_SY_KvarhG, P_SY_HKvarhZ,P_SY_HKvarhJ,P_SY_HKvarhF,P_SY_HKvarhP,P_SY_HKvarhG, P_SSY_KwhZ,P_SSY_KwhJ,P_SSY_KwhF,P_SSY_KwhP,P_SSY_KwhG, P_SSY_HKwhZ,P_SSY_HKwhJ,P_SSY_HKwhF,P_SSY_HKwhP,P_SSY_HKwhG, P_SSY_KvarhZ,P_SSY_KvarhJ,P_SSY_KvarhF,P_SSY_KvarhP,P_SSY_KvarhG, P_SSY_HKvarhZ,P_SSY_HKvarhJ,P_SSY_HKvarhF,P_SSY_HKvarhP,P_SSY_HKvarhG,P_CODE,P_TIME,P_ZXYGDN,P_FXYGDN,P_ZXWGDN,P_FXWGDN)values(233.431,233.853,233.379,404.607,404.52,404.174,0,0,0,0,0,0,60,0,0,0,0,0,0,60,60,0,0,0.411,0.926,49.7851,159.3,8.4,115.2,0,35.55,0,0,0,0,0,89.4,5.1,61.95,0,22.2,0.6,0,0.45,0,0,171.75,10.05,105.15,0,56.4,0,0,0,0,0,54.15,7.05,26.55,0,20.4,0.15,0,0.15,0,0,805.65,15.45,506.7,0,283.35,0,0,0,0,0,231.45,9.75,148.2,0,73.5,0.15,0,0,0,5.2051e-41,40,20171124122629,87.689,0,26.96,57.497)
写入成功读取完毕一个
write:29 03 00 38 00 34 C3 F8
write:29 03 07 CF 00 78 72 8B
FB 7C FF
heart:FB 7C FF A3 47 68 B8 52 43 69 26 66 43 68 D4 7B 43 C9 B2 6F 43 C9 BD 91 43 C9 91 27 00 00 00 00 41 7B 85 1F 40 43 D7 0A 00 00 00 00 45 64 C0 00 43 F0 00 00 45 81 60 00 00 00 00 00 43 34 00 00 43 34 00 00 00 00 00 00 00 00 00 00 45 64 C0 00 44 34 00 00 45 81 60 00 00 00 00 00 3F 7F 3B 64 3F 23 12 6F 3F 80 00 00 42 47 B3 DD
write:29 03 01 0F 00 08 73 DB
29 03 10
4100 00 65 21 00 00 00 00 00 00 5B 36 00 00 5D 65
write:2A 03 00 38 00 34 C3 CB
2A 03 68
4243 68 E9 FC 43 69 31 AA 43 68 E5 1F 43 C9 C8 93 43 C9 BD 91 43 C9 A7 6D 40 A9 99 9A 40 F1 EB 85 41 87 D7 0A 44 8C 00 00 44 C5 80 00 45 73 C0 00 45 CE E0 00 43 B4 00 00 44 1B 00 00 42 20 00 00 44 70 00 00 44 9B 00 00 44 DC 00 00 45 77 80 00 45 D0 C0 00 3F 6A 7E FA 3F 65 A1 CB 3F 7C ED 91 3F 7D 70 A4 42 48 16 98
write:2A 03 07 CF 00 78 72 B8
2A 03 F0
42write:2A 03 01 0F 00 08 73 E8
totalsize 240
45 DE 98 00 44 8C 89 9A 45 55 04 CD 00 00 00 00 45 21 E4 CD 00 00 00 00 00 00 00 00 00 00 00 00 00 00 00 00 00 00 00 00 40 73 33 33 00 00 00 00 3F E6 66 66 00 00 00 00 40 00 00 00 44 34 C6 66 42 D7 66 66 43 B3 59 9A 00 00 00 00 43 80 59 9A 46 02 2F 33 44 AB 10 00 45 84 08 CD 00 00 00 00 45 2B 21 9A 00 00 00 00 00 00 00 00 00 00 00 00 00 00 00 00 00 00 00 00 40 40 00 00 00 00 00 00 40 39 99 9A 00 00 00 00 00 00 00 00 44 66 F3 33 43 13 80 00 43 D3 80 00 00 00 00 00 43 B0 99 9A 46 14 A7 9A 44 C0 90 00 45 95 06 66 00 00 00 00 45 48 48 00 00 00 00 00 00 00 00 00 00 00 00 00 00 00 00 00 00 00 00 00 43 B7 CC CD 42 58 00 00 43 24 99 9A 00 00 00 00 43 14 CC CD 44 1B B3 33 42 D3 00 00 43 7B E6 66 00 00 00 00 43 84 ED 6A
2A 03 10
4200 30 F5 82 00 00 00 00 00 02 48 64 00 03 0A 82
43 68 E9 FC
232.914
43 69 31 AA
233.194
43 68 E5 1F
232.895
43 C9 C8 93
403.567
43 C9 BD 91
403.481
43 C9 A7 6D
403.308
40 A9 99 9A
5.3
40 F1 EB 85
7.56
41 87 D7 0A
16.98
44 8C 00 00
1120
44 C5 80 00
1580
45 73 C0 00
3900
45 CE E0 00
6620
43 B4 00 00
360
44 1B 00 00
620
42 20 00 00
40
44 70 00 00
960
44 9B 00 00
1240
44 DC 00 00
1760
45 77 80 00
3960
45 D0 C0 00
6680
3F 6A 7E FA
0.916
3F 65 A1 CB
0.897
3F 7C ED 91
0.988
3F 7D 70 A4
0.99
42 48 16 98
50.022064
45 DE 98 00
7123
44 8C 89 9A
1124.3
45 55 04 CD
3408.3
00 00 00 00
0
45 21 E4 CD
2590.3
00 00 00 00
0
00 00 00 00
0
00 00 00 00
0
00 00 00 00
0
00 00 00 00
0
40 73 33 33
3.8
00 00 00 00
0
3F E6 66 66
1.8
00 00 00 00
0
40 00 00 00
2
44 34 C6 66
723.1
42 D7 66 66
107.7
43 B3 59 9A
358.7
00 00 00 00
0
43 80 59 9A
256.7
46 02 2F 33
8331.8
44 AB 10 00
1368.5
45 84 08 CD
4225.1
00 00 00 00
0
45 2B 21 9A
2738.1
00 00 00 00
0
00 00 00 00
0
00 00 00 00
0
00 00 00 00
0
00 00 00 00
0
40 40 00 00
3
00 00 00 00
0
40 39 99 9A
2.9
00 00 00 00
0
00 00 00 00
0
44 66 F3 33
923.8
43 13 80 00
147.5
43 D3 80 00
423
00 00 00 00
0
43 B0 99 9A
353.2
46 14 A7 9A
9513.9
44 C0 90 00
1540.5
45 95 06 66
4768.8
00 00 00 00
0
45 48 48 00
3204.5
00 00 00 00
0
00 00 00 00
0
00 00 00 00
0
00 00 00 00
0
00 00 00 00
0
43 B7 CC CD
367.6
42 58 00 00
54
43 24 99 9A
164.6
00 00 00 00
0
43 14 CC CD
148.8
44 1B B3 33
622.8
42 D3 00 00
105.5
43 7B E6 66
251.9
00 00 00 00
0
43 84 ED 6A
265.8548
00 30 F5 82
3208578
00 00 00 00
0
00 02 48 64
149604
00 03 0A 82
199298
232.914233.194232.895403.567403.481403.3085.37.5616.9811201580390066203606204096012401760396066800.9160.8970.9880.9950.02206471231124.33408.302590.3000003.801.802723.1107.7358.70256.78331.81368.54225.102738.100000302.900923.8147.54230353.29513.91540.54768.803204.500000367.654164.60148.8622.8105.5251.90265.854842201711241228343208.5780149.604199.298insert into tbl_power_info_v2(P_A_DIANYA,P_B_DIANYA,P_C_DIANYA,P_UAB_XIANDIANYA,P_UBC_XIANDIANYA,P_UCA_XIANDIANYA,P_A_DIANLIU,P_B_DIANLIU,P_C_DIANLIU,P_A_YGGL,P_B_YGGL,P_C_YGGL,P_HXYGGL,P_A_WGGL,P_B_WGGL,P_C_WGGL,P_HXWGGL,P_A_SZGL,P_B_SZGL,P_C_SZGL,P_HXSZGL,P_A_GLYS,P_B_GLYS,P_C_GLYS,P_HXGLYS,P_DWPL,P_BY_KwhZ,P_BY_KwhJ,P_BY_KwhF,P_BY_KwhP,P_BY_KwhG,P_BY_HKwhZ,P_BY_HKwhJ,P_BY_HKwhF,P_BY_HKwhP,P_BY_HKwhG, P_BY_KvarhZ,P_BY_KvarhJ,P_BY_KvarhF,P_BY_KvarhP,P_BY_KvarhG, P_BY_HKvarhZ,P_BY_HKvarhJ,P_BY_HKvarhF,P_BY_HKvarhP,P_BY_HKvarhG, P_SY_KwhZ,P_SY_KwhJ,P_SY_KwhF,P_SY_KwhP,P_SY_KwhG, P_SY_HKwhZ,P_SY_HKwhJ,P_SY_HKwhF,P_SY_HKwhP,P_SY_HKwhG, P_SY_KvarhZ,P_SY_KvarhJ,P_SY_KvarhF,P_SY_KvarhP,P_SY_KvarhG, P_SY_HKvarhZ,P_SY_HKvarhJ,P_SY_HKvarhF,P_SY_HKvarhP,P_SY_HKvarhG, P_SSY_KwhZ,P_SSY_KwhJ,P_SSY_KwhF,P_SSY_KwhP,P_SSY_KwhG, P_SSY_HKwhZ,P_SSY_HKwhJ,P_SSY_HKwhF,P_SSY_HKwhP,P_SSY_HKwhG, P_SSY_KvarhZ,P_SSY_KvarhJ,P_SSY_KvarhF,P_SSY_KvarhP,P_SSY_KvarhG, P_SSY_HKvarhZ,P_SSY_HKvarhJ,P_SSY_HKvarhF,P_SSY_HKvarhP,P_SSY_HKvarhG,P_CODE,P_TIME,P_ZXYGDN,P_FXYGDN,P_ZXWGDN,P_FXWGDN)values(232.914,233.194,232.895,403.567,403.481,403.308,5.3,7.56,16.98,1120,1580,3900,6620,360,620,40,960,1240,1760,3960,6680,0.916,0.897,0.988,0.99,50.022064,7123,1124.3,3408.3,0,2590.3,0,0,0,0,0,3.8,0,1.8,0,2,723.1,107.7,358.7,0,256.7,8331.8,1368.5,4225.1,0,2738.1,0,0,0,0,0,3,0,2.9,0,0,923.8,147.5,423,0,353.2,9513.9,1540.5,4768.8,0,3204.5,0,0,0,0,0,367.6,54,164.6,0,148.8,622.8,105.5,251.9,0,265.8548,42,20171124122834,3208.578,0,149.604,199.298)
写入成功读取完毕一个
write:2B 03 00 38 00 34 C2 1A
2B 03 68
4343 69 50 62 43 69 DA 1D 43 69 06 25 43 CA 42 8F 43 CA 21 48 43 C9 E9 DB 40 CA 3D 71 40 8A 3D 71 40 82 8F 5C 44 96 00 00 44 5C 00 00 44 52 00 00 45 36 80 00 44 20 00 00 43 48 00 00 43 A0 00 00 44 8C 00 00 44 B9 00 00 44 7A 00 00 44 70 00 00 45 43 00 00 3F 4E 14 7B 3F 5E 35 3F 3F 65 E3 54 3F 6E 97 8D 42 48 EC E3
write:2B 03 07 CF 00 78 73 69
2B 03 F0
43totalsize 240
45 C9 FC CD 44 BE F9 9A 45 26 99 9A 00 00 00 00 45 0D E0 00 00 00 00 00 00 00 00 00 00 00 00 00 00 00 00 00 00 00 00 00 45 02 19 9A 44 21 59 9A 44 95 E0 00 00 00 00 00 43 6D 00 00 42 9F 99 9A 40 E0 00 00 40 8C CC CD 00 00 00 00 42 88 66 66 45 AB 83 33 44 C5 D3 33 44 EA 46 66 00 00 00 00 44 FD F3 33 00 00 00 00 00 00 00 00 00 00 00 00 00 00 00 00 00 00 00 00 44 C3 93 33 44 12 66 66 44 3F F3 33 00 00 00 00 43 53 33 33 43 40 CC CD 42 07 33 33 41 C1 99 9A 00 00 00 00 43 06 99 9A 45 53 13 33 44 5A 99 9A 44 F5 06 66 00 00 00 00 44 07 99 9A 00 00 00 00 00 00 00 00 00 00 00 00 00 00 00 00 00 00 00 00 44 53 40 00 43 AE 99 9A 43 E0 19 9A 00 00 00 00 42 3D 99 9A 42 09 99 9A 40 D9 99 9A 41 00 00 00 00 00 00 00 41 9C AA EE
write:2B 03 01 0F 00 08 72 39
2B 03 10
4300 06 7D A1 00 00 00 00 00 01 E9 9A 00 00 7E 60
43 69 50 62
233.314
43 69 DA 1D
233.852
43 69 06 25
233.024
43 CA 42 8F
404.52
43 CA 21 48
404.26
43 C9 E9 DB
403.827
40 CA 3D 71
6.32
40 8A 3D 71
4.32
40 82 8F 5C
4.08
44 96 00 00
1200
44 5C 00 00
880
44 52 00 00
840
45 36 80 00
2920
44 20 00 00
640
43 48 00 00
200
43 A0 00 00
320
44 8C 00 00
1120
44 B9 00 00
1480
44 7A 00 00
1000
44 70 00 00
960
45 43 00 00
3120
3F 4E 14 7B
0.805
3F 5E 35 3F
0.868
3F 65 E3 54
0.898
3F 6E 97 8D
0.932
42 48 EC E3
50.231335
45 C9 FC CD
6463.6
44 BE F9 9A
1527.8
45 26 99 9A
2665.6
00 00 00 00
0
45 0D E0 00
2270
00 00 00 00
0
00 00 00 00
0
00 00 00 00
0
00 00 00 00
0
00 00 00 00
0
45 02 19 9A
2081.6
44 21 59 9A
645.4
44 95 E0 00
1199
00 00 00 00
0
43 6D 00 00
237
42 9F 99 9A
79.8
40 E0 00 00
7
40 8C CC CD
4.4
00 00 00 00
0
42 88 66 66
68.2
45 AB 83 33
5488.4
44 C5 D3 33
1582.6
44 EA 46 66
1874.2
00 00 00 00
0
44 FD F3 33
2031.6
00 00 00 00
0
00 00 00 00
0
00 00 00 00
0
00 00 00 00
0
00 00 00 00
0
44 C3 93 33
1564.6
44 12 66 66
585.6
44 3F F3 33
767.8
00 00 00 00
0
43 53 33 33
211.2
43 40 CC CD
192.8
42 07 33 33
33.8
41 C1 99 9A
24.2
00 00 00 00
0
43 06 99 9A
134.6
45 53 13 33
3377.2
44 5A 99 9A
874.4
44 F5 06 66
1960.2
00 00 00 00
0
44 07 99 9A
542.4
00 00 00 00
0
00 00 00 00
0
00 00 00 00
0
00 00 00 00
0
00 00 00 00
0
44 53 40 00
845
43 AE 99 9A
349.2
43 E0 19 9A
448.2
00 00 00 00
0
42 3D 99 9A
47.4
42 09 99 9A
34.4
40 D9 99 9A
6.8
41 00 00 00
8
00 00 00 00
0
41 9C AA EE
19.583462
00 06 7D A1
425377
00 00 00 00
0
00 01 E9 9A
125338
00 00 7E 60
32352
233.314233.852233.024404.52404.26403.8276.324.324.081200880840292064020032011201480100096031200.8050.8680.8980.93250.2313356463.61527.82665.602270000002081.6645.41199023779.874.4068.25488.41582.61874.202031.6000001564.6585.6767.80211.2192.833.824.20134.63377.2874.41960.20542.400000845349.2448.2047.434.46.88019.5834624320171124122929425.3770125.33832.352insert into tbl_power_info_v2(P_A_DIANYA,P_B_DIANYA,P_C_DIANYA,P_UAB_XIANDIANYA,P_UBC_XIANDIANYA,P_UCA_XIANDIANYA,P_A_DIANLIU,P_B_DIANLIU,P_C_DIANLIU,P_A_YGGL,P_B_YGGL,P_C_YGGL,P_HXYGGL,P_A_WGGL,P_B_WGGL,P_C_WGGL,P_HXWGGL,P_A_SZGL,P_B_SZGL,P_C_SZGL,P_HXSZGL,P_A_GLYS,P_B_GLYS,P_C_GLYS,P_HXGLYS,P_DWPL,P_BY_KwhZ,P_BY_KwhJ,P_BY_KwhF,P_BY_KwhP,P_BY_KwhG,P_BY_HKwhZ,P_BY_HKwhJ,P_BY_HKwhF,P_BY_HKwhP,P_BY_HKwhG, P_BY_KvarhZ,P_BY_KvarhJ,P_BY_KvarhF,P_BY_KvarhP,P_BY_KvarhG, P_BY_HKvarhZ,P_BY_HKvarhJ,P_BY_HKvarhF,P_BY_HKvarhP,P_BY_HKvarhG, P_SY_KwhZ,P_SY_KwhJ,P_SY_KwhF,P_SY_KwhP,P_SY_KwhG, P_SY_HKwhZ,P_SY_HKwhJ,P_SY_HKwhF,P_SY_HKwhP,P_SY_HKwhG, P_SY_KvarhZ,P_SY_KvarhJ,P_SY_KvarhF,P_SY_KvarhP,P_SY_KvarhG, P_SY_HKvarhZ,P_SY_HKvarhJ,P_SY_HKvarhF,P_SY_HKvarhP,P_SY_HKvarhG, P_SSY_KwhZ,P_SSY_KwhJ,P_SSY_KwhF,P_SSY_KwhP,P_SSY_KwhG, P_SSY_HKwhZ,P_SSY_HKwhJ,P_SSY_HKwhF,P_SSY_HKwhP,P_SSY_HKwhG, P_SSY_KvarhZ,P_SSY_KvarhJ,P_SSY_KvarhF,P_SSY_KvarhP,P_SSY_KvarhG, P_SSY_HKvarhZ,P_SSY_HKvarhJ,P_SSY_HKvarhF,P_SSY_HKvarhP,P_SSY_HKvarhG,P_CODE,P_TIME,P_ZXYGDN,P_FXYGDN,P_ZXWGDN,P_FXWGDN)values(233.314,233.852,233.024,404.52,404.26,403.827,6.32,4.32,4.08,1200,880,840,2920,640,200,320,1120,1480,1000,960,3120,0.805,0.868,0.898,0.932,50.231335,6463.6,1527.8,2665.6,0,2270,0,0,0,0,0,2081.6,645.4,1199,0,237,79.8,7,4.4,0,68.2,5488.4,1582.6,1874.2,0,2031.6,0,0,0,0,0,1564.6,585.6,767.8,0,211.2,192.8,33.8,24.2,0,134.6,3377.2,874.4,1960.2,0,542.4,0,0,0,0,0,845,349.2,448.2,0,47.4,34.4,6.8,8,0,19.583462,43,20171124122929,425.377,0,125.338,32.352)
写入成功读取完毕一个
write:2C 03 00 38 00 34 C3 AD
2C 03 68
4443 68 43 54 43 68 00 00 00 00 00 00 00 00 00 00 00 00 00 00 00 00 00 00 00 00 00 00 00 00 00 00 00 00 00 00 00 00 00 00 00 00 00 00 00 00 00 00 00 00 00 00 00 00 00 00 00 00 00 00 00 00 00 00 00 00 00 00 00 00 00 00 00 00 00 00 00 00 00 00 00 00 00 00 00 00 00 00 00 00 00 00 00 00 00 00 00 00 00 00 00 00 00 00
write:2C 03 07 CF 00 78 72 DE
F6 C9 43
heart:F6 C9 43 69 12 F2 43 CA 00 00 43 CA 00 00 43 C9 C8 93 40 80 00 00 41 0A E1 48 3F C2 8F 5C 44 34 00 00 44 AF 00 00 43 8C 00 00 45 13 80 00 42 F0 00 00 43 48 00 00 00 00 00 00 43 A0 00 00 44 66 00 00 44 FF 00 00 43 B4 00 00 45 16 00 00 3F 46 24 DD 3F 2E 56 04 3F 48 B4 39 3F 7D B2 2D 42 47 10 41
2C 03 F0
44totalsize 240
45 3B 69 9A 44 11 80 00 44 F8 60 00 00 00 00 00 43 D6 B3 33 00 00 00 00 00 00 00 00 00 00 00 00 00 00 00 00 00 00 00 00 44 BB 60 00 43 9B 66 66 44 7D 99 9A 00 00 00 00 43 2D 66 66 42 7D 99 9A 41 46 66 66 42 10 CC CD 00 00 00 00 41 66 66 66 45 5D 1C CD 44 48 F3 33 45 05 66 66 00 00 00 00 44 15 E6 66 00 00 00 00 00 00 00 00 00 00 00 00 00 00 00 00 00 00 00 00 44 8B 99 9A 43 18 00 00 44 48 D9 9A 00 00 00 00 43 21 33 33 43 27 99 9A 42 5C 00 00 42 98 66 66 00 00 00 00 42 10 00 00 45 29 09 9A 44 2A 99 9A 44 BC F9 9A 00 00 00 00 43 FF 19 9A 00 00 00 00 00 00 00 00 00 00 00 00 00 00 00 00 00 00 00 00 43 B2 19 9A 42 69 99 9A 43 6E 33 33 00 00 00 00 42 6D 99 9A 43 51 99 9A 42 63 33 33 42 DC CC CD 00 00 00 00 42 28 05 CC
write:2C 03 01 0F 00 08 73 8E
2C 03 10
4400 04 E5 4E 00 00 00 00 00 01 51 37 00 00 3C 9E
43 68 43 54
232.263
43 68 00 00
232
00 00 00 00
0
00 00 00 00
0
00 00 00 00
0
00 00 00 00
0
00 00 00 00
0
00 00 00 00
0
00 00 00 00
0
00 00 00 00
0
00 00 00 00
0
00 00 00 00
0
00 00 00 00
0
00 00 00 00
0
00 00 00 00
0
00 00 00 00
0
00 00 00 00
0
00 00 00 00
0
00 00 00 00
0
00 00 00 00
0
00 00 00 00
0
00 00 00 00
0
00 00 00 00
0
00 00 00 00
0
00 00 00 00
0
00 00 00 00
0
45 3B 69 9A
2998.6
44 11 80 00
582
44 F8 60 00
1987
00 00 00 00
0
43 D6 B3 33
429.4
00 00 00 00
0
00 00 00 00
0
00 00 00 00
0
00 00 00 00
0
00 00 00 00
0
44 BB 60 00
1499
43 9B 66 66
310.8
44 7D 99 9A
1014.4
00 00 00 00
0
43 2D 66 66
173.4
42 7D 99 9A
63.4
41 46 66 66
12.4
42 10 CC CD
36.2
00 00 00 00
0
41 66 66 66
14.4
45 5D 1C CD
3537.8
44 48 F3 33
803.8
45 05 66 66
2134.4
00 00 00 00
0
44 15 E6 66
599.6
00 00 00 00
0
00 00 00 00
0
00 00 00 00
0
00 00 00 00
0
00 00 00 00
0
44 8B 99 9A
1116.8
43 18 00 00
152
44 48 D9 9A
803.4
00 00 00 00
0
43 21 33 33
161.2
43 27 99 9A
167.6
42 5C 00 00
55
42 98 66 66
76.2
00 00 00 00
0
42 10 00 00
36
45 29 09 9A
2704.6
44 2A 99 9A
682.4
44 BC F9 9A
1511.8
00 00 00 00
0
43 FF 19 9A
510.2
00 00 00 00
0
00 00 00 00
0
00 00 00 00
0
00 00 00 00
0
00 00 00 00
0
43 B2 19 9A
356.2
42 69 99 9A
58.4
43 6E 33 33
238.2
00 00 00 00
0
42 6D 99 9A
59.4
43 51 99 9A
209.6
42 63 33 33
56.8
42 DC CC CD
110.4
00 00 00 00
0
42 28 05 CC
42.00566
00 04 E5 4E
320846
00 00 00 00
0
00 01 51 37
86327
00 00 3C 9E
15518
232.2632320000000000000000000000002998.658219870429.4000001499310.81014.40173.463.412.436.2014.43537.8803.82134.40599.6000001116.8152803.40161.2167.65576.20362704.6682.41511.80510.200000356.258.4238.2059.4209.656.8110.4042.005664420171124123028320.846086.32715.518insert into tbl_power_info_v2(P_A_DIANYA,P_B_DIANYA,P_C_DIANYA,P_UAB_XIANDIANYA,P_UBC_XIANDIANYA,P_UCA_XIANDIANYA,P_A_DIANLIU,P_B_DIANLIU,P_C_DIANLIU,P_A_YGGL,P_B_YGGL,P_C_YGGL,P_HXYGGL,P_A_WGGL,P_B_WGGL,P_C_WGGL,P_HXWGGL,P_A_SZGL,P_B_SZGL,P_C_SZGL,P_HXSZGL,P_A_GLYS,P_B_GLYS,P_C_GLYS,P_HXGLYS,P_DWPL,P_BY_KwhZ,P_BY_KwhJ,P_BY_KwhF,P_BY_KwhP,P_BY_KwhG,P_BY_HKwhZ,P_BY_HKwhJ,P_BY_HKwhF,P_BY_HKwhP,P_BY_HKwhG, P_BY_KvarhZ,P_BY_KvarhJ,P_BY_KvarhF,P_BY_KvarhP,P_BY_KvarhG, P_BY_HKvarhZ,P_BY_HKvarhJ,P_BY_HKvarhF,P_BY_HKvarhP,P_BY_HKvarhG, P_SY_KwhZ,P_SY_KwhJ,P_SY_KwhF,P_SY_KwhP,P_SY_KwhG, P_SY_HKwhZ,P_SY_HKwhJ,P_SY_HKwhF,P_SY_HKwhP,P_SY_HKwhG, P_SY_KvarhZ,P_SY_KvarhJ,P_SY_KvarhF,P_SY_KvarhP,P_SY_KvarhG, P_SY_HKvarhZ,P_SY_HKvarhJ,P_SY_HKvarhF,P_SY_HKvarhP,P_SY_HKvarhG, P_SSY_KwhZ,P_SSY_KwhJ,P_SSY_KwhF,P_SSY_KwhP,P_SSY_KwhG, P_SSY_HKwhZ,P_SSY_HKwhJ,P_SSY_HKwhF,P_SSY_HKwhP,P_SSY_HKwhG, P_SSY_KvarhZ,P_SSY_KvarhJ,P_SSY_KvarhF,P_SSY_KvarhP,P_SSY_KvarhG, P_SSY_HKvarhZ,P_SSY_HKvarhJ,P_SSY_HKvarhF,P_SSY_HKvarhP,P_SSY_HKvarhG,P_CODE,P_TIME,P_ZXYGDN,P_FXYGDN,P_ZXWGDN,P_FXWGDN)values(232.263,232,0,0,0,0,0,0,0,0,0,0,0,0,0,0,0,0,0,0,0,0,0,0,0,0,2998.6,582,1987,0,429.4,0,0,0,0,0,1499,310.8,1014.4,0,173.4,63.4,12.4,36.2,0,14.4,3537.8,803.8,2134.4,0,599.6,0,0,0,0,0,1116.8,152,803.4,0,161.2,167.6,55,76.2,0,36,2704.6,682.4,1511.8,0,510.2,0,0,0,0,0,356.2,58.4,238.2,0,59.4,209.6,56.8,110.4,0,42.00566,44,20171124123028,320.846,0,86.327,15.518)
写入成功读取完毕一个
write:2D 03 00 38 00 34 C2 7C
2D 03 68
4543 69 92 6F 43 6A 27 2B 43 69 B4 FE 43 CA 79 FC 43 CA 90 21 43 CA 4D B2 41 84 7A E1 41 12 8F 5C 40 EE 14 7B 45 5C 00 00 44 FA 00 00 44 7A 00 00 45 CA 80 00 43 A0 00 00 43 8C 00 00 44 2A 00 00 44 A0 00 00 45 72 80 00 45 07 00 00 44 DC 00 00 45 CE 40 00 3F 68 72 B0 3F 6D 0E 56 3F 10 62 4E 3F 7B 22 D1 42 47 D6 9A
write:2D 03 07 CF 00 78 73 0F
2D 03 F0
45totalsize 240
45 50 2C CD 43 EB E6 66 45 0F 83 33 00 00 00 00 44 0C A6 66 00 00 00 00 00 00 00 00 00 00 00 00 00 00 00 00 00 00 00 00 40 F9 99 9A 3F 19 99 9A 40 D3 33 33 00 00 00 00 3E 4C CC CD 44 53 C0 00 43 0E 33 33 43 BF 80 00 00 00 00 00 43 A0 B3 33 45 59 E9 9A 44 17 99 9A 45 0A CC CD 00 00 00 00 44 24 CC CD 00 00 00 00 00 00 00 00 00 00 00 00 00 00 00 00 00 00 00 00 3F B3 33 33 3E 4C CC CD 3F 80 00 00 00 00 00 00 00 00 00 00 44 A2 A6 66 43 6C CC CD 44 1D F3 33 00 00 00 00 43 D8 33 33 45 38 96 66 43 C5 00 00 44 F1 8C CD 00 00 00 00 44 1C B3 33 00 00 00 00 00 00 00 00 00 00 00 00 00 00 00 00 00 00 00 00 3E CC CC CD 00 00 00 00 3E 4C CC CD 00 00 00 00 00 00 00 00 44 8E C0 00 43 45 66 66 44 05 E6 66 00 00 00 00 43 CC B1 A9
write:2D 03 01 0F 00 08 72 5F
2D 03 10
4500 10 5E FC 00 00 00 00 00 00 27 75 00 03 0C 74
43 69 92 6F
233.572
43 6A 27 2B
234.153
43 69 B4 FE
233.707
43 CA 79 FC
404.953
43 CA 90 21
405.126
43 CA 4D B2
404.607
41 84 7A E1
16.56
41 12 8F 5C
9.16
40 EE 14 7B
7.44
45 5C 00 00
3520
44 FA 00 00
2000
44 7A 00 00
1000
45 CA 80 00
6480
43 A0 00 00
320
43 8C 00 00
280
44 2A 00 00
680
44 A0 00 00
1280
45 72 80 00
3880
45 07 00 00
2160
44 DC 00 00
1760
45 CE 40 00
6600
3F 68 72 B0
0.908
3F 6D 0E 56
0.926
3F 10 62 4E
0.564
3F 7B 22 D1
0.981
42 47 D6 9A
49.95957
45 50 2C CD
3330.8
43 EB E6 66
471.8
45 0F 83 33
2296.2
00 00 00 00
0
44 0C A6 66
562.6
00 00 00 00
0
00 00 00 00
0
00 00 00 00
0
00 00 00 00
0
00 00 00 00
0
40 F9 99 9A
7.8
3F 19 99 9A
0.6
40 D3 33 33
6.6
00 00 00 00
0
3E 4C CC CD
0.2
44 53 C0 00
847
43 0E 33 33
142.2
43 BF 80 00
383
00 00 00 00
0
43 A0 B3 33
321.4
45 59 E9 9A
3486.6
44 17 99 9A
606.4
45 0A CC CD
2220.8
00 00 00 00
0
44 24 CC CD
659.2
00 00 00 00
0
00 00 00 00
0
00 00 00 00
0
00 00 00 00
0
00 00 00 00
0
3F B3 33 33
1.4
3E 4C CC CD
0.2
3F 80 00 00
1
00 00 00 00
0
00 00 00 00
0
44 A2 A6 66
1301.2
43 6C CC CD
236.8
44 1D F3 33
631.8
00 00 00 00
0
43 D8 33 33
432.4
45 38 96 66
2953.4
43 C5 00 00
394
44 F1 8C CD
1932.4
00 00 00 00
0
44 1C B3 33
626.8
00 00 00 00
0
00 00 00 00
0
00 00 00 00
0
00 00 00 00
0
00 00 00 00
0
3E CC CC CD
0.4
00 00 00 00
0
3E 4C CC CD
0.2
00 00 00 00
0
00 00 00 00
0
44 8E C0 00
1142
43 45 66 66
197.4
44 05 E6 66
535.6
00 00 00 00
0
43 CC B1 A9
409.38797
00 10 5E FC
1072892
00 00 00 00
0
00 00 27 75
10101
00 03 0C 74
199796
233.572234.153233.707404.953405.126404.60716.569.167.443520200010006480320280680128038802160176066000.9080.9260.5640.98149.959573330.8471.82296.20562.6000007.80.66.600.2847142.23830321.43486.6606.42220.80659.2000001.40.21001301.2236.8631.80432.42953.43941932.40626.8000000.400.2001142197.4535.60409.3879745201711241231341072.892010.101199.796insert into tbl_power_info_v2(P_A_DIANYA,P_B_DIANYA,P_C_DIANYA,P_UAB_XIANDIANYA,P_UBC_XIANDIANYA,P_UCA_XIANDIANYA,P_A_DIANLIU,P_B_DIANLIU,P_C_DIANLIU,P_A_YGGL,P_B_YGGL,P_C_YGGL,P_HXYGGL,P_A_WGGL,P_B_WGGL,P_C_WGGL,P_HXWGGL,P_A_SZGL,P_B_SZGL,P_C_SZGL,P_HXSZGL,P_A_GLYS,P_B_GLYS,P_C_GLYS,P_HXGLYS,P_DWPL,P_BY_KwhZ,P_BY_KwhJ,P_BY_KwhF,P_BY_KwhP,P_BY_KwhG,P_BY_HKwhZ,P_BY_HKwhJ,P_BY_HKwhF,P_BY_HKwhP,P_BY_HKwhG, P_BY_KvarhZ,P_BY_KvarhJ,P_BY_KvarhF,P_BY_KvarhP,P_BY_KvarhG, P_BY_HKvarhZ,P_BY_HKvarhJ,P_BY_HKvarhF,P_BY_HKvarhP,P_BY_HKvarhG, P_SY_KwhZ,P_SY_KwhJ,P_SY_KwhF,P_SY_KwhP,P_SY_KwhG, P_SY_HKwhZ,P_SY_HKwhJ,P_SY_HKwhF,P_SY_HKwhP,P_SY_HKwhG, P_SY_KvarhZ,P_SY_KvarhJ,P_SY_KvarhF,P_SY_KvarhP,P_SY_KvarhG, P_SY_HKvarhZ,P_SY_HKvarhJ,P_SY_HKvarhF,P_SY_HKvarhP,P_SY_HKvarhG, P_SSY_KwhZ,P_SSY_KwhJ,P_SSY_KwhF,P_SSY_KwhP,P_SSY_KwhG, P_SSY_HKwhZ,P_SSY_HKwhJ,P_SSY_HKwhF,P_SSY_HKwhP,P_SSY_HKwhG, P_SSY_KvarhZ,P_SSY_KvarhJ,P_SSY_KvarhF,P_SSY_KvarhP,P_SSY_KvarhG, P_SSY_HKvarhZ,P_SSY_HKvarhJ,P_SSY_HKvarhF,P_SSY_HKvarhP,P_SSY_HKvarhG,P_CODE,P_TIME,P_ZXYGDN,P_FXYGDN,P_ZXWGDN,P_FXWGDN)values(233.572,234.153,233.707,404.953,405.126,404.607,16.56,9.16,7.44,3520,2000,1000,6480,320,280,680,1280,3880,2160,1760,6600,0.908,0.926,0.564,0.981,49.95957,3330.8,471.8,2296.2,0,562.6,0,0,0,0,0,7.8,0.6,6.6,0,0.2,847,142.2,383,0,321.4,3486.6,606.4,2220.8,0,659.2,0,0,0,0,0,1.4,0.2,1,0,0,1301.2,236.8,631.8,0,432.4,2953.4,394,1932.4,0,626.8,0,0,0,0,0,0.4,0,0.2,0,0,1142,197.4,535.6,0,409.38797,45,20171124123134,1072.892,0,10.101,199.796)
写入成功读取完毕一个
write:2E 03 00 38 00 34 C2 4F
2E 03 68
4643 69 12 F2 43 69 D4 BC 43 69 60 83 43 CA 21 48 43 CA 42 8F 43 C9 E9 DB 41 DF 5C 29 40 4A 3D 71 40 6B 85 1F 45 B4 00 00 44 0C 00 00 44 2A 00 00 45 DA C0 00 00 00 00 00 00 00 00 00 00 00 00 00 00 00 00 00 00 00 00 00 00 00 00 00 00 00 00 00 00 00 00 00 00 00 00 00 00 00 00 00 00 00 00 00 00 00 00 00 00 00 00 00
00 44 8C
heart:00 44 8C 00 00 43 B4 00 00 43 C8 00 00 44 F0 00 00 45 CB C0 00 44 34 00 00 44 52 00 00 45 E2 40 00 3F 63 53 F8 3F 3D F3 B6 3F 46 E9 79 3F 77 0A 3D 42 48 54 AD
write:2E 03 07 CF 00 78 73 3C
2E 03 F0
46totalsize 240
45 9A CE 66 44 58 F3 33 45 4D 3C CD 00 00 00 00 44 48 73 33 00 00 00 00 00 00 00 00 00 00 00 00 00 00 00 00 00 00 00 00 40 B3 33 33 3F 4C CC CD 40 80 00 00 00 00 00 00 3F 19 99 9A 44 2F 66 66 42 EC 00 00 43 9E CC CD 00 00 00 00 43 84 E6 66 46 38 B4 CD 45 18 13 33 45 F1 63 33 00 00 00 00 44 CF EC CD 00 00 00 00 00 00 00 00 00 00 00 00 00 00 00 00 00 00 00 00 40 40 00 00 00 00 00 00 40 26 66 66 00 00 00 00 3E 4C CC CD 44 6D 4C CD 43 24 33 33 43 DE B3 33 00 00 00 00 43 A9 CC CD 46 61 63 33 45 17 7C CD 46 1D 2A 66 00 00 00 00 44 F2 C0 00 00 00 00 00 00 00 00 00 00 00 00 00 00 00 00 00 00 00 00 00 42 1E 66 66 40 AC CC CD 41 F0 00 00 00 00 00 00 40 80 00 00 44 24 26 66 42 CA CC CD 43 93 99 9A 00 00 00 00 43 82 A2 10
write:2E 03 01 0F 00 08 72 6C
2E 03 10
4600 26 08 5E 00 00 00 00 00 00 31 AB 00 02 64 C6
43 69 12 F2
233.074
43 69 D4 BC
233.831
43 69 60 83
233.377
43 CA 21 48
404.26
43 CA 42 8F
404.52
43 C9 E9 DB
403.827
41 DF 5C 29
27.92
40 4A 3D 71
3.16
40 6B 85 1F
3.68
45 B4 00 00
5760
44 0C 00 00
560
44 2A 00 00
680
45 DA C0 00
7000
00 00 00 00
0
00 00 00 00
0
00 00 00 00
0
00 00 00 00
0
00 00 00 00
0
00 00 00 00
0
00 00 00 00
0
00 00 00 00
0
00 00 00 00
0
00 00 00 00
0
00 00 00 00
0
00 00 00 00
0
00 00 00 00
0
45 9A CE 66
4953.8
44 58 F3 33
867.8
45 4D 3C CD
3283.8
00 00 00 00
0
44 48 73 33
801.8
00 00 00 00
0
00 00 00 00
0
00 00 00 00
0
00 00 00 00
0
00 00 00 00
0
40 B3 33 33
5.6
3F 4C CC CD
0.8
40 80 00 00
4
00 00 00 00
0
3F 19 99 9A
0.6
44 2F 66 66
701.6
42 EC 00 00
118
43 9E CC CD
317.6
00 00 00 00
0
43 84 E6 66
265.8
46 38 B4 CD
11821.2
45 18 13 33
2433.2
45 F1 63 33
7724.4
00 00 00 00
0
44 CF EC CD
1663.4
00 00 00 00
0
00 00 00 00
0
00 00 00 00
0
00 00 00 00
0
00 00 00 00
0
40 40 00 00
3
00 00 00 00
0
40 26 66 66
2.6
00 00 00 00
0
3E 4C CC CD
0.2
44 6D 4C CD
949.2
43 24 33 33
164.2
43 DE B3 33
445.4
00 00 00 00
0
43 A9 CC CD
339.6
46 61 63 33
14424.8
45 17 7C CD
2423.8
46 1D 2A 66
10058.6
00 00 00 00
0
44 F2 C0 00
1942
00 00 00 00
0
00 00 00 00
0
00 00 00 00
0
00 00 00 00
0
00 00 00 00
0
42 1E 66 66
39.6
40 AC CC CD
5.4
41 F0 00 00
30
00 00 00 00
0
40 80 00 00
4
44 24 26 66
656.6
42 CA CC CD
101.4
43 93 99 9A
295.2
00 00 00 00
0
43 82 A2 10
261.2661
00 26 08 5E
2492510
00 00 00 00
0
00 00 31 AB
12715
00 02 64 C6
156870
233.074233.831233.377404.26404.52403.82727.923.163.685760560680700000000000000004953.8867.83283.80801.8000005.60.8400.6701.6118317.60265.811821.22433.27724.401663.400000302.600.2949.2164.2445.40339.614424.82423.810058.6019420000039.65.43004656.6101.4295.20261.266146201711241232292492.51012.715156.87insert into tbl_power_info_v2(P_A_DIANYA,P_B_DIANYA,P_C_DIANYA,P_UAB_XIANDIANYA,P_UBC_XIANDIANYA,P_UCA_XIANDIANYA,P_A_DIANLIU,P_B_DIANLIU,P_C_DIANLIU,P_A_YGGL,P_B_YGGL,P_C_YGGL,P_HXYGGL,P_A_WGGL,P_B_WGGL,P_C_WGGL,P_HXWGGL,P_A_SZGL,P_B_SZGL,P_C_SZGL,P_HXSZGL,P_A_GLYS,P_B_GLYS,P_C_GLYS,P_HXGLYS,P_DWPL,P_BY_KwhZ,P_BY_KwhJ,P_BY_KwhF,P_BY_KwhP,P_BY_KwhG,P_BY_HKwhZ,P_BY_HKwhJ,P_BY_HKwhF,P_BY_HKwhP,P_BY_HKwhG, P_BY_KvarhZ,P_BY_KvarhJ,P_BY_KvarhF,P_BY_KvarhP,P_BY_KvarhG, P_BY_HKvarhZ,P_BY_HKvarhJ,P_BY_HKvarhF,P_BY_HKvarhP,P_BY_HKvarhG, P_SY_KwhZ,P_SY_KwhJ,P_SY_KwhF,P_SY_KwhP,P_SY_KwhG, P_SY_HKwhZ,P_SY_HKwhJ,P_SY_HKwhF,P_SY_HKwhP,P_SY_HKwhG, P_SY_KvarhZ,P_SY_KvarhJ,P_SY_KvarhF,P_SY_KvarhP,P_SY_KvarhG, P_SY_HKvarhZ,P_SY_HKvarhJ,P_SY_HKvarhF,P_SY_HKvarhP,P_SY_HKvarhG, P_SSY_KwhZ,P_SSY_KwhJ,P_SSY_KwhF,P_SSY_KwhP,P_SSY_KwhG, P_SSY_HKwhZ,P_SSY_HKwhJ,P_SSY_HKwhF,P_SSY_HKwhP,P_SSY_HKwhG, P_SSY_KvarhZ,P_SSY_KvarhJ,P_SSY_KvarhF,P_SSY_KvarhP,P_SSY_KvarhG, P_SSY_HKvarhZ,P_SSY_HKvarhJ,P_SSY_HKvarhF,P_SSY_HKvarhP,P_SSY_HKvarhG,P_CODE,P_TIME,P_ZXYGDN,P_FXYGDN,P_ZXWGDN,P_FXWGDN)values(233.074,233.831,233.377,404.26,404.52,403.827,27.92,3.16,3.68,5760,560,680,7000,0,0,0,0,0,0,0,0,0,0,0,0,0,4953.8,867.8,3283.8,0,801.8,0,0,0,0,0,5.6,0.8,4,0,0.6,701.6,118,317.6,0,265.8,11821.2,2433.2,7724.4,0,1663.4,0,0,0,0,0,3,0,2.6,0,0.2,949.2,164.2,445.4,0,339.6,14424.8,2423.8,10058.6,0,1942,0,0,0,0,0,39.6,5.4,30,0,4,656.6,101.4,295.2,0,261.2661,46,20171124123229,2492.51,0,12.715,156.87)
写入成功读取完毕一个
write:2F 03 00 38 00 34 C3 9E
2F 03 68
4743 69 21 CB 43 69 BF BE 43 69 31 AA 43 CA 21 48 43 CA 21 48 43 C9 DE D9 42 11 51 EC 41 9D 33 33 42 19 B8 52 45 FF 00 00 45 8F 70 00 46 08 68 00 46 A7 D0 00 45 10 60 00 42 70 00 00 44 F0 00 00 43 A5 00 00 46 04 30 00 45 8F 70 00 46 0C 28 00 46 A7 D0 00 3F 76 45 A2 3F 80 00 00 3F 79 99 9A 3F 80 00 00 42 47 62 D9
write:2F 03 07 CF 00 78 72 ED
write:2F 03 01 0F 00 08 73 BD
2F 03 F0
47totalsize 240
44 C1 71 9A 40 79 99 9A 44 9E 44 CD 00 00 00 00 43 8A AC CD 00 00 00 00 00 00 00 00 00 00 00 00 00 00 00 00 00 00 00 00 42 E5 33 33 00 00 00 00 42 D2 E6 66 00 00 00 00 41 10 00 00 41 17 33 33 3F 40 00 00 40 D3 33 33 00 00 00 00 3F E6 66 66 44 D7 83 33 40 53 33 33 44 A5 2B 33 00 00 00 00 43 C7 A6 66 00 00 00 00 00 00 00 00 00 00 00 00 00 00 00 00 00 00 00 00 41 CD 33 33 00 00 00 00 41 B6 66 66 00 00 00 00 40 36 66 66 41 23 33 33 3F 66 66 66 40 E1 99 9A 00 00 00 00 40 06 66 66 44 FF 48 00 3F 86 66 66 44 CF 34 CD 00 00 00 00 43 BF B3 33 00 00 00 00 00 00 00 00 00 00 00 00 00 00 00 00 00 00 00 00 42 52 99 9A 00 00 00 00 42 3A 99 9A 00 00 00 00 40 BB 33 33 41 23 33 33 3E E6 66 66 40 DC CC CD 00 00 00 00 40 2C 1E B1
2F 03 10
4700 04 83 7C 00 00 00 00 00 00 26 E1 00 00 C3 66
43 69 21 CB
233.132
43 69 BF BE
233.749
43 69 31 AA
233.194
43 CA 21 48
404.26
43 CA 21 48
404.26
43 C9 DE D9
403.741
42 11 51 EC
36.33
41 9D 33 33
19.65
42 19 B8 52
38.43
45 FF 00 00
8160
45 8F 70 00
4590
46 08 68 00
8730
46 A7 D0 00
21480
45 10 60 00
2310
42 70 00 00
60
44 F0 00 00
1920
43 A5 00 00
330
46 04 30 00
8460
45 8F 70 00
4590
46 0C 28 00
8970
46 A7 D0 00
21480
3F 76 45 A2
0.962
3F 80 00 00
1
3F 79 99 9A
0.975
3F 80 00 00
1
42 47 62 D9
49.84653
44 C1 71 9A
1547.55
40 79 99 9A
3.9
44 9E 44 CD
1266.15
00 00 00 00
0
43 8A AC CD
277.35
00 00 00 00
0
00 00 00 00
0
00 00 00 00
0
00 00 00 00
0
00 00 00 00
0
42 E5 33 33
114.6
00 00 00 00
0
42 D2 E6 66
105.45
00 00 00 00
0
41 10 00 00
9
41 17 33 33
9.45
3F 40 00 00
0.75
40 D3 33 33
6.6
00 00 00 00
0
3F E6 66 66
1.8
44 D7 83 33
1724.1
40 53 33 33
3.3
44 A5 2B 33
1321.35
00 00 00 00
0
43 C7 A6 66
399.3
00 00 00 00
0
00 00 00 00
0
00 00 00 00
0
00 00 00 00
0
00 00 00 00
0
41 CD 33 33
25.65
00 00 00 00
0
41 B6 66 66
22.8
00 00 00 00
0
40 36 66 66
2.85
41 23 33 33
10.2
3F 66 66 66
0.9
40 E1 99 9A
7.05
00 00 00 00
0
40 06 66 66
2.1
44 FF 48 00
2042.25
3F 86 66 66
1.05
44 CF 34 CD
1657.65
00 00 00 00
0
43 BF B3 33
383.4
00 00 00 00
0
00 00 00 00
0
00 00 00 00
0
00 00 00 00
0
00 00 00 00
0
42 52 99 9A
52.65
00 00 00 00
0
42 3A 99 9A
46.65
00 00 00 00
0
40 BB 33 33
5.85
41 23 33 33
10.2
3E E6 66 66
0.45
40 DC CC CD
6.9
00 00 00 00
0
40 2C 1E B1
2.6893733
00 04 83 7C
295804
00 00 00 00
0
00 00 26 E1
9953
00 00 C3 66
50022
233.132233.749233.194404.26404.26403.74136.3319.6538.43816045908730214802310601920330846045908970214800.96210.975149.846531547.553.91266.150277.3500000114.60105.45099.450.756.601.81724.13.31321.350399.30000025.65022.802.8510.20.97.0502.12042.251.051657.650383.40000052.65046.6505.8510.20.456.902.68937334720171124123330295.80409.95350.022insert into tbl_power_info_v2(P_A_DIANYA,P_B_DIANYA,P_C_DIANYA,P_UAB_XIANDIANYA,P_UBC_XIANDIANYA,P_UCA_XIANDIANYA,P_A_DIANLIU,P_B_DIANLIU,P_C_DIANLIU,P_A_YGGL,P_B_YGGL,P_C_YGGL,P_HXYGGL,P_A_WGGL,P_B_WGGL,P_C_WGGL,P_HXWGGL,P_A_SZGL,P_B_SZGL,P_C_SZGL,P_HXSZGL,P_A_GLYS,P_B_GLYS,P_C_GLYS,P_HXGLYS,P_DWPL,P_BY_KwhZ,P_BY_KwhJ,P_BY_KwhF,P_BY_KwhP,P_BY_KwhG,P_BY_HKwhZ,P_BY_HKwhJ,P_BY_HKwhF,P_BY_HKwhP,P_BY_HKwhG, P_BY_KvarhZ,P_BY_KvarhJ,P_BY_KvarhF,P_BY_KvarhP,P_BY_KvarhG, P_BY_HKvarhZ,P_BY_HKvarhJ,P_BY_HKvarhF,P_BY_HKvarhP,P_BY_HKvarhG, P_SY_KwhZ,P_SY_KwhJ,P_SY_KwhF,P_SY_KwhP,P_SY_KwhG, P_SY_HKwhZ,P_SY_HKwhJ,P_SY_HKwhF,P_SY_HKwhP,P_SY_HKwhG, P_SY_KvarhZ,P_SY_KvarhJ,P_SY_KvarhF,P_SY_KvarhP,P_SY_KvarhG, P_SY_HKvarhZ,P_SY_HKvarhJ,P_SY_HKvarhF,P_SY_HKvarhP,P_SY_HKvarhG, P_SSY_KwhZ,P_SSY_KwhJ,P_SSY_KwhF,P_SSY_KwhP,P_SSY_KwhG, P_SSY_HKwhZ,P_SSY_HKwhJ,P_SSY_HKwhF,P_SSY_HKwhP,P_SSY_HKwhG, P_SSY_KvarhZ,P_SSY_KvarhJ,P_SSY_KvarhF,P_SSY_KvarhP,P_SSY_KvarhG, P_SSY_HKvarhZ,P_SSY_HKvarhJ,P_SSY_HKvarhF,P_SSY_HKvarhP,P_SSY_HKvarhG,P_CODE,P_TIME,P_ZXYGDN,P_FXYGDN,P_ZXWGDN,P_FXWGDN)values(233.132,233.749,233.194,404.26,404.26,403.741,36.33,19.65,38.43,8160,4590,8730,21480,2310,60,1920,330,8460,4590,8970,21480,0.962,1,0.975,1,49.84653,1547.55,3.9,1266.15,0,277.35,0,0,0,0,0,114.6,0,105.45,0,9,9.45,0.75,6.6,0,1.8,1724.1,3.3,1321.35,0,399.3,0,0,0,0,0,25.65,0,22.8,0,2.85,10.2,0.9,7.05,0,2.1,2042.25,1.05,1657.65,0,383.4,0,0,0,0,0,52.65,0,46.65,0,5.85,10.2,0.45,6.9,0,2.6893733,47,20171124123330,295.804,0,9.953,50.022)
写入成功读取完毕一个
write:30 03 00 38 00 34 C1 F1
30 03 68
4843 68 B0 E5 43 69 2D D3 43 68 C3 D7 43 C9 A7 6D 43 C9 B2 6F 43 C9 7B 02 41 05 EB 85 41 8E CC CD 41 7F D7 0A 44 99 C0 00 45 6C 40 00 45 0E 80 00 45 E4 C0 00 44 B7 C0 00 44 D5 C0 00 45 35 E0 00 45 BE 50 00 44 F3 C0 00 45 82 50 00 45 68 80 00 46 15 10 00 3F 22 D0 E5 3F 68 B4 39 3F 1D F3 B6 3F 44 9B A6 42 48 FE C8
write:30 03 07 CF 00 78 70 82
30 03 F0
48totalsize 240
44 27 10 00 41 C1 33 33 43 C0 99 9A 00 00 00 00 43 81 60 00 00 00 00 00 00 00 00 00 00 00 00 00 00 00 00 00 00 00 00 00 44 31 56 66 41 FA CC CD 43 C6 39 9A 00 00 00 00 43 8C C6 66 40 10 00 00 00 00 00 00 3F 86 66 66 00 00 00 00 3F 86 66 66 44 9C F4 CD 42 90 4C CD 44 39 96 66 00 00 00 00 43 DC 93 33 00 00 00 00 00 00 00 00 00 00 00 00 00 00 00 00 00 00 00 00 44 A1 3B 33 42 B2 33 33 44 37 43 33 00 00 00 00 43 E9 C6 66 40 E1 99 9A 00 00 00 00 40 A3 33 33 00 00 00 00 3F F9 99 9A 43 56 59 9A 40 10 00 00 43 15 B3 33 00 00 00 00 42 79 00 00 00 00 00 00 00 00 00 00 00 00 00 00 00 00 00 00 00 00 00 00 43 24 66 66 40 53 33 33 42 DC CC CD 00 00 00 00 42 4A CC CD 40 8B 33 33 00 00 00 00 40 49 99 9A 00 00 00 00 3F 86 B5 43
write:30 03 01 0F 00 08 71 D2
30 03 10
4800 01 18 19 00 00 00 00 00 01 1A C5 00 00 E4 B9
43 68 B0 E5
232.691
43 69 2D D3
233.179
43 68 C3 D7
232.765
43 C9 A7 6D
403.308
43 C9 B2 6F
403.394
43 C9 7B 02
402.961
41 05 EB 85
8.37
41 8E CC CD
17.85
41 7F D7 0A
15.99
44 99 C0 00
1230
45 6C 40 00
3780
45 0E 80 00
2280
45 E4 C0 00
7320
44 B7 C0 00
1470
44 D5 C0 00
1710
45 35 E0 00
2910
45 BE 50 00
6090
44 F3 C0 00
1950
45 82 50 00
4170
45 68 80 00
3720
46 15 10 00
9540
3F 22 D0 E5
0.636
3F 68 B4 39
0.909
3F 1D F3 B6
0.617
3F 44 9B A6
0.768
42 48 FE C8
50.24881
44 27 10 00
668.25
41 C1 33 33
24.15
43 C0 99 9A
385.2
00 00 00 00
0
43 81 60 00
258.75
00 00 00 00
0
00 00 00 00
0
00 00 00 00
0
00 00 00 00
0
00 00 00 00
0
44 31 56 66
709.35
41 FA CC CD
31.35
43 C6 39 9A
396.45
00 00 00 00
0
43 8C C6 66
281.55
40 10 00 00
2.25
00 00 00 00
0
3F 86 66 66
1.05
00 00 00 00
0
3F 86 66 66
1.05
44 9C F4 CD
1255.65
42 90 4C CD
72.15
44 39 96 66
742.35
00 00 00 00
0
43 DC 93 33
441.15
00 00 00 00
0
00 00 00 00
0
00 00 00 00
0
00 00 00 00
0
00 00 00 00
0
44 A1 3B 33
1289.85
42 B2 33 33
89.1
44 37 43 33
733.05
00 00 00 00
0
43 E9 C6 66
467.55
40 E1 99 9A
7.05
00 00 00 00
0
40 A3 33 33
5.1
00 00 00 00
0
3F F9 99 9A
1.95
43 56 59 9A
214.35
40 10 00 00
2.25
43 15 B3 33
149.7
00 00 00 00
0
42 79 00 00
62.25
00 00 00 00
0
00 00 00 00
0
00 00 00 00
0
00 00 00 00
0
00 00 00 00
0
43 24 66 66
164.4
40 53 33 33
3.3
42 DC CC CD
110.4
00 00 00 00
0
42 4A CC CD
50.7
40 8B 33 33
4.35
00 00 00 00
0
40 49 99 9A
3.15
00 00 00 00
0
3F 86 B5 43
1.0524067
00 01 18 19
71705
00 00 00 00
0
00 01 1A C5
72389
00 00 E4 B9
58553
232.691233.179232.765403.308403.394402.9618.3717.8515.991230378022807320147017102910609019504170372095400.6360.9090.6170.76850.24881668.2524.15385.20258.7500000709.3531.35396.450281.552.2501.0501.051255.6572.15742.350441.15000001289.8589.1733.050467.557.0505.101.95214.352.25149.7062.2500000164.43.3110.4050.74.3503.1501.0524067482017112412342971.705072.38958.553insert into tbl_power_info_v2(P_A_DIANYA,P_B_DIANYA,P_C_DIANYA,P_UAB_XIANDIANYA,P_UBC_XIANDIANYA,P_UCA_XIANDIANYA,P_A_DIANLIU,P_B_DIANLIU,P_C_DIANLIU,P_A_YGGL,P_B_YGGL,P_C_YGGL,P_HXYGGL,P_A_WGGL,P_B_WGGL,P_C_WGGL,P_HXWGGL,P_A_SZGL,P_B_SZGL,P_C_SZGL,P_HXSZGL,P_A_GLYS,P_B_GLYS,P_C_GLYS,P_HXGLYS,P_DWPL,P_BY_KwhZ,P_BY_KwhJ,P_BY_KwhF,P_BY_KwhP,P_BY_KwhG,P_BY_HKwhZ,P_BY_HKwhJ,P_BY_HKwhF,P_BY_HKwhP,P_BY_HKwhG, P_BY_KvarhZ,P_BY_KvarhJ,P_BY_KvarhF,P_BY_KvarhP,P_BY_KvarhG, P_BY_HKvarhZ,P_BY_HKvarhJ,P_BY_HKvarhF,P_BY_HKvarhP,P_BY_HKvarhG, P_SY_KwhZ,P_SY_KwhJ,P_SY_KwhF,P_SY_KwhP,P_SY_KwhG, P_SY_HKwhZ,P_SY_HKwhJ,P_SY_HKwhF,P_SY_HKwhP,P_SY_HKwhG, P_SY_KvarhZ,P_SY_KvarhJ,P_SY_KvarhF,P_SY_KvarhP,P_SY_KvarhG, P_SY_HKvarhZ,P_SY_HKvarhJ,P_SY_HKvarhF,P_SY_HKvarhP,P_SY_HKvarhG, P_SSY_KwhZ,P_SSY_KwhJ,P_SSY_KwhF,P_SSY_KwhP,P_SSY_KwhG, P_SSY_HKwhZ,P_SSY_HKwhJ,P_SSY_HKwhF,P_SSY_HKwhP,P_SSY_HKwhG, P_SSY_KvarhZ,P_SSY_KvarhJ,P_SSY_KvarhF,P_SSY_KvarhP,P_SSY_KvarhG, P_SSY_HKvarhZ,P_SSY_HKvarhJ,P_SSY_HKvarhF,P_SSY_HKvarhP,P_SSY_HKvarhG,P_CODE,P_TIME,P_ZXYGDN,P_FXYGDN,P_ZXWGDN,P_FXWGDN)values(232.691,233.179,232.765,403.308,403.394,402.961,8.37,17.85,15.99,1230,3780,2280,7320,1470,1710,2910,6090,1950,4170,3720,9540,0.636,0.909,0.617,0.768,50.24881,668.25,24.15,385.2,0,258.75,0,0,0,0,0,709.35,31.35,396.45,0,281.55,2.25,0,1.05,0,1.05,1255.65,72.15,742.35,0,441.15,0,0,0,0,0,1289.85,89.1,733.05,0,467.55,7.05,0,5.1,0,1.95,214.35,2.25,149.7,0,62.25,0,0,0,0,0,164.4,3.3,110.4,0,50.7,4.35,0,3.15,0,1.0524067,48,20171124123429,71.705,0,72.389,58.553)
写入成功读取完毕一个
write:31 03 00 38 00 34 C0 20
31 03 68
4943 68 33 B6 43 68 DD B2 43 68 5F 3B 43 C9 59 BA 43 C9 64 DD 43 C9 22 4E 00 00 00 00 00 00 00 00 00 00 00 00 00 00 00 00 00 00 00 00 00 00 00 00 00 00 00 00 00 00 00 00 00 00 00 00 00 00 00 00 00 00 00 00 00 00 00 00 00 00 00 00 00 00 00 00 00 00 00 00 00 00 00 00 00 00 00 00 00 00 00 00 00 00 00 00 42 48 B6 4D
write:31 03 07 CF 00 78 71 53
31 03 F0
49totalsize 240
42 16 66 66 41 73 33 33 41 8B 33 33 00 00 00 00 40 A0 00 00 00 00 00 00 00 00 00 00 00 00 00 00 00 00 00 00 00 00 00 00 42 10 CC CD 41 A4 CC CD 41 76 66 66 00 00 00 00 00 00 00 00 3F B3 33 33 00 00 00 00 3F 80 00 00 00 00 00 00 3E CC CC CD 43 88 CC CD 42 1E 66 66 43 04 00 00 00 00 00 00 42 CB 99 9A 00 00 00 00 00 00 00 00 00 00 00 00 00 00 00 00 00 00 00 00 43 B2 33 33 42 68 CC CD 43 1E 33 33 00 00 00 00 43 0B 99 9A 40 0C CC CD 00 00 00 00 3F CC CC CD 00 00 00 00 3F 19 99 9A 42 9A CC CD 42 73 33 33 41 7C CC CD 00 00 00 00 3E CC CC CD 00 00 00 00 00 00 00 00 00 00 00 00 00 00 00 00 00 00 00 00 42 E3 33 33 42 B6 CC CD 41 B0 00 00 00 00 00 00 00 00 00 00 00 00 00 00 00 00 00 00 00 00 00 00 00 00 00 00 00 00 ED D7
write:31 03 01 0F 00 08 70 03
31 03 10
4900 00 30 C1 00 00 00 00 00 00 41 22 00 00 A7 D4
43 68 33 B6
232.202
43 68 DD B2
232.866
43 68 5F 3B
232.372
43 C9 59 BA
402.701
43 C9 64 DD
402.788
43 C9 22 4E
402.268
00 00 00 00
0
00 00 00 00
0
00 00 00 00
0
00 00 00 00
0
00 00 00 00
0
00 00 00 00
0
00 00 00 00
0
00 00 00 00
0
00 00 00 00
0
00 00 00 00
0
00 00 00 00
0
00 00 00 00
0
00 00 00 00
0
00 00 00 00
0
00 00 00 00
0
00 00 00 00
0
00 00 00 00
0
00 00 00 00
0
00 00 00 00
0
42 48 B6 4D
50.17803
42 16 66 66
37.6
41 73 33 33
15.2
41 8B 33 33
17.4
00 00 00 00
0
40 A0 00 00
5
00 00 00 00
0
00 00 00 00
0
00 00 00 00
0
00 00 00 00
0
00 00 00 00
0
42 10 CC CD
36.2
41 A4 CC CD
20.6
41 76 66 66
15.4
00 00 00 00
0
00 00 00 00
0
3F B3 33 33
1.4
00 00 00 00
0
3F 80 00 00
1
00 00 00 00
0
3E CC CC CD
0.4
43 88 CC CD
273.6
42 1E 66 66
39.6
43 04 00 00
132
00 00 00 00
0
42 CB 99 9A
101.8
00 00 00 00
0
00 00 00 00
0
00 00 00 00
0
00 00 00 00
0
00 00 00 00
0
43 B2 33 33
356.4
