nohup: ignoring input
Listening on :6002
received messag ?->? 
 124.160.213.163:17608 172.16.246.153:6002
write:12 03 00 38 00 34 C7 73
12 03 68
1843 6E 3A 5E 43 6E 50 A4 43 6E AE D9 43 CE 54 9C 43 CE 80 E5 43 CE 75 E3 43 30 66 66 43 2D 66 66 43 20 51 EC 47 16 00 00 47 17 E0 00 47 11 C8 00 47 DF 98 00 00 00 00 00 00 00 00 00 00 00 00 00 00 00 00 00 00 00 00 00 00 00 00 00 00 00 00 00 00 00 00 00 00 00 00 00 00 00 00 00 00 00 00 00 00 00 00 00 00 00 00 00
00 46 07
heart:00 46 07 00 00 45 D9 80 00 45 CA 80 00 46 AB 90 00 47 20 C8 00 47 24 88 00 47 18 58 00 47 DE E4 00 3F 6B 85 1F 3F 69 78 D5 3F 6A 7E FA 3F 7B 22 D1 42 47 62 0C
write:12 03 07 CF 00 78 76 00
12 03 F0
18totalsize 240
47 8A C0 4D 46 30 3B 33 47 02 8B 66 00 00 00 00 46 CD CA 66 00 00 00 00 00 00 00 00 00 00 00 00 00 00 00 00 00 00 00 00 46 82 D6 66 45 1E 19 9A 46 08 CC CD 00 00 00 00 45 AA A9 9A 00 00 00 00 00 00 00 00 00 00 00 00 00 00 00 00 00 00 00 00 47 A9 B7 80 46 5C 9F 33 47 22 D6 CD 00 00 00 00 46 F2 DF 9A 00 00 00 00 00 00 00 00 00 00 00 00 00 00 00 00 00 00 00 00 46 B2 70 66 45 65 B9 9A 46 3A EB 33 00 00 00 00 45 E1 09 9A 00 00 00 00 00 00 00 00 00 00 00 00 00 00 00 00 00 00 00 00 47 82 8D CD 46 41 63 33 46 D4 77 33 00 00 00 00 46 D5 0E 66 00 00 00 00 00 00 00 00 00 00 00 00 00 00 00 00 00 00 00 00 46 95 B4 66 45 65 46 66 45 FB B3 33 00 00 00 00 45 E8 7B 33 00 00 00 00 00 00 00 00 00 00 00 00 00 00 00 00 00 00 D7 C9
write:12 03 01 0F 00 08 77 50
12 03 10
1800 40 87 5B 00 00 00 00 00 13 E2 00 00 00 00 00
43 6E 3A 5E
238.228
43 6E 50 A4
238.315
43 6E AE D9
238.683
43 CE 54 9C
412.661
43 CE 80 E5
413.007
43 CE 75 E3
412.921
43 30 66 66
176.4
43 2D 66 66
173.4
43 20 51 EC
160.32
47 16 00 00
38400
47 17 E0 00
38880
47 11 C8 00
37320
47 DF 98 00
114480
00 00 00 00
0
00 00 00 00
0
00 00 00 00
0
00 00 00 00
0
00 00 00 00
0
00 00 00 00
0
00 00 00 00
0
00 00 00 00
0
00 00 00 00
0
00 00 00 00
0
00 00 00 00
0
00 00 00 00
0
00 00 00 00
0
47 8A C0 4D
71040.6
46 30 3B 33
11278.8
47 02 8B 66
33419.4
00 00 00 00
0
46 CD CA 66
26341.2
00 00 00 00
0
00 00 00 00
0
00 00 00 00
0
00 00 00 00
0
00 00 00 00
0
46 82 D6 66
16747.2
45 1E 19 9A
2529.6
46 08 CC CD
8755.2
00 00 00 00
0
45 AA A9 9A
5461.2
00 00 00 00
0
00 00 00 00
0
00 00 00 00
0
00 00 00 00
0
00 00 00 00
0
47 A9 B7 80
86895
46 5C 9F 33
14119.8
47 22 D6 CD
41686.8
00 00 00 00
0
46 F2 DF 9A
31087.8
00 00 00 00
0
00 00 00 00
0
00 00 00 00
0
00 00 00 00
0
00 00 00 00
0
46 B2 70 66
22840.2
45 65 B9 9A
3675.6
46 3A EB 33
11962.8
00 00 00 00
0
45 E1 09 9A
7201.2
00 00 00 00
0
00 00 00 00
0
00 00 00 00
0
00 00 00 00
0
00 00 00 00
0
47 82 8D CD
66843.6
46 41 63 33
12376.8
46 D4 77 33
27195.6
00 00 00 00
0
46 D5 0E 66
27271.2
00 00 00 00
0
00 00 00 00
0
00 00 00 00
0
00 00 00 00
0
00 00 00 00
0
46 95 B4 66
19162.2
45 65 46 66
3668.4
45 FB B3 33
8054.4
00 00 00 00
0
45 E8 7B 33
7439.4
00 00 00 00
0
00 00 00 00
0
00 00 00 00
0
00 00 00 00
0
00 00 D7 C9
7.7409e-41
00 40 87 5B
4228955
00 00 00 00
0
00 13 E2 00
1303040
00 00 00 00
0
238.228238.315238.683412.661413.007412.921176.4173.4160.32384003888037320114480000000000000071040.611278.833419.4026341.20000016747.22529.68755.205461.2000008689514119.841686.8031087.80000022840.23675.611962.807201.20000066843.612376.827195.6027271.20000019162.23668.48054.407439.400007.7409e-4118201711250006574228.95501303.040insert into tbl_power_info_v2(P_A_DIANYA,P_B_DIANYA,P_C_DIANYA,P_UAB_XIANDIANYA,P_UBC_XIANDIANYA,P_UCA_XIANDIANYA,P_A_DIANLIU,P_B_DIANLIU,P_C_DIANLIU,P_A_YGGL,P_B_YGGL,P_C_YGGL,P_HXYGGL,P_A_WGGL,P_B_WGGL,P_C_WGGL,P_HXWGGL,P_A_SZGL,P_B_SZGL,P_C_SZGL,P_HXSZGL,P_A_GLYS,P_B_GLYS,P_C_GLYS,P_HXGLYS,P_DWPL,P_BY_KwhZ,P_BY_KwhJ,P_BY_KwhF,P_BY_KwhP,P_BY_KwhG,P_BY_HKwhZ,P_BY_HKwhJ,P_BY_HKwhF,P_BY_HKwhP,P_BY_HKwhG, P_BY_KvarhZ,P_BY_KvarhJ,P_BY_KvarhF,P_BY_KvarhP,P_BY_KvarhG, P_BY_HKvarhZ,P_BY_HKvarhJ,P_BY_HKvarhF,P_BY_HKvarhP,P_BY_HKvarhG, P_SY_KwhZ,P_SY_KwhJ,P_SY_KwhF,P_SY_KwhP,P_SY_KwhG, P_SY_HKwhZ,P_SY_HKwhJ,P_SY_HKwhF,P_SY_HKwhP,P_SY_HKwhG, P_SY_KvarhZ,P_SY_KvarhJ,P_SY_KvarhF,P_SY_KvarhP,P_SY_KvarhG, P_SY_HKvarhZ,P_SY_HKvarhJ,P_SY_HKvarhF,P_SY_HKvarhP,P_SY_HKvarhG, P_SSY_KwhZ,P_SSY_KwhJ,P_SSY_KwhF,P_SSY_KwhP,P_SSY_KwhG, P_SSY_HKwhZ,P_SSY_HKwhJ,P_SSY_HKwhF,P_SSY_HKwhP,P_SSY_HKwhG, P_SSY_KvarhZ,P_SSY_KvarhJ,P_SSY_KvarhF,P_SSY_KvarhP,P_SSY_KvarhG, P_SSY_HKvarhZ,P_SSY_HKvarhJ,P_SSY_HKvarhF,P_SSY_HKvarhP,P_SSY_HKvarhG,P_CODE,P_TIME,P_ZXYGDN,P_FXYGDN,P_ZXWGDN,P_FXWGDN)values(238.228,238.315,238.683,412.661,413.007,412.921,176.4,173.4,160.32,38400,38880,37320,114480,0,0,0,0,0,0,0,0,0,0,0,0,0,71040.6,11278.8,33419.4,0,26341.2,0,0,0,0,0,16747.2,2529.6,8755.2,0,5461.2,0,0,0,0,0,86895,14119.8,41686.8,0,31087.8,0,0,0,0,0,22840.2,3675.6,11962.8,0,7201.2,0,0,0,0,0,66843.6,12376.8,27195.6,0,27271.2,0,0,0,0,0,19162.2,3668.4,8054.4,0,7439.4,0,0,0,0,7.7409e-41,18,20171125000657,4228.955,0,1303.04,0)
写入成功读取完毕一个
69 00 00
heart:69 00 00 2A 29
write:13 03 00 38 00 34 C6 A2
13 03 68
1943 6E 3A 5E 43 6E A0 42 43 6E DA E1 43 CE 75 E3 43 CE B8 52 43 CE 8C 08 3F CC CC CD 3F 99 99 9A 40 0A 3D 71 43 70 00 00 00 00 00 00 43 C8 00 00 44 34 00 00 43 70 00 00 43 70 00 00 43 70 00 00 44 48 00 00 43 C8 00 00 43 A0 00 00 43 F0 00 00 44 82 00 00 3F 29 78 D5 3E 63 53 F8 3F 5B 64 5A 3F 33 74 BC 42 48 8B 5C
write:13 03 07 CF 00 78 77 D1
13 03 F0
19totalsize 240
44 9F 0C CD 42 D1 99 9A 44 47 E6 66 00 00 00 00 43 B7 99 9A 00 00 00 00 00 00 00 00 00 00 00 00 00 00 00 00 00 00 00 00 43 0F 33 33 3E CC CC CD 43 00 00 00 00 00 00 00 41 66 66 66 43 C9 CC CD 42 8F 33 33 43 1D 99 9A 00 00 00 00 43 2E 00 00 44 5A CC CD 42 BC 00 00 43 F7 66 66 00 00 00 00 43 8F 00 00 00 00 00 00 00 00 00 00 00 00 00 00 00 00 00 00 00 00 00 00 40 80 00 00 00 00 00 00 40 4C CC CD 00 00 00 00 3F 4C CC CD 44 1A 99 9A 42 C4 00 00 43 85 66 66 00 00 00 00 43 7D 33 33 44 DC A6 66 42 DB 33 33 44 8E CC CD 00 00 00 00 44 00 4C CD 00 00 00 00 00 00 00 00 00 00 00 00 00 00 00 00 00 00 00 00 42 5E 66 66 3E CC CC CD 42 21 99 9A 00 00 00 00 41 60 00 00 43 FE 00 00 42 B6 66 66 43 3F 99 9A 00 00 00 00 43 60 93 A1
write:13 03 01 0F 00 08 76 81
77 77 77
heart:77 77 77 2E 75 73 72 2E 63 6E
13 03 10
1900 02 93 0B 00 00 00 00 00 00 35 3F 00 00 83 01
43 6E 3A 5E
238.228
43 6E A0 42
238.626
43 6E DA E1
238.855
43 CE 75 E3
412.921
43 CE B8 52
413.44
43 CE 8C 08
413.094
3F CC CC CD
1.6
3F 99 99 9A
1.2
40 0A 3D 71
2.16
43 70 00 00
240
00 00 00 00
0
43 C8 00 00
400
44 34 00 00
720
43 70 00 00
240
43 70 00 00
240
43 70 00 00
240
44 48 00 00
800
43 C8 00 00
400
43 A0 00 00
320
43 F0 00 00
480
44 82 00 00
1040
3F 29 78 D5
0.662
3E 63 53 F8
0.222
3F 5B 64 5A
0.857
3F 33 74 BC
0.701
42 48 8B 5C
50.136093
44 9F 0C CD
1272.4
42 D1 99 9A
104.8
44 47 E6 66
799.6
00 00 00 00
0
43 B7 99 9A
367.2
00 00 00 00
0
00 00 00 00
0
00 00 00 00
0
00 00 00 00
0
00 00 00 00
0
43 0F 33 33
143.2
3E CC CC CD
0.4
43 00 00 00
128
00 00 00 00
0
41 66 66 66
14.4
43 C9 CC CD
403.6
42 8F 33 33
71.6
43 1D 99 9A
157.6
00 00 00 00
0
43 2E 00 00
174
44 5A CC CD
875.2
42 BC 00 00
94
43 F7 66 66
494.8
00 00 00 00
0
43 8F 00 00
286
00 00 00 00
0
00 00 00 00
0
00 00 00 00
0
00 00 00 00
0
00 00 00 00
0
40 80 00 00
4
00 00 00 00
0
40 4C CC CD
3.2
00 00 00 00
0
3F 4C CC CD
0.8
44 1A 99 9A
618.4
42 C4 00 00
98
43 85 66 66
266.8
00 00 00 00
0
43 7D 33 33
253.2
44 DC A6 66
1765.2
42 DB 33 33
109.6
44 8E CC CD
1142.4
00 00 00 00
0
44 00 4C CD
513.2
00 00 00 00
0
00 00 00 00
0
00 00 00 00
0
00 00 00 00
0
00 00 00 00
0
42 5E 66 66
55.6
3E CC CC CD
0.4
42 21 99 9A
40.4
00 00 00 00
0
41 60 00 00
14
43 FE 00 00
508
42 B6 66 66
91.2
43 3F 99 9A
191.6
00 00 00 00
0
43 60 93 A1
224.57668
00 02 93 0B
168715
00 00 00 00
0
00 00 35 3F
13631
00 00 83 01
33537
238.228238.626238.855412.921413.44413.0941.61.22.16240040072024024024080040032048010400.6620.2220.8570.70150.1360931272.4104.8799.60367.200000143.20.4128014.4403.671.6157.60174875.294494.8028600000403.200.8618.498266.80253.21765.2109.61142.40513.20000055.60.440.401450891.2191.60224.576681920171125000758168.715013.63133.537insert into tbl_power_info_v2(P_A_DIANYA,P_B_DIANYA,P_C_DIANYA,P_UAB_XIANDIANYA,P_UBC_XIANDIANYA,P_UCA_XIANDIANYA,P_A_DIANLIU,P_B_DIANLIU,P_C_DIANLIU,P_A_YGGL,P_B_YGGL,P_C_YGGL,P_HXYGGL,P_A_WGGL,P_B_WGGL,P_C_WGGL,P_HXWGGL,P_A_SZGL,P_B_SZGL,P_C_SZGL,P_HXSZGL,P_A_GLYS,P_B_GLYS,P_C_GLYS,P_HXGLYS,P_DWPL,P_BY_KwhZ,P_BY_KwhJ,P_BY_KwhF,P_BY_KwhP,P_BY_KwhG,P_BY_HKwhZ,P_BY_HKwhJ,P_BY_HKwhF,P_BY_HKwhP,P_BY_HKwhG, P_BY_KvarhZ,P_BY_KvarhJ,P_BY_KvarhF,P_BY_KvarhP,P_BY_KvarhG, P_BY_HKvarhZ,P_BY_HKvarhJ,P_BY_HKvarhF,P_BY_HKvarhP,P_BY_HKvarhG, P_SY_KwhZ,P_SY_KwhJ,P_SY_KwhF,P_SY_KwhP,P_SY_KwhG, P_SY_HKwhZ,P_SY_HKwhJ,P_SY_HKwhF,P_SY_HKwhP,P_SY_HKwhG, P_SY_KvarhZ,P_SY_KvarhJ,P_SY_KvarhF,P_SY_KvarhP,P_SY_KvarhG, P_SY_HKvarhZ,P_SY_HKvarhJ,P_SY_HKvarhF,P_SY_HKvarhP,P_SY_HKvarhG, P_SSY_KwhZ,P_SSY_KwhJ,P_SSY_KwhF,P_SSY_KwhP,P_SSY_KwhG, P_SSY_HKwhZ,P_SSY_HKwhJ,P_SSY_HKwhF,P_SSY_HKwhP,P_SSY_HKwhG, P_SSY_KvarhZ,P_SSY_KvarhJ,P_SSY_KvarhF,P_SSY_KvarhP,P_SSY_KvarhG, P_SSY_HKvarhZ,P_SSY_HKvarhJ,P_SSY_HKvarhF,P_SSY_HKvarhP,P_SSY_HKvarhG,P_CODE,P_TIME,P_ZXYGDN,P_FXYGDN,P_ZXWGDN,P_FXWGDN)values(238.228,238.626,238.855,412.921,413.44,413.094,1.6,1.2,2.16,240,0,400,720,240,240,240,800,400,320,480,1040,0.662,0.222,0.857,0.701,50.136093,1272.4,104.8,799.6,0,367.2,0,0,0,0,0,143.2,0.4,128,0,14.4,403.6,71.6,157.6,0,174,875.2,94,494.8,0,286,0,0,0,0,0,4,0,3.2,0,0.8,618.4,98,266.8,0,253.2,1765.2,109.6,1142.4,0,513.2,0,0,0,0,0,55.6,0.4,40.4,0,14,508,91.2,191.6,0,224.57668,19,20171125000758,168.715,0,13.631,33.537)
写入成功读取完毕一个
write:14 03 00 38 00 34 C7 15
write:14 03 07 CF 00 78 76 66
write:14 03 01 0F 00 08 77 36
write:15 03 00 38 00 34 C6 C4
write:15 03 07 CF 00 78 77 B7
write:15 03 01 0F 00 08 76 E7
write:16 03 00 38 00 34 C6 F7
write:16 03 07 CF 00 78 77 84
77 77 77
heart:77 77 77 2E 75 73 72 2E 63 6E
77 77 77
heart:77 77 77 2E 75 73 72 2E 63 6E
received messag ?->? 
 124.160.213.163:17952 172.16.246.153:6002
write:12 03 00 38 00 34 C7 73
77 77 77
heart:77 77 77 2E 75 73 72 2E 63 6E
14 03 68
2043 6E 46 E9 43 6E 7E 77 43 6E F2 2D 43 CE 5F 9E 43 CE AD 50 43 CE 97 0A 41 0A E1 48 40 DA E1 48 41 10 A3 D7 44 A5 00 00 44 70 00 00 44 AA 00 00 45 66 00 00 43 A0 00 00 43 8C 00 00 43 8C 00 00 44 5C 00 00 45 02 00 00 44 CD 00 00 45 07 00 00 45 6D 80 00 3F 25 A1 CB 3F 19 58 10 3F 21 06 25 3F 78 D4 FE 42 48 FF 19
FB F8 FF
heart:FB F8 FF C4 F3 FF FF E9 C7 FF EC F6 53 FE FF EF FB CE 75 C3 43 CE B8 52 43 CE A2 2D 00 00 00 00 00 B0 FF FD F9 23 00 00 00 00 00 00 00 00 00 00 00 00 00 00 00 00 00 00 00 00 00 00 00 00 00 00 00 00 00 00 00 00 00 00 00 00 00 00 00 00 00 00 00 00 00 00 00 00 00 00 00 00 00 00 00 00 00 00 00 00 00 04 00 00 00 00 42 48 69 31
write:16 03 01 0F 00 08 76 D4
write:12 03 07 CF 00 78 76 00
write:17 03 00 38 00 34 C7 26
77 77 77
heart:77 77 77 2E 75 73 72 2E 63 6E
12 03 F0
18totalsize 240
47 8A C4 CD 46 30 3B 33 47 02 8B 66 00 00 00 00 46 CD DC 66 00 00 00 00 00 00 00 00 00 00 00 00 00 00 00 00 00 00 00 00 46 82 DA 00 45 1E 19 9A 46 08 CC CD 00 00 00 00 45 AA B8 00 00 00 00 00 00 00 00 00 00 00 00 00 00 00 00 00 00 00 00 00 47 A9 B7 80 46 5C 9F 33 47 22 D6 CD 00 00 00 00 46 F2 DF 9A 00 00 00 00 00 00 00 00 00 00 00 00 00 00 00 00 00 00 00 00 46 B2 70 66 45 65 B9 9A 46 3A EB 33 00 00 00 00 45 E1 09 9A 00 00 00 00 00 00 00 00 00 00 00 00 00 00 00 00 00 00 00 00 47 82 8D CD 46 41 63 33 46 D4 77 33 00 00 00 00 46 D5 0E 66 00 00 00 00 00 00 00 00 00 00 00 00 00 00 00 00 00 00 00 00 46 95 B4 66 45 65 46 66 45 FB B3 33 00 00 00 00 45 E8 7B 33 00 00 00 00 00 00 00 00 00 00 00 00 00 00 00 00 00 00 9E AA
write:12 03 01 0F 00 08 77 50
write:17 03 07 CF 00 78 76 55
12 03 10
1800 40 87 A3 00 00 00 00 00 13 E2 78 00 00 53 4F
7E 7C 7B
heart:7E 7C 7B E2 A5 6E 35 81 43 6E 50 21 43 6E B5 C3 43 CE 54 9C 43 CE 8C 08 43 CE 80 E5 3F 61 47 AE 3F 4C CC CD 00 00 00 00 42 F0 00 00 42 F0 00 00 00 00 00 00 43 70 00 00 42 A0 00 00 42 A0 00 00 00 00 00 00 42 F0 00 00 43 48 00 00 43 48 00 00 00 00 00 00 43 8C 00 00 3E FD F3 B6 3F 36 45 A2 00 00 00 00 3F 63 12 6F 42 47 55 65
write:13 03 00 38 00 34 C6 A2
write:17 03 01 0F 00 08 77 05
write:13 03 07 CF 00 78 77 D1
write:18 03 00 38 00 34 C7 D9
write:13 03 01 0F 00 08 76 81
write:18 03 07 CF 00 78 76 AA
write:14 03 00 38 00 34 C7 15
write:18 03 01 0F 00 08 77 FA
write:14 03 07 CF 00 78 76 66
write:19 03 00 38 00 34 C6 08
write:14 03 01 0F 00 08 77 36
write:19 03 07 CF 00 78 77 7B
write:15 03 00 38 00 34 C6 C4
77 77 77
heart:77 77 77 2E 75 73 72 2E 63 6E
received messag ?->? 
 124.160.213.163:17953 172.16.246.153:6002
write:12 03 00 38 00 34 C7 73
17 03 10
2300 03 E7 C9 00 00 00 00 00 00 E7 64 00 00 7F 10
write:19 03 01 0F 00 08 76 2B
13 03 68
1943 6E 2F 5C 43 6E 66 E9 43 6E F0 E5 43 CE 54 9C 43 CE AD 50 43 CE 8C 08 3F CC CC CD 3F 99 99 9A 40 0A 3D 71 43 70 00 00 00 00 00 00 43 C8 00 00 44 34 00 00 43 70 00 00 43 70 00 00 43 70 00 00 44 48 00 00 43 C8 00 00 43 A0 00 00 43 F0 00 00 44 82 00 00 3F 29 78 D5 3E 58 10 62 3F 5B E7 6D 3F 32 F1 AA 42 48 86 D4
F9 F8 FF
heart:F9 F8 FF A2 EE FF FF F3 B3 FF EC F7 77 6E FA A0 43 CE 5F 9E 43 CE AD 50 43 CE 97 7E EF EB BF F9 6F FB F9 FF FF EB D7 FF FF 39 73 F1 FC 45 00 44 AA 00 00 45 66 00 00 43 A0
12 03 68
1843 6E 0C 4A 43 6E 6B C7 43 6E F5 3F 43 CE 49 79 43 CE AD 50 43 CE 80 E5 43 5C 33 33 43 1F 5C 29 43 26 CC CD 47 42 88 00 47 04 30 00 47 0F E8 00 47 EB 50 00 46 0A C0 00 45 BB 80 00 45 AC 80 00 46 A0 50 00 47 4C D8 00 47 14 98 00 47 1B A0 00 47 EE D4 00 86 73 3C 06 33 42 24 7C 00 13 44 0C 7D 00 0D 40 4C 0A 0F 42
FF 00 4B
heart:FF 00 4B 00 00 45 07 00 00 45 6B 00 00 3F 25 A1 CB 3F 19 16 87 3F 21 89 37 3F 78 D4 FE 42 48 35 06
write:15 03 07 CF 00 78 77 B7
write:12 03 07 CF 00 78 76 00
write:1A 03 00 38 00 34 C6 3B
77 77 77
heart:77 77 77 2E 75 73 72 2E 63 6E
write:15 03 01 0F 00 08 76 E7
write:12 03 01 0F 00 08 77 50
write:1A 03 07 CF 00 78 77 48
19 03 10
2500 00 F3 15 00 00 00 00 00 00 06 92 00 00 61 97
write:16 03 00 38 00 34 C6 F7
1A 03 68
2643 6E B0 21 43 6E C3 96 43 6F 21 48 43 CE AD 2F 43 FE EC EE FF CE D9 9A 00 00 00 00 40 21 47 AE 40 5E B8 52 00 00 00 00 43 B4 CB E1 FF F2 00 00 44 52 00 00 43 B4 00 00 43 F0 00 00 44 16 00 AA FF F6 28 02 43 B4 00 00 44 16 00 00 44 52 00 00 44 D2 00 00 3E 24 DD 2F 3F 14 39 58 3F 05 E3 54 3F 00 83 12 42 48 69 49
12 03 10
1800 40 87 D7 00 00 00 00 00 13 E2 81 00 00 3C 8F
43 6E 0C 4A
238.048
43 6E 6B C7
238.421
43 6E F5 3F
238.958
43 CE 49 79
412.574
43 CE AD 50
413.354
43 CE 80 E5
413.007
43 5C 33 33
220.2
43 1F 5C 29
159.36
43 26 CC CD
166.8
47 42 88 00
49800
47 04 30 00
33840
47 0F E8 00
36840
47 EB 50 00
120480
46 0A C0 00
8880
45 BB 80 00
6000
45 AC 80 00
5520
46 A0 50 00
20520
47 4C D8 00
52440
47 14 98 00
38040
47 1B A0 00
39840
47 EE D4 00
122280
86 73 3C 06
-4.574732e-35
33 42 24 7C
4.5202327e-08
00 13 44 0C
1.769285e-39
7D 00 0D 40
1.0638124e+37
4C 0A 0F 42
3.6191496e+07
47 8A C4 CD
71049.6
46 30 3B 33
11278.8
47 02 8B 66
33419.4
00 00 00 00
0
46 CD DC 66
26350.2
00 00 00 00
0
00 00 00 00
0
00 00 00 00
0
00 00 00 00
0
00 00 00 00
0
46 82 DA 00
16749
45 1E 19 9A
2529.6
46 08 CC CD
8755.2
00 00 00 00
0
45 AA B8 00
5463
00 00 00 00
0
00 00 00 00
0
00 00 00 00
0
00 00 00 00
0
00 00 00 00
0
47 A9 B7 80
86895
46 5C 9F 33
14119.8
47 22 D6 CD
41686.8
00 00 00 00
0
46 F2 DF 9A
31087.8
00 00 00 00
0
00 00 00 00
0
00 00 00 00
0
00 00 00 00
0
00 00 00 00
0
46 B2 70 66
22840.2
45 65 B9 9A
3675.6
46 3A EB 33
11962.8
00 00 00 00
0
45 E1 09 9A
7201.2
00 00 00 00
0
00 00 00 00
0
00 00 00 00
0
00 00 00 00
0
00 00 00 00
0
47 82 8D CD
66843.6
46 41 63 33
12376.8
46 D4 77 33
27195.6
00 00 00 00
0
46 D5 0E 66
27271.2
00 00 00 00
0
00 00 00 00
0
00 00 00 00
0
00 00 00 00
0
00 00 00 00
0
46 95 B4 66
19162.2
45 65 46 66
3668.4
45 FB B3 33
8054.4
00 00 00 00
0
45 E8 7B 33
7439.4
00 00 00 00
0
00 00 00 00
0
00 00 00 00
0
00 00 00 00
0
00 00 9E AA
5.6918e-41
00 40 87 D7
4229079
00 00 00 00
0
00 13 E2 81
1303169
00 00 3C 8F
15503
238.048238.421238.958412.574413.354413.007220.2159.36166.849800338403684012048088806000552020520524403804039840122280-4.574732e-354.5202327e-081.769285e-391.0638124e+373.6191496e+0771049.611278.833419.4026350.200000167492529.68755.205463000008689514119.841686.8031087.80000022840.23675.611962.807201.20000066843.612376.827195.6027271.20000019162.23668.48054.407439.400005.6918e-4118201711250014384229.07901303.16915.503insert into tbl_power_info_v2(P_A_DIANYA,P_B_DIANYA,P_C_DIANYA,P_UAB_XIANDIANYA,P_UBC_XIANDIANYA,P_UCA_XIANDIANYA,P_A_DIANLIU,P_B_DIANLIU,P_C_DIANLIU,P_A_YGGL,P_B_YGGL,P_C_YGGL,P_HXYGGL,P_A_WGGL,P_B_WGGL,P_C_WGGL,P_HXWGGL,P_A_SZGL,P_B_SZGL,P_C_SZGL,P_HXSZGL,P_A_GLYS,P_B_GLYS,P_C_GLYS,P_HXGLYS,P_DWPL,P_BY_KwhZ,P_BY_KwhJ,P_BY_KwhF,P_BY_KwhP,P_BY_KwhG,P_BY_HKwhZ,P_BY_HKwhJ,P_BY_HKwhF,P_BY_HKwhP,P_BY_HKwhG, P_BY_KvarhZ,P_BY_KvarhJ,P_BY_KvarhF,P_BY_KvarhP,P_BY_KvarhG, P_BY_HKvarhZ,P_BY_HKvarhJ,P_BY_HKvarhF,P_BY_HKvarhP,P_BY_HKvarhG, P_SY_KwhZ,P_SY_KwhJ,P_SY_KwhF,P_SY_KwhP,P_SY_KwhG, P_SY_HKwhZ,P_SY_HKwhJ,P_SY_HKwhF,P_SY_HKwhP,P_SY_HKwhG, P_SY_KvarhZ,P_SY_KvarhJ,P_SY_KvarhF,P_SY_KvarhP,P_SY_KvarhG, P_SY_HKvarhZ,P_SY_HKvarhJ,P_SY_HKvarhF,P_SY_HKvarhP,P_SY_HKvarhG, P_SSY_KwhZ,P_SSY_KwhJ,P_SSY_KwhF,P_SSY_KwhP,P_SSY_KwhG, P_SSY_HKwhZ,P_SSY_HKwhJ,P_SSY_HKwhF,P_SSY_HKwhP,P_SSY_HKwhG, P_SSY_KvarhZ,P_SSY_KvarhJ,P_SSY_KvarhF,P_SSY_KvarhP,P_SSY_KvarhG, P_SSY_HKvarhZ,P_SSY_HKvarhJ,P_SSY_HKvarhF,P_SSY_HKvarhP,P_SSY_HKvarhG,P_CODE,P_TIME,P_ZXYGDN,P_FXYGDN,P_ZXWGDN,P_FXWGDN)values(238.048,238.421,238.958,412.574,413.354,413.007,220.2,159.36,166.8,49800,33840,36840,120480,8880,6000,5520,20520,52440,38040,39840,122280,-4.574732e-35,4.5202327e-08,1.769285e-39,1.0638124e+37,3.6191496e+07,71049.6,11278.8,33419.4,0,26350.2,0,0,0,0,0,16749,2529.6,8755.2,0,5463,0,0,0,0,0,86895,14119.8,41686.8,0,31087.8,0,0,0,0,0,22840.2,3675.6,11962.8,0,7201.2,0,0,0,0,0,66843.6,12376.8,27195.6,0,27271.2,0,0,0,0,0,19162.2,3668.4,8054.4,0,7439.4,0,0,0,0,5.6918e-41,18,20171125001438,4229.079,0,1303.169,15.503)
写入成功读取完毕一个
FB FF EF
heart:FB FF EF F7 C4 00 00 18 94 00 00 00 00 00 00 1D 3D 00 00 8E 18
write:13 03 00 38 00 34 C6 A2
write:1A 03 01 0F 00 08 76 18
13 03 68
1943 6E 4E 14 43 6E B4 39 43 6F 47 6D 43 CE 8C 7E F5 FF BE 43 CE C3 75 3F CC CC CD 3F A3 D7 0A 40 0A 3D 71 43 70 00 00 00 00 00 00 43 C8 00 00 44 34 00 00 43 70 00 00 43 70 00 00 43 70 00 00 44 48 00 00 43 C8 00 00 43 A0 00 00 43 F0 00 00 44 82 00 00 3F 29 FB E7 3E 57 0A 3D 3F 5B E7 6D 3F 32 F1 AA 42 48 22 76 00
write:16 03 07 CF 00 78 77 84
write:13 03 07 CF 00 78 77 D1
write:1B 03 00 38 00 34 C7 EA
write:16 03 01 0F 00 08 76 D4
write:13 03 01 0F 00 08 76 81
write:1B 03 07 CF 00 78 76 99
write:17 03 00 38 00 34 C7 26
77 77 77
heart:77 77 77 2E 75 73 72 2E 63 6E
received messag ?->? 
 124.160.213.163:17954 172.16.246.153:6002
write:12 03 00 38 00 34 C7 73
1B 12 03
heart:1B 12 03 68 00 00 43 6E 30 A4 43 6E 6F 1B 43 6F 25 1F 43 CE 54 9C 43 CE C3 75 43 CE A2 2D 43 58 00 00 43 3B 33 33 43 27 E1 48 47 3B F8 00 47 1D 08 00 47 0E 08 00 47 F3 84 00 46 46 C0 00 46 30 40 00 46 16 00 00 47 03 40 00 47 49 18 00 47 2E 60 00 47 1D 08 00 47 FC 30 00 3F 6F 5C 29 3F 66 A7 F0 3F 68 31 27 3F
77 4B C7
heart:77 4B C7 42 48 FD 25
write:14 03 00 38 00 34 C7 15
write:1B 03 01 0F 00 08 77 C9
write:17 03 07 CF 00 78 76 55
1B 03 10
2700 02 2F A0 00 00 00 00 00 00 D9 B9 00 EC FD F9
14 03 68
2043 02 03 10 00 03 00 FF 00 93 0C 00 00 00 00 00 00 35 3F 00 00 99 75 00 00 00 00 00 00 00 00 00 00 00 00 00 00 00 00 00 00 00 00 00 00 00 00 00 00 00 00 00 00 00 00 00 00 00 00 00 00 00 00 00 00 00 00 00 00 00 00 00 00 00 00 00 00 00 00 00 00 00 00 00 00 00 00 00 00 00 00 00 00 00 00 00 00 00 00 00 00 00 00 00
50 43 6F
heart:50 43 6F 15 3F 43 CE 8C 08 43 CE D9 9A 43 CE AD 50 41 0A E1 48 40 DA E1 48 41 10 00 00 44 A5 00 00 44 70 00 00 44 AA 00 00 45 66 00 00 43 A0 00 00 43 8C 00 00 43 8C 00 00 44 5C 00 00 45 02 00 00 44 CD 00 00 45 07 00 00 45 6B 00 00 3F 25 A1 CB 3F 19 99 9A 3F 21 89 37 3F 78 D4 FE 42 48 26 05
write:12 03 07 CF 00 78 76 00
write:14 03 07 CF 00 78 76 66
write:1C 03 00 38 00 34 C6 5D
12 03 F0
18totalsize 240
47 8A C9 9A 46 30 3B 33 47 02 8B 66 00 00 00 00 46 CD EF 9A 00 00 00 00 00 00 00 00 00 00 00 00 00 00 00 00 00 00 00 00 46 82 DD 9A 45 1E 19 9A 46 08 CC CD 00 00 00 00 45 AA CB 33 00 00 00 00 00 00 00 00 00 00 00 00 00 00 00 00 00 00 00 00 47 A9 B7 80 46 5C 9F 33 47 22 D6 CD 00 00 00 00 46 F2 DF 9A 00 00 00 00 00 00 00 00 00 00 00 00 00 00 00 00 00 00 00 00 46 B2 70 66 45 65 B9 9A 46 3A EB 33 00 00 00 00 45 E1 09 9A 00 00 00 00 00 00 00 00 00 00 00 00 00 00 00 00 00 00 00 00 47 82 8D CD 46 41 63 33 46 D4 77 33 00 00 00 00 46 D5 0E 66 00 00 00 00 00 00 00 00 00 00 00 00 00 00 00 00 00 00 00 00 46 95 B4 66 45 65 46 66 45 FB B3 33 00 00 00 00 45 E8 7B 33 00 00 00 00 00 00 00 00 00 00 00 00 00 00 00 00 00 00 41 40
14 03 F0
20totalsize 240
44 9D 8C CD 43 C7 99 9A 43 90 CC CD 00 00 CB EF F7 FA E6 66 00 00 00 00 00 00 00 00 00 00 00 00 00 00 00 F9 E1 EF BA 00 40 0C CC CD 00 00 00 00 40 0C CC CD 00 00 00 00 00 00 00 00 43 91 E6 66 42 BE 66 66 42 7A 66 66 00 00 00 00 43 05 CC CD 44 AC 73 33 43 E0 33 33 43 9A 66 66 00 00 00 00 44 1B 8C CD 00 00 00 00 00 00 00 00 00 00 00 00 00 00 00 00 00 00 00 00 40 99 99 9A 00 00 00 00 40 93 33 33 00 00 00 00 00 00 00 00 43 9B 80 00 42 D2 66 66 42 76 66 66 00 00 00 00 43 10 00 00 44 A4 D9 9A 43 ED 99 9A 43 78 66 66 00 00 00 00 44 14 C0 00 00 00 00 00 00 00 00 00 00 00 00 00 00 00 00 00 00 00 00 00 3F 4C CC CD 00 00 00 00 3F 4C CC CD 00 00 00 00 00 00 00 00 43 8C 66 66 42 D1 33 33 42 3B 33 33 00 00 00 00 43 01 B1 06
7E 7C 7B
heart:7E 7C 7B E2 A5 6E 69 BA 43 6E A4 9C 43 6F 2D 50 43 CE 8C 08 43 CE D9 9A 43 CE C3 75 41 27 0A 3D 3F 61 47 AE 00 00 00 00 45 1B 00 00 43 20 00 00 00 00 00 00 45 25 00 00 42 A0 00 00 42 A0 00 00 00 00 00 00 43 20 00 00 45 1B 00 00 43 48 00 00 00 00 00 00 45 25 00 00 3F 7F 3B 64 3F 3E 35 3F 00 00 00 00 3F 7F 7C EE 42 48 90 50
write:17 03 01 0F 00 08 77 05
17 03 10
2300 03 E7 CB 00 00 00 00 00 00 E7 64 00 00 74 A8
write:12 03 01 0F 00 08 77 50
12 03 10
1800 40 87 F6 00 00 00 00 00 13 E2 88 00 00 43 B1
write:14 03 01 0F 00 08 77 36
write:1C 03 07 CF 00 78 77 2E
14 03 10
2000 04 18 71 00 00 00 00 00 00 13 51 00 00 39 9A
43 02 03 10
130.01196
00 03 00 FF
2.75864e-40
00 93 0C 00
1.3504123e-38
00 00 00 00
0
00 35 3F 00
4.889881e-39
00 99 75 00
1.4092803e-38
00 00 00 00
0
00 00 00 00
0
00 00 00 00
0
00 00 00 00
0
00 00 00 00
0
00 00 00 00
0
00 00 00 00
0
00 00 00 00
0
00 00 00 00
0
00 00 00 00
0
00 00 00 00
0
00 00 00 00
0
00 00 00 00
0
00 00 00 00
0
00 00 00 00
0
00 00 00 00
0
00 00 00 00
0
00 00 00 00
0
00 00 00 00
0
00 00 00 00
0
44 9D 8C CD
1260.4
43 C7 99 9A
399.2
43 90 CC CD
289.6
00 00 CB EF
7.3158e-41
F7 FA E6 66
-1.0177713e+34
00 00 00 00
0
00 00 00 00
0
00 00 00 00
0
00 00 00 F9
3.49e-43
E1 EF BA 00
-5.5277182e+20
40 0C CC CD
2.2
00 00 00 00
0
40 0C CC CD
2.2
00 00 00 00
0
00 00 00 00
0
43 91 E6 66
291.8
42 BE 66 66
95.2
42 7A 66 66
62.6
00 00 00 00
0
43 05 CC CD
133.8
44 AC 73 33
1379.6
43 E0 33 33
448.4
43 9A 66 66
308.8
00 00 00 00
0
44 1B 8C CD
622.2
00 00 00 00
0
00 00 00 00
0
00 00 00 00
0
00 00 00 00
0
00 00 00 00
0
40 99 99 9A
4.8
00 00 00 00
0
40 93 33 33
4.6
00 00 00 00
0
00 00 00 00
0
43 9B 80 00
311
42 D2 66 66
105.2
42 76 66 66
61.6
00 00 00 00
0
43 10 00 00
144
44 A4 D9 9A
1318.8
43 ED 99 9A
475.2
43 78 66 66
248.4
00 00 00 00
0
44 14 C0 00
595
00 00 00 00
0
00 00 00 00
0
00 00 00 00
0
00 00 00 00
0
00 00 00 00
0
3F 4C CC CD
0.8
00 00 00 00
0
3F 4C CC CD
0.8
00 00 00 00
0
00 00 00 00
0
43 8C 66 66
280.8
42 D1 33 33
104.6
42 3B 33 33
46.8
00 00 00 00
0
43 01 B1 06
129.6915
00 04 18 71
268401
00 00 00 00
0
00 00 13 51
4945
00 00 39 9A
14746
130.011962.75864e-401.3504123e-3804.889881e-391.4092803e-38000000000000000000001260.4399.2289.67.3158e-41-1.0177713e+340003.49e-43-5.5277182e+202.202.200291.895.262.60133.81379.6448.4308.80622.2000004.804.600311105.261.601441318.8475.2248.40595000000.800.800280.8104.646.80129.69152020171125001625268.40104.94514.746insert into tbl_power_info_v2(P_A_DIANYA,P_B_DIANYA,P_C_DIANYA,P_UAB_XIANDIANYA,P_UBC_XIANDIANYA,P_UCA_XIANDIANYA,P_A_DIANLIU,P_B_DIANLIU,P_C_DIANLIU,P_A_YGGL,P_B_YGGL,P_C_YGGL,P_HXYGGL,P_A_WGGL,P_B_WGGL,P_C_WGGL,P_HXWGGL,P_A_SZGL,P_B_SZGL,P_C_SZGL,P_HXSZGL,P_A_GLYS,P_B_GLYS,P_C_GLYS,P_HXGLYS,P_DWPL,P_BY_KwhZ,P_BY_KwhJ,P_BY_KwhF,P_BY_KwhP,P_BY_KwhG,P_BY_HKwhZ,P_BY_HKwhJ,P_BY_HKwhF,P_BY_HKwhP,P_BY_HKwhG, P_BY_KvarhZ,P_BY_KvarhJ,P_BY_KvarhF,P_BY_KvarhP,P_BY_KvarhG, P_BY_HKvarhZ,P_BY_HKvarhJ,P_BY_HKvarhF,P_BY_HKvarhP,P_BY_HKvarhG, P_SY_KwhZ,P_SY_KwhJ,P_SY_KwhF,P_SY_KwhP,P_SY_KwhG, P_SY_HKwhZ,P_SY_HKwhJ,P_SY_HKwhF,P_SY_HKwhP,P_SY_HKwhG, P_SY_KvarhZ,P_SY_KvarhJ,P_SY_KvarhF,P_SY_KvarhP,P_SY_KvarhG, P_SY_HKvarhZ,P_SY_HKvarhJ,P_SY_HKvarhF,P_SY_HKvarhP,P_SY_HKvarhG, P_SSY_KwhZ,P_SSY_KwhJ,P_SSY_KwhF,P_SSY_KwhP,P_SSY_KwhG, P_SSY_HKwhZ,P_SSY_HKwhJ,P_SSY_HKwhF,P_SSY_HKwhP,P_SSY_HKwhG, P_SSY_KvarhZ,P_SSY_KvarhJ,P_SSY_KvarhF,P_SSY_KvarhP,P_SSY_KvarhG, P_SSY_HKvarhZ,P_SSY_HKvarhJ,P_SSY_HKvarhF,P_SSY_HKvarhP,P_SSY_HKvarhG,P_CODE,P_TIME,P_ZXYGDN,P_FXYGDN,P_ZXWGDN,P_FXWGDN)values(130.01196,2.75864e-40,1.3504123e-38,0,4.889881e-39,1.4092803e-38,0,0,0,0,0,0,0,0,0,0,0,0,0,0,0,0,0,0,0,0,1260.4,399.2,289.6,7.3158e-41,-1.0177713e+34,0,0,0,3.49e-43,-5.5277182e+20,2.2,0,2.2,0,0,291.8,95.2,62.6,0,133.8,1379.6,448.4,308.8,0,622.2,0,0,0,0,0,4.8,0,4.6,0,0,311,105.2,61.6,0,144,1318.8,475.2,248.4,0,595,0,0,0,0,0,0.8,0,0.8,0,0,280.8,104.6,46.8,0,129.6915,20,20171125001625,268.401,0,4.945,14.746)
写入成功读取完毕一个
write:18 03 00 38 00 34 C7 D9
write:13 03 00 38 00 34 C6 A2
write:15 03 00 38 00 34 C6 C4
write:1C 03 01 0F 00 08 76 7E
18 03 68
2443 6E 70 E5 43 6E A6 E9 43 6F 00 83 43 CE 8C 08 43 CE CE 77 43 CE B8 52 3F 80 00 00 3F 4C CC CD 00 00 00 00 43 20 00 00 42 A0 00 00 42 A0 00 00 43 A0 00 00 00 00 00 00 42 A0 00 00 42 A0 00 00 42 A0 00 00 43 70 00 00 43 48 00 00 42 F0 00 00 43 B4 00 00 3F 25 60 42 3E F3 B6 46 3F 43 D7 0A 3F 78 D4 FE 42 48 0A BD
13 03 68
1943 6E 5B 23 43 6E AC 8B 43 6E F7 0A 43 FF EF F7 C7 CE C3 75 43 CE A2 2D 3F CC CC CD 3F 99 99 9A 40 0A 3D FF FF FE EF 04 00 00 00 00 43 C8 00 00 44 34 00 00 43 70 00 00 43 70 00 00 43 70 00 00 44 48 00 00 43 C8 00 00 43 A0 00 00 43 F0 00 00 44 82 00 00 3F 28 F5 C3 3E 58 10 62 3F 5C 28 F6 3F 32 F1 AA 42 48 7A 41
write:18 03 07 CF 00 78 76 AA
write:13 03 07 CF 00 78 77 D1
write:15 03 07 CF 00 78 77 B7
write:1D 03 00 38 00 34 C7 8C
18 03 F0
24totalsize 240
44 5E 4C CD 43 54 33 33 43 F2 99 9A 00 00 00 00 43 3F 99 9A 00 00 00 00 00 00 00 00 00 00 00 00 00 00 00 00 00 00 00 00 43 33 00 00 41 DE 66 66 42 D4 00 00 00 00 00 00 42 34 00 00 41 D3 33 33 40 F3 33 33 41 73 33 33 00 00 00 00 40 66 66 66 44 19 99 9A 43 00 00 00 43 A7 CC CD 00 00 00 00 43 16 99 9A 00 00 00 00 00 00 00 00 00 00 00 00 00 00 00 00 00 00 00 00 42 45 99 9A 3F 80 00 00 42 09 99 9A 00 00 00 00 41 60 00 00 42 0A 66 66 41 00 00 00 41 AC CC CD 00 00 00 00 40 99 99 9A 44 3F E6 66 43 0C 33 33 43 D9 E6 66 00 00 00 00 43 3F 66 66 00 00 00 00 00 00 00 00 00 00 00 00 00 00 00 00 00 00 00 00 43 A3 99 9A 41 A8 00 00 43 6C 99 9A 00 00 00 00 42 8A CC CD 42 1B 33 33 41 23 33 33 41 A6 66 66 00 00 00 00 40 F9 B4 BD
13 03 F0
19write:18 03 01 0F 00 08 77 FA
totalsize 260
44 9F 0C CD 42 D1 99 9A 44 47 E6 66 00 00 00 5D FF DD CD 00 00 00 00 00 00 00 00 00 00 00 00 00 00 00 00 00 00 F9 EF F7 9F 33 33 3E CC CC CD 43 00 00 00 00 00 00 00 41 66 66 66 43 C9 CC CD 42 8F 33 33 43 1D 99 9A 00 00 00 00 43 2E 00 00 44 5A CC CD 42 BC 00 00 43 F7 66 66 00 00 00 00 43 8F 00 00 00 00 00 00 00 00 00 00 00 00 00 00 00 00 00 00 00 00 00 00 40 80 00 00 00 00 00 00 40 4C CC CD 00 00 00 00 3F 4C CC CD 44 1A 99 9A 42 C4 00 00 43 85 66 66 00 00 00 00 43 7D 33 33 44 DC A6 66 42 DB 33 33 44 8E CC CD 00 00 00 00 44 00 4C CD 00 00 00 00 00 00 00 00 00 00 00 00 00 00 00 00 00 00 00 00 42 5E 66 66 3E CC CC CD 42 21 99 9A 00 00 00 00 41 60 00 00 43 FE 00 00 42 B6 66 66 43 3F 99 9A 00 00 00 00 43 60 B4 EB 18 03 10 00 00 00 02 01 9F 00 00 00 00 00 00 C6 14 00 00 B4 1C
write:13 03 01 0F 00 08 76 81
13 03 10
1900 02 93 0C 00 00 00 00 00 00 35 3F 00 00 00 00
43 6E 5B 23
238.356
43 6E AC 8B
238.674
43 6E F7 0A
238.965
43 FF EF F7
511.87473
C7 CE C3 75
-105862.914
43 CE A2 2D
413.267
3F CC CC CD
1.6
3F 99 99 9A
1.2
40 0A 3D FF
2.160034
FF FE EF 04
NaN
00 00 00 00
0
43 C8 00 00
400
44 34 00 00
720
43 70 00 00
240
43 70 00 00
240
43 70 00 00
240
44 48 00 00
800
43 C8 00 00
400
43 A0 00 00
320
43 F0 00 00
480
44 82 00 00
1040
3F 28 F5 C3
0.66
3E 58 10 62
0.211
3F 5C 28 F6
0.86
3F 32 F1 AA
0.699
42 48 7A 41
50.11939
44 9F 0C CD
1272.4
42 D1 99 9A
104.8
44 47 E6 66
799.6
00 00 00 5D
1.3e-43
FF DD CD 00
NaN
00 00 00 00
0
00 00 00 00
0
00 00 00 00
0
00 00 00 00
0
00 F9 EF F7
2.2953122e-38
9F 33 33 3E
-3.794711e-20
CC CC CD 43
-1.0737513e+08
00 00 00 00
0
00 00 00 41
9.1e-44
66 66 66 43
2.7200767e+23
C9 CC CD 42
-1.6777362e+06
8F 33 33 43
-8.835254e-30
1D 99 9A 00
4.0657995e-21
00 00 00 43
9.4e-44
2E 00 00 44
2.9104066e-11
5A CC CD 42
2.882329e+16
BC 00 00 43
-0.007812562
F7 66 66 00
-4.6730355e+33
00 00 00 43
9.4e-44
8F 00 00 00
-6.3108872e-30
00 00 00 00
0
00 00 00 00
0
00 00 00 00
0
00 00 00 00
0
00 00 00 40
9e-44
80 00 00 00
-0
00 00 00 40
9e-44
4C CC CD 00
1.0737459e+08
00 00 00 3F
8.8e-44
4C CC CD 44
1.0737514e+08
1A 99 9A 42
6.3528534e-23
C4 00 00 43
-512.0041
85 66 66 00
-1.08332825e-35
00 00 00 43
9.4e-44
7D 33 33 44
1.4887375e+37
DC A6 66 42
-3.7469824e+17
DB 33 33 44
-5.044039e+16
8E CC CD 00
-5.048729e-30
00 00 00 44
9.5e-44
00 4C CD 00
7.053038e-39
00 00 00 00
0
00 00 00 00
0
00 00 00 00
0
00 00 00 00
0
00 00 00 42
9.2e-44
5E 66 66 3E
4.1505063e+18
CC CC CD 42
-1.0737512e+08
21 99 9A 00
1.0408447e-18
00 00 00 41
9.1e-44
60 00 00 43
3.6893783e+19
FE 00 00 42
-4.253563e+37
B6 66 66 43
-3.4332195e-06
3F 99 9A 00
1.2000122
00 00 00 43
9.4e-44
60 B4 EB 18
1.0429232e+20
03 10 00 00
4.2317797e-37
00 02 01 9F
1.84253e-40
00 00 00 00
0
00 00 C6 14
7.1057e-41
00 00 B4 1C
6.4611e-41
00 02 93 0C
168716
00 00 00 00
0
00 00 35 3F
13631
00 00 00 00
0
238.356238.674238.965511.87473-105862.914413.2671.61.22.160034NaN040072024024024080040032048010400.660.2110.860.69950.119391272.4104.8799.61.3e-43NaN00002.2953122e-38-3.794711e-20-1.0737513e+0809.1e-442.7200767e+23-1.6777362e+06-8.835254e-304.0657995e-219.4e-442.9104066e-112.882329e+16-0.007812562-4.6730355e+339.4e-44-6.3108872e-3000009e-44-09e-441.0737459e+088.8e-441.0737514e+086.3528534e-23-512.0041-1.08332825e-359.4e-441.4887375e+37-3.7469824e+17-5.044039e+16-5.048729e-309.5e-447.053038e-3900009.2e-444.1505063e+18-1.0737512e+081.0408447e-189.1e-443.6893783e+19-4.253563e+37-3.4332195e-061.20001229.4e-441.0429232e+204.2317797e-371.84253e-4007.1057e-416.4611e-411920171125001723168.716013.6310insert into tbl_power_info_v2(P_A_DIANYA,P_B_DIANYA,P_C_DIANYA,P_UAB_XIANDIANYA,P_UBC_XIANDIANYA,P_UCA_XIANDIANYA,P_A_DIANLIU,P_B_DIANLIU,P_C_DIANLIU,P_A_YGGL,P_B_YGGL,P_C_YGGL,P_HXYGGL,P_A_WGGL,P_B_WGGL,P_C_WGGL,P_HXWGGL,P_A_SZGL,P_B_SZGL,P_C_SZGL,P_HXSZGL,P_A_GLYS,P_B_GLYS,P_C_GLYS,P_HXGLYS,P_DWPL,P_BY_KwhZ,P_BY_KwhJ,P_BY_KwhF,P_BY_KwhP,P_BY_KwhG,P_BY_HKwhZ,P_BY_HKwhJ,P_BY_HKwhF,P_BY_HKwhP,P_BY_HKwhG, P_BY_KvarhZ,P_BY_KvarhJ,P_BY_KvarhF,P_BY_KvarhP,P_BY_KvarhG, P_BY_HKvarhZ,P_BY_HKvarhJ,P_BY_HKvarhF,P_BY_HKvarhP,P_BY_HKvarhG, P_SY_KwhZ,P_SY_KwhJ,P_SY_KwhF,P_SY_KwhP,P_SY_KwhG, P_SY_HKwhZ,P_SY_HKwhJ,P_SY_HKwhF,P_SY_HKwhP,P_SY_HKwhG, P_SY_KvarhZ,P_SY_KvarhJ,P_SY_KvarhF,P_SY_KvarhP,P_SY_KvarhG, P_SY_HKvarhZ,P_SY_HKvarhJ,P_SY_HKvarhF,P_SY_HKvarhP,P_SY_HKvarhG, P_SSY_KwhZ,P_SSY_KwhJ,P_SSY_KwhF,P_SSY_KwhP,P_SSY_KwhG, P_SSY_HKwhZ,P_SSY_HKwhJ,P_SSY_HKwhF,P_SSY_HKwhP,P_SSY_HKwhG, P_SSY_KvarhZ,P_SSY_KvarhJ,P_SSY_KvarhF,P_SSY_KvarhP,P_SSY_KvarhG, P_SSY_HKvarhZ,P_SSY_HKvarhJ,P_SSY_HKvarhF,P_SSY_HKvarhP,P_SSY_HKvarhG,P_CODE,P_TIME,P_ZXYGDN,P_FXYGDN,P_ZXWGDN,P_FXWGDN)values(238.356,238.674,238.965,511.87473,-105862.914,413.267,1.6,1.2,2.160034,NaN,0,400,720,240,240,240,800,400,320,480,1040,0.66,0.211,0.86,0.699,50.11939,1272.4,104.8,799.6,1.3e-43,NaN,0,0,0,0,2.2953122e-38,-3.794711e-20,-1.0737513e+08,0,9.1e-44,2.7200767e+23,-1.6777362e+06,-8.835254e-30,4.0657995e-21,9.4e-44,2.9104066e-11,2.882329e+16,-0.007812562,-4.6730355e+33,9.4e-44,-6.3108872e-30,0,0,0,0,9e-44,-0,9e-44,1.0737459e+08,8.8e-44,1.0737514e+08,6.3528534e-23,-512.0041,-1.08332825e-35,9.4e-44,1.4887375e+37,-3.7469824e+17,-5.044039e+16,-5.048729e-30,9.5e-44,7.053038e-39,0,0,0,0,9.2e-44,4.1505063e+18,-1.0737512e+08,1.0408447e-18,9.1e-44,3.6893783e+19,-4.253563e+37,-3.4332195e-06,1.2000122,9.4e-44,1.0429232e+20,4.2317797e-37,1.84253e-40,0,7.1057e-41,6.4611e-41,19,20171125001723,168.716,0,13.631,0)
Error 1136: Column count doesn't match value count at row 1
写入成功panic: runtime error: invalid memory address or nil pointer dereference
[signal SIGSEGV: segmentation violation code=0x1 addr=0x0 pc=0x5125a5]

goroutine 11 [running]:
database/sql.(*Rows).close(0x0, 0x0, 0x0, 0x0, 0x0)
	/usr/local/soft/go/src/database/sql/sql.go:2742 +0x75
database/sql.(*Rows).Close(0x0, 0x0, 0x0)
	/usr/local/soft/go/src/database/sql/sql.go:2738 +0x3d
main.insert(0xc4201861e0)
	/root/work/go/readwrite/gostu/src/main/main2006.go:100 +0x456
main.HandData(0x5ead13, 0xc42006c6c0)
	/root/work/go/readwrite/gostu/src/main/main2006.go:154 +0x36e
main.handleRead(0x719c80, 0xc42000e058)
	/root/work/go/readwrite/gostu/src/main/main2006.go:246 +0xc39
created by main.main
	/root/work/go/readwrite/gostu/src/main/main2006.go:131 +0x409
exit status 2
