Listening on :6002
received messag ?->? 
 124.160.213.16:14245 172.16.246.153:6002
write:12 03 00 38 00 34 C7 73
12 03 68
18totalsize 104
43 6D A1 06 43 6E 7A 1D 43 6D 43 54 43 CE 1D 2F 43 CD F0 E5 43 CD 98 10 43 37 B8 52 43 2C 8F 5C 43 2E 00 00 47 1F 60 00 47 07 00 00 47 0C 28 00 47 D9 44 00 46 05 20 00 45 87 00 00 45 83 40 00 46 86 10 00 47 2E 60 00 47 18 D0 00 47 17 E0 00 47 DB D8 00 3F 69 78 D5 3F 65 1E B8 3F 6D D2 F2 3F 7D 2F 1B 42 48 94 3D
write:12 03 07 CF 00 78 76 00
12 03 F0
18totalsize 240
47 94 59 4D 46 3A 70 CD 47 0C 32 CD 00 00 00 00 46 DB C6 00 00 00 00 00 00 00 00 00 00 00 00 00 00 00 00 00 00 00 00 00 46 8B 1D 9A 45 26 D6 66 46 11 FA 66 00 00 00 00 45 B5 0C CD 00 00 00 00 00 00 00 00 00 00 00 00 00 00 00 00 00 00 00 00 47 A9 B7 80 46 5C 9F 33 47 22 D6 CD 00 00 00 00 46 F2 DF 9A 00 00 00 00 00 00 00 00 00 00 00 00 00 00 00 00 00 00 00 00 46 B2 70 66 45 65 B9 9A 46 3A EB 33 00 00 00 00 45 E1 09 9A 00 00 00 00 00 00 00 00 00 00 00 00 00 00 00 00 00 00 00 00 47 82 8D CD 46 41 63 33 46 D4 77 33 00 00 00 00 46 D5 0E 66 00 00 00 00 00 00 00 00 00 00 00 00 00 00 00 00 00 00 00 00 46 95 B4 66 45 65 46 66 45 FB B3 33 00 00 00 00 45 E8 7B 33 00 00 00 00 00 00 00 00 00 00 00 00 00 00 00 00 00 00 6F 67
write:12 03 01 0F 00 08 77 50
write:13 03 00 38 00 34 C6 A2
77 77 77
heart:77 77 77 2E 75 73 72 2E 63 6E
12 03 10
1800 41 27 59 00 00 00 00 00 14 04 E6 00 00 13 B2
43 6D A1 06
237.629
43 6E 7A 1D
238.477
43 6D 43 54
237.263
43 CE 1D 2F
412.228
43 CD F0 E5
411.882
43 CD 98 10
411.188
43 37 B8 52
183.72
43 2C 8F 5C
172.56
43 2E 00 00
174
47 1F 60 00
40800
47 07 00 00
34560
47 0C 28 00
35880
47 D9 44 00
111240
46 05 20 00
8520
45 87 00 00
4320
45 83 40 00
4200
46 86 10 00
17160
47 2E 60 00
44640
47 18 D0 00
39120
47 17 E0 00
38880
47 DB D8 00
112560
3F 69 78 D5
0.912
3F 65 1E B8
0.895
3F 6D D2 F2
0.929
3F 7D 2F 1B
0.989
42 48 94 3D
50.144764
47 94 59 4D
75954.6
46 3A 70 CD
11932.2
47 0C 32 CD
35890.8
00 00 00 00
0
46 DB C6 00
28131
00 00 00 00
0
00 00 00 00
0
00 00 00 00
0
00 00 00 00
0
00 00 00 00
0
46 8B 1D 9A
17806.8
45 26 D6 66
2669.4
46 11 FA 66
9342.6
00 00 00 00
0
45 B5 0C CD
5793.6
00 00 00 00
0
00 00 00 00
0
00 00 00 00
0
00 00 00 00
0
00 00 00 00
0
47 A9 B7 80
86895
46 5C 9F 33
14119.8
47 22 D6 CD
41686.8
00 00 00 00
0
46 F2 DF 9A
31087.8
00 00 00 00
0
00 00 00 00
0
00 00 00 00
0
00 00 00 00
0
00 00 00 00
0
46 B2 70 66
22840.2
45 65 B9 9A
3675.6
46 3A EB 33
11962.8
00 00 00 00
0
45 E1 09 9A
7201.2
00 00 00 00
0
00 00 00 00
0
00 00 00 00
0
00 00 00 00
0
00 00 00 00
0
47 82 8D CD
66843.6
46 41 63 33
12376.8
46 D4 77 33
27195.6
00 00 00 00
0
46 D5 0E 66
27271.2
00 00 00 00
0
00 00 00 00
0
00 00 00 00
0
00 00 00 00
0
00 00 00 00
0
46 95 B4 66
19162.2
45 65 46 66
3668.4
45 FB B3 33
8054.4
00 00 00 00
0
45 E8 7B 33
7439.4
00 00 00 00
0
00 00 00 00
0
00 00 00 00
0
00 00 00 00
0
00 00 6F 67
3.9964e-41
00 41 27 59
4269913
00 00 00 00
0
00 14 04 E6
1311974
00 00 13 B2
5042
237.629238.477237.263412.228411.882411.188183.72172.56174408003456035880111240852043204200171604464039120388801125600.9120.8950.9290.98950.14476475954.611932.235890.80281310000017806.82669.49342.605793.6000008689514119.841686.8031087.80000022840.23675.611962.807201.20000066843.612376.827195.6027271.20000019162.23668.48054.407439.400003.9964e-4118201711262112134269.91301311.9745.042insert into tbl_power_info_v2(P_A_DIANYA,P_B_DIANYA,P_C_DIANYA,P_UAB_XIANDIANYA,P_UBC_XIANDIANYA,P_UCA_XIANDIANYA,P_A_DIANLIU,P_B_DIANLIU,P_C_DIANLIU,P_A_YGGL,P_B_YGGL,P_C_YGGL,P_HXYGGL,P_A_WGGL,P_B_WGGL,P_C_WGGL,P_HXWGGL,P_A_SZGL,P_B_SZGL,P_C_SZGL,P_HXSZGL,P_A_GLYS,P_B_GLYS,P_C_GLYS,P_HXGLYS,P_DWPL,P_BY_KwhZ,P_BY_KwhJ,P_BY_KwhF,P_BY_KwhP,P_BY_KwhG,P_BY_HKwhZ,P_BY_HKwhJ,P_BY_HKwhF,P_BY_HKwhP,P_BY_HKwhG, P_BY_KvarhZ,P_BY_KvarhJ,P_BY_KvarhF,P_BY_KvarhP,P_BY_KvarhG, P_BY_HKvarhZ,P_BY_HKvarhJ,P_BY_HKvarhF,P_BY_HKvarhP,P_BY_HKvarhG, P_SY_KwhZ,P_SY_KwhJ,P_SY_KwhF,P_SY_KwhP,P_SY_KwhG, P_SY_HKwhZ,P_SY_HKwhJ,P_SY_HKwhF,P_SY_HKwhP,P_SY_HKwhG, P_SY_KvarhZ,P_SY_KvarhJ,P_SY_KvarhF,P_SY_KvarhP,P_SY_KvarhG, P_SY_HKvarhZ,P_SY_HKvarhJ,P_SY_HKvarhF,P_SY_HKvarhP,P_SY_HKvarhG, P_SSY_KwhZ,P_SSY_KwhJ,P_SSY_KwhF,P_SSY_KwhP,P_SSY_KwhG, P_SSY_HKwhZ,P_SSY_HKwhJ,P_SSY_HKwhF,P_SSY_HKwhP,P_SSY_HKwhG, P_SSY_KvarhZ,P_SSY_KvarhJ,P_SSY_KvarhF,P_SSY_KvarhP,P_SSY_KvarhG, P_SSY_HKvarhZ,P_SSY_HKvarhJ,P_SSY_HKvarhF,P_SSY_HKvarhP,P_SSY_HKvarhG,P_CODE,P_TIME,P_ZXYGDN,P_FXYGDN,P_ZXWGDN,P_FXWGDN)values(237.629,238.477,237.263,412.228,411.882,411.188,183.72,172.56,174,40800,34560,35880,111240,8520,4320,4200,17160,44640,39120,38880,112560,0.912,0.895,0.929,0.989,50.144764,75954.6,11932.2,35890.8,0,28131,0,0,0,0,0,17806.8,2669.4,9342.6,0,5793.6,0,0,0,0,0,86895,14119.8,41686.8,0,31087.8,0,0,0,0,0,22840.2,3675.6,11962.8,0,7201.2,0,0,0,0,0,66843.6,12376.8,27195.6,0,27271.2,0,0,0,0,0,19162.2,3668.4,8054.4,0,7439.4,0,0,0,0,3.9964e-41,18,20171126211213,4269.913,0,1311.974,5.042)
写入成功读取完毕一个
13 03 68
19totalsize 104
43 6D 7E 35 43 6E 26 A8 43 6D 1E 77 43 CD E5 C3 43 CD C4 7B 43 CD 76 E9 00 00 00 00 3F 99 99 9A 40 05 1E B8 00 00 00 00 00 00 00 00 43 C8 00 00 43 F0 00 00 43 70 00 00 43 70 00 00 43 70 00 00 44 34 00 00 43 70 00 00 43 70 00 00 43 F0 00 00 44 5C 00 00 3E 36 45 A2 3D EB 85 1F 3F 59 99 9A 3F 10 62 4E 42 48 10 9B
write:13 03 07 CF 00 78 77 D1
13 03 F0
19totalsize 240
44 A2 CC CD 42 DB 33 33 44 4A CC CD 00 00 00 00 43 BE 99 9A 00 00 00 00 00 00 00 00 00 00 00 00 00 00 00 00 00 00 00 00 43 0F 33 33 3E CC CC CD 43 00 00 00 00 00 00 00 41 66 66 66 43 DA 99 9A 42 98 CC CD 43 2B 99 9A 00 00 00 00 43 3C CC CD 44 5A CC CD 42 BC 00 00 43 F7 66 66 00 00 00 00 43 8F 00 00 00 00 00 00 00 00 00 00 00 00 00 00 00 00 00 00 00 00 00 00 40 80 00 00 00 00 00 00 40 4C CC CD 00 00 00 00 3F 4C CC CD 44 1A 99 9A 42 C4 00 00 43 85 66 66 00 00 00 00 43 7D 33 33 44 DC A6 66 42 DB 33 33 44 8E CC CD 00 00 00 00 44 00 4C CD 00 00 00 00 00 00 00 00 00 00 00 00 00 00 00 00 00 00 00 00 42 5E 66 66 3E CC CC CD 42 21 99 9A 00 00 00 00 41 60 00 00 43 FE 00 00 42 B6 66 66 43 3F 99 9A 00 00 00 00 43 60 82 75
write:13 03 01 0F 00 08 76 81
13 03 10
1900 02 94 82 00 00 00 00 00 00 35 3F 00 00 F1 94
43 6D 7E 35
237.493
43 6E 26 A8
238.151
43 6D 1E 77
237.119
43 CD E5 C3
411.795
43 CD C4 7B
411.535
43 CD 76 E9
410.929
00 00 00 00
0
3F 99 99 9A
1.2
40 05 1E B8
2.08
00 00 00 00
0
00 00 00 00
0
43 C8 00 00
400
43 F0 00 00
480
43 70 00 00
240
43 70 00 00
240
43 70 00 00
240
44 34 00 00
720
43 70 00 00
240
43 70 00 00
240
43 F0 00 00
480
44 5C 00 00
880
3E 36 45 A2
0.178
3D EB 85 1F
0.115
3F 59 99 9A
0.85
3F 10 62 4E
0.564
42 48 10 9B
50.016216
44 A2 CC CD
1302.4
42 DB 33 33
109.6
44 4A CC CD
811.2
00 00 00 00
0
43 BE 99 9A
381.2
00 00 00 00
0
00 00 00 00
0
00 00 00 00
0
00 00 00 00
0
00 00 00 00
0
43 0F 33 33
143.2
3E CC CC CD
0.4
43 00 00 00
128
00 00 00 00
0
41 66 66 66
14.4
43 DA 99 9A
437.2
42 98 CC CD
76.4
43 2B 99 9A
171.6
00 00 00 00
0
43 3C CC CD
188.8
44 5A CC CD
875.2
42 BC 00 00
94
43 F7 66 66
494.8
00 00 00 00
0
43 8F 00 00
286
00 00 00 00
0
00 00 00 00
0
00 00 00 00
0
00 00 00 00
0
00 00 00 00
0
40 80 00 00
4
00 00 00 00
0
40 4C CC CD
3.2
00 00 00 00
0
3F 4C CC CD
0.8
44 1A 99 9A
618.4
42 C4 00 00
98
43 85 66 66
266.8
00 00 00 00
0
43 7D 33 33
253.2
44 DC A6 66
1765.2
42 DB 33 33
109.6
44 8E CC CD
1142.4
00 00 00 00
0
44 00 4C CD
513.2
00 00 00 00
0
00 00 00 00
0
00 00 00 00
0
00 00 00 00
0
00 00 00 00
0
42 5E 66 66
55.6
3E CC CC CD
0.4
42 21 99 9A
40.4
00 00 00 00
0
41 60 00 00
14
43 FE 00 00
508
42 B6 66 66
91.2
43 3F 99 9A
191.6
00 00 00 00
0
43 60 82 75
224.5096
00 02 94 82
169090
00 00 00 00
0
00 00 35 3F
13631
00 00 F1 94
61844
237.493238.151237.119411.795411.535410.92901.22.08004004802402402407202402404808800.1780.1150.850.56450.0162161302.4109.6811.20381.200000143.20.4128014.4437.276.4171.60188.8875.294494.8028600000403.200.8618.498266.80253.21765.2109.61142.40513.20000055.60.440.401450891.2191.60224.50961920171126211256169.09013.63161.844insert into tbl_power_info_v2(P_A_DIANYA,P_B_DIANYA,P_C_DIANYA,P_UAB_XIANDIANYA,P_UBC_XIANDIANYA,P_UCA_XIANDIANYA,P_A_DIANLIU,P_B_DIANLIU,P_C_DIANLIU,P_A_YGGL,P_B_YGGL,P_C_YGGL,P_HXYGGL,P_A_WGGL,P_B_WGGL,P_C_WGGL,P_HXWGGL,P_A_SZGL,P_B_SZGL,P_C_SZGL,P_HXSZGL,P_A_GLYS,P_B_GLYS,P_C_GLYS,P_HXGLYS,P_DWPL,P_BY_KwhZ,P_BY_KwhJ,P_BY_KwhF,P_BY_KwhP,P_BY_KwhG,P_BY_HKwhZ,P_BY_HKwhJ,P_BY_HKwhF,P_BY_HKwhP,P_BY_HKwhG, P_BY_KvarhZ,P_BY_KvarhJ,P_BY_KvarhF,P_BY_KvarhP,P_BY_KvarhG, P_BY_HKvarhZ,P_BY_HKvarhJ,P_BY_HKvarhF,P_BY_HKvarhP,P_BY_HKvarhG, P_SY_KwhZ,P_SY_KwhJ,P_SY_KwhF,P_SY_KwhP,P_SY_KwhG, P_SY_HKwhZ,P_SY_HKwhJ,P_SY_HKwhF,P_SY_HKwhP,P_SY_HKwhG, P_SY_KvarhZ,P_SY_KvarhJ,P_SY_KvarhF,P_SY_KvarhP,P_SY_KvarhG, P_SY_HKvarhZ,P_SY_HKvarhJ,P_SY_HKvarhF,P_SY_HKvarhP,P_SY_HKvarhG, P_SSY_KwhZ,P_SSY_KwhJ,P_SSY_KwhF,P_SSY_KwhP,P_SSY_KwhG, P_SSY_HKwhZ,P_SSY_HKwhJ,P_SSY_HKwhF,P_SSY_HKwhP,P_SSY_HKwhG, P_SSY_KvarhZ,P_SSY_KvarhJ,P_SSY_KvarhF,P_SSY_KvarhP,P_SSY_KvarhG, P_SSY_HKvarhZ,P_SSY_HKvarhJ,P_SSY_HKvarhF,P_SSY_HKvarhP,P_SSY_HKvarhG,P_CODE,P_TIME,P_ZXYGDN,P_FXYGDN,P_ZXWGDN,P_FXWGDN)values(237.493,238.151,237.119,411.795,411.535,410.929,0,1.2,2.08,0,0,400,480,240,240,240,720,240,240,480,880,0.178,0.115,0.85,0.564,50.016216,1302.4,109.6,811.2,0,381.2,0,0,0,0,0,143.2,0.4,128,0,14.4,437.2,76.4,171.6,0,188.8,875.2,94,494.8,0,286,0,0,0,0,0,4,0,3.2,0,0.8,618.4,98,266.8,0,253.2,1765.2,109.6,1142.4,0,513.2,0,0,0,0,0,55.6,0.4,40.4,0,14,508,91.2,191.6,0,224.5096,19,20171126211256,169.09,0,13.631,61.844)
写入成功读取完毕一个
write:14 03 00 38 00 34 C7 15
write:14 03 07 CF 00 78 76 66
write:14 03 01 0F 00 08 77 36
write:15 03 00 38 00 34 C6 C4
write:15 03 07 CF 00 78 77 B7
77 77 77
heart:77 77 77 2E 75 73 72 2E 63 6E
received messag ?->? 
 124.160.213.16:14246 172.16.246.153:6002
write:12 03 00 38 00 34 C7 73
77 77 77
heart:77 77 77 2E 75 73 72 2E 63 6E
14 03 68
20totalsize 104
43 6D AE 56 43 6E 0C 4A 43 6D BC EE 43 CD F0 C5 43 CD FB E7 43 CD CF 7D 41 0B 85 1F 40 D5 C2 8F 41 0D 70 A4 44 A5 00 00 44 70 00 00 44 AA 00 00 45 63 80 00 43 8C 00 00 43 8C 00 00 43 8C 00 00 44 52 00 00 45 02 00 00 44 C8 00 00 45 04 80 00 45 6B 00 00 3F 24 18 93 3F 1C 6A 7F 3F 23 95 81 3F 79 99 9A 42 48 74 45
FB F1 ED
heart:FB F1 ED FF C4 A3 6D BC EE 43 6E 14 BC 43 6D C6 A8 43 CD FB E7 43 CD FB E7 43 CD DA FE FF F7 E4 00 00 00 00 00 00 00 00 00 00 00 00 00 00 00 00 00 00 00 00 00 00 00 00 00 00 00 00 14
00 00 00
heart:00 00 00 00 00 00 00 00 00 00 00 00 00 00 00 00 00 00 00 00 00 00 00 00 00 00 00 00 00 00 00 00 00 00 00 00 00 00 00 00 00 00 00 00 00 42 48 B0 B6
write:15 03 01 0F 00 08 76 E7
write:12 03 07 CF 00 78 76 00
write:16 03 00 38 00 34 C6 F7
77 77 77
heart:77 77 77 2E 75 73 72 2E 63 6E
12 03 F0
18totalsize 240
47 94 5D 33 46 3A 70 CD 47 0C 3A 00 00 00 00 00 46 DB C6 00 00 00 00 00 00 00 00 00 00 00 00 00 00 00 00 00 00 00 00 00 46 8B 20 00 45 26 D6 66 46 11 FF 33 00 00 00 00 45 B5 0C CD 00 00 00 00 00 00 00 00 00 00 00 00 00 00 00 00 00 00 00 00 47 A9 B7 80 46 5C 9F 33 47 22 D6 CD 00 00 00 00 46 F2 DF 9A 00 00 00 00 00 00 00 00 00 00 00 00 00 00 00 00 00 00 00 00 46 B2 70 66 45 65 B9 9A 46 3A EB 33 00 00 00 00 45 E1 09 9A 00 00 00 00 00 00 00 00 00 00 00 00 00 00 00 00 00 00 00 00 47 82 8D CD 46 41 63 33 46 D4 77 33 00 00 00 00 46 D5 0E 66 00 00 00 00 00 00 00 00 00 00 00 00 00 00 00 00 00 00 00 00 46 95 B4 66 45 65 46 66 45 FB B3 33 00 00 00 00 45 E8 7B 33 00 00 00 00 00 00 00 00 00 00 00 00 00 00 00 00 00 00 CC E5
write:12 03 01 0F 00 08 77 50
write:16 03 07 CF 00 78 77 84
write:13 03 00 38 00 34 C6 A2
write:16 03 01 0F 00 08 76 D4
write:13 03 07 CF 00 78 77 D1
write:17 03 00 38 00 34 C7 26
write:13 03 01 0F 00 08 76 81
write:17 03 07 CF 00 78 76 55
write:14 03 00 38 00 34 C7 15
write:17 03 01 0F 00 08 77 05
write:14 03 07 CF 00 78 76 66
write:18 03 00 38 00 34 C7 D9
write:14 03 01 0F 00 08 77 36
write:18 03 07 CF 00 78 76 AA
write:15 03 00 38 00 34 C6 C4
write:18 03 01 0F 00 08 77 FA
write:15 03 07 CF 00 78 77 B7
write:19 03 00 38 00 34 C6 08
write:15 03 01 0F 00 08 76 E7
write:19 03 07 CF 00 78 77 7B
write:16 03 00 38 00 34 C6 F7
write:19 03 01 0F 00 08 76 2B
write:16 03 07 CF 00 78 77 84
write:1A 03 00 38 00 34 C6 3B
write:16 03 01 0F 00 08 76 D4
write:1A 03 07 CF 00 78 77 48
write:17 03 00 38 00 34 C7 26
write:1A 03 01 0F 00 08 76 18
write:17 03 07 CF 00 78 76 55
write:1B 03 00 38 00 34 C7 EA
write:17 03 01 0F 00 08 77 05
write:1B 03 07 CF 00 78 76 99
write:18 03 00 38 00 34 C7 D9
write:1B 03 01 0F 00 08 77 C9
write:18 03 07 CF 00 78 76 AA
write:1C 03 00 38 00 34 C6 5D
write:18 03 01 0F 00 08 77 FA
12 03 10
1800 41 27 8D 00 00 00 00 00 14 04 EF 00 00 7E 43
77 77 77
heart:77 77 77 2E 75 73 72 2E 63 6E
received messag ?->? 
 124.160.213.16:14249 172.16.246.153:6002
write:12 03 00 38 00 34 C7 73
FB F1 ED
heart:FB F1 ED FF C4 B1 FF FF 7F FE FF ED D6 EB FD BF 7F F7 FE F5 EF D3 F7 FF EF FD FE 7F D1 AA FD FF FE 99 FF FF D9 B2 FC FC F8 CF BF DE EF D7 00 00 43 C8 00 00 43 F0 00 00 43 70 00 00 43 70 00 00 43 70 00 00 44 34 00 00 43 70 00 00 43 70 00 00 43 F0 00 00 44 5C 00 00 3E 3F 7C EE 3D E7 6C 8B 3F 59 58 10 3F 10 A3 D7 42 47 D4 8A
write:1C 03 07 CF 00 78 77 2E
7E 7C FF
heart:7E 7C FF A2 15 FF F9 FF FF EF 16 4F FD 3A E8 5B FF E1 EF D3 CD F0 C5 43 CD E5 C3 40 02 8F 5C 41 22 8F 5C 40 73 33 33 43 B4 00 00 45 11 00 00 44 52 00 00 45 5C 00 00 00 00 00 00 44 02 00 00 00 00 00 00 43 DC 00 00 43 F0 00 00 45 16 00 00 44 66 00 00 45 5E 80 00 3F 37 8D 50 3F 77 0A 3D 3F 6F 5C 29 3F 7D F3 B6 42 47 08 1B 12 03 68 00 00 43 6E 3C EE 43 6E 59 58 43 6D 51 AA 43 CE 54 9C 43 CD F0 C5 43 CD E5 C3 43 35 33 33 43 58 00 00 43 40 99 9A 47 19 48 00 47 3C 70 00 47 27 58 00 47 FE 88 00 45 D5 C0 00
45 87 00
heart:45 87 00 00 45 8A C0 00 46 77 80 00 47 1D 08 00 47 26 68 00 47 19 48 00 47 DA 34 00 3F 65 A1 CB 3F 67 6C 8B 3F 6B 02 0C 3F 7D 70 A4 42 47 06 B4
15 03 10
2100 00 18 95 00 00 00 00 00 00 1D 3D 00 00 8A E4
7E 7C 7B
heart:7E 7C 7B E2 B5 FF FF 7F FF FF 97 DB FD F3 ED F7 FE F9 7F FC F7 FF DF FF FF 7E 45 FE FF F7 7B FF D9 7F F3 FF FC BF DE FF 3D F9 8F FF EE 97 E1 FF F7 72 FF
00 00 00
heart:00 00 00 00 44 02 00 00 00 00 00 00 43 DC 00 00 43 F0 00 00 45 16 00 00 44 66 00 00 45 5E 80 00 3F 37 8D 50 3F 76 C8 B4 3F 6F 5C 29 3F 7E 35 3F 42 47 6C 83
write:19 03 00 38 00 34 C6 08
19 03 68
25totalsize 104
43 6D 81 CB 43 6E 0C 4A 43 6D 20 42 43 CD E5 C3 43 CD B9 58 43 CD 81 EC 00 00 00 00 3F 8A 3D 71 00 00 00 00 42 A0 00 00 43 20 00 00 42 A0 00 00 43 A0 00 00 00 00 00 00 42 F0 00 00 00 00 00 00 42 F0 00 00 42 A0 00 00 43 70 00 00 42 A0 00 00 43 B4 00 00 3F 6F 9D B2 3F 28 B4 39 3F 3F 3B 64 3F 73 B6 46 42 47 A9 A2
write:12 03 07 CF 00 78 76 00
write:1C 03 01 0F 00 08 76 7E
12 03 F0
18totalsize 240
47 94 63 33 46 3A 70 CD 47 0C 46 9A E0 FD EF 6F 56 DB C6 00 00 00 00 00 00 00 00 00 00 00 00 00 00 00 00 00 00 00 00 00 46 8B 23 9A 45 26 D6 66 46 12 06 66 00 00 00 00 45 B5 0C CD 00 00 00 00 00 00 00 00 00 00 00 00 00 00 00 00 00 00 00 00 47 A9 B7 80 46 5C 9F 33 47 22 D6 CD 00 00 00 00 46 F2 DF 9A 00 00 00 00 00 00 00 00 00 00 00 00 00 00 00 00 00 00 00 00 46 B2 70 66 45 65 B9 9A 46 3A EB 33 00 00 00 00 45 E1 09 9A 00 00 00 00 00 00 00 00 00 00 00 00 00 00 00 00 00 00 00 00 47 82 8D CD 46 41 63 33 46 D4 77 33 00 00 00 00 46 D5 0E 66 00 00 00 00 00 00 00 00 00 00 00 00 00 00 00 00 00 00 00 00 46 95 B4 66 45 65 46 66 45 FB B3 33 00 00 00 00 45 E8 7B 33 00 00 00 00 00 00 00 00 00 00 00 00 00 00 00 00 00 00 77 FE
write:19 03 07 CF 00 78 77 7B
write:12 03 01 0F 00 08 77 50
write:1D 03 00 38 00 34 C7 8C
12 03 10
1800 41 27 F6 00 00 00 00 00 14 04 FF 00 00 F0 63
19 03 F0
25totalsize 240
43 C2 E6 66 42 32 66 66 43 5E 99 9A 00 00 00 00 42 F4 CC CD 00 00 00 00 00 00 00 00 00 00 00 00 00 00 00 00 00 00 00 00 41 79 99 9A 00 00 00 00 41 63 33 33 00 00 00 00 3F 99 99 9A 42 24 00 00 40 F3 33 33 41 83 33 33 00 00 00 00 41 88 00 00 43 B7 B3 33 42 3F 33 33 43 3E 00 00 00 00 00 00 43 01 66 66 00 00 00 00 00 00 00 00 00 00 00 00 00 00 00 00 00 00 00 00 41 10 00 00 00 00 00 00 40 C6 66 66 00 00 00 00 40 26 66 66 42 63 33 33 41 29 99 9A 41 BC CC CD 00 00 00 00 41 B3 33 33 43 A0 E6 66 42 0F 33 33 43 2B CC CD 00 00 00 00 42 E4 00 00 00 00 00 00 00 00 00 00 00 00 00 00 00 00 00 00 00 00 00 00 3E CC CC CD 00 00 00 00 3E 4C CC CD 00 00 00 00 00 00 00 00 42 21 99 9A 40 B9 99 9A 41 A3 33 33 00 00 00 00 41 60 DB 15
write:19 03 01 0F 00 08 76 2B
write:13 03 00 38 00 34 C6 A2
write:1D 03 07 CF 00 78 76 FF
19 03 10
2500 00 F5 98 00 00 00 00 00 00 06 A3 00 00 AA 3E
43 6D 81 CB
237.507
43 6E 0C 4A
238.048
43 6D 20 42
237.126
43 CD E5 C3
411.795
43 CD B9 58
411.448
43 CD 81 EC
411.015
00 00 00 00
0
3F 8A 3D 71
1.08
00 00 00 00
0
42 A0 00 00
80
43 20 00 00
160
42 A0 00 00
80
43 A0 00 00
320
00 00 00 00
0
42 F0 00 00
120
00 00 00 00
0
42 F0 00 00
120
42 A0 00 00
80
43 70 00 00
240
42 A0 00 00
80
43 B4 00 00
360
3F 6F 9D B2
0.936
3F 28 B4 39
0.659
3F 3F 3B 64
0.747
3F 73 B6 46
0.952
42 47 A9 A2
49.915657
43 C2 E6 66
389.8
42 32 66 66
44.6
43 5E 99 9A
222.6
00 00 00 00
0
42 F4 CC CD
122.4
00 00 00 00
0
00 00 00 00
0
00 00 00 00
0
00 00 00 00
0
00 00 00 00
0
41 79 99 9A
15.6
00 00 00 00
0
41 63 33 33
14.2
00 00 00 00
0
3F 99 99 9A
1.2
42 24 00 00
41
40 F3 33 33
7.6
41 83 33 33
16.4
00 00 00 00
0
41 88 00 00
17
43 B7 B3 33
367.4
42 3F 33 33
47.8
43 3E 00 00
190
00 00 00 00
0
43 01 66 66
129.4
00 00 00 00
0
00 00 00 00
0
00 00 00 00
0
00 00 00 00
0
00 00 00 00
0
41 10 00 00
9
00 00 00 00
0
40 C6 66 66
6.2
00 00 00 00
0
40 26 66 66
2.6
42 63 33 33
56.8
41 29 99 9A
10.6
41 BC CC CD
23.6
00 00 00 00
0
41 B3 33 33
22.4
43 A0 E6 66
321.8
42 0F 33 33
35.8
43 2B CC CD
171.8
00 00 00 00
0
42 E4 00 00
114
00 00 00 00
0
00 00 00 00
0
00 00 00 00
0
00 00 00 00
0
00 00 00 00
0
3E CC CC CD
0.4
00 00 00 00
0
3E 4C CC CD
0.2
00 00 00 00
0
00 00 00 00
0
42 21 99 9A
40.4
40 B9 99 9A
5.8
41 A3 33 33
20.4
00 00 00 00
0
41 60 DB 15
14.053487
00 00 F5 98
62872
00 00 00 00
0
00 00 06 A3
1699
00 00 AA 3E
43582
237.507238.048237.126411.795411.448411.01501.08080160803200120012080240803600.9360.6590.7470.95249.915657389.844.6222.60122.40000015.6014.201.2417.616.4017367.447.81900129.400000906.202.656.810.623.6022.4321.835.8171.80114000000.400.20040.45.820.4014.053487252017112621223662.87201.69943.582insert into tbl_power_info_v2(P_A_DIANYA,P_B_DIANYA,P_C_DIANYA,P_UAB_XIANDIANYA,P_UBC_XIANDIANYA,P_UCA_XIANDIANYA,P_A_DIANLIU,P_B_DIANLIU,P_C_DIANLIU,P_A_YGGL,P_B_YGGL,P_C_YGGL,P_HXYGGL,P_A_WGGL,P_B_WGGL,P_C_WGGL,P_HXWGGL,P_A_SZGL,P_B_SZGL,P_C_SZGL,P_HXSZGL,P_A_GLYS,P_B_GLYS,P_C_GLYS,P_HXGLYS,P_DWPL,P_BY_KwhZ,P_BY_KwhJ,P_BY_KwhF,P_BY_KwhP,P_BY_KwhG,P_BY_HKwhZ,P_BY_HKwhJ,P_BY_HKwhF,P_BY_HKwhP,P_BY_HKwhG, P_BY_KvarhZ,P_BY_KvarhJ,P_BY_KvarhF,P_BY_KvarhP,P_BY_KvarhG, P_BY_HKvarhZ,P_BY_HKvarhJ,P_BY_HKvarhF,P_BY_HKvarhP,P_BY_HKvarhG, P_SY_KwhZ,P_SY_KwhJ,P_SY_KwhF,P_SY_KwhP,P_SY_KwhG, P_SY_HKwhZ,P_SY_HKwhJ,P_SY_HKwhF,P_SY_HKwhP,P_SY_HKwhG, P_SY_KvarhZ,P_SY_KvarhJ,P_SY_KvarhF,P_SY_KvarhP,P_SY_KvarhG, P_SY_HKvarhZ,P_SY_HKvarhJ,P_SY_HKvarhF,P_SY_HKvarhP,P_SY_HKvarhG, P_SSY_KwhZ,P_SSY_KwhJ,P_SSY_KwhF,P_SSY_KwhP,P_SSY_KwhG, P_SSY_HKwhZ,P_SSY_HKwhJ,P_SSY_HKwhF,P_SSY_HKwhP,P_SSY_HKwhG, P_SSY_KvarhZ,P_SSY_KvarhJ,P_SSY_KvarhF,P_SSY_KvarhP,P_SSY_KvarhG, P_SSY_HKvarhZ,P_SSY_HKvarhJ,P_SSY_HKvarhF,P_SSY_HKvarhP,P_SSY_HKvarhG,P_CODE,P_TIME,P_ZXYGDN,P_FXYGDN,P_ZXWGDN,P_FXWGDN)values(237.507,238.048,237.126,411.795,411.448,411.015,0,1.08,0,80,160,80,320,0,120,0,120,80,240,80,360,0.936,0.659,0.747,0.952,49.915657,389.8,44.6,222.6,0,122.4,0,0,0,0,0,15.6,0,14.2,0,1.2,41,7.6,16.4,0,17,367.4,47.8,190,0,129.4,0,0,0,0,0,9,0,6.2,0,2.6,56.8,10.6,23.6,0,22.4,321.8,35.8,171.8,0,114,0,0,0,0,0,0.4,0,0.2,0,0,40.4,5.8,20.4,0,14.053487,25,20171126212236,62.872,0,1.699,43.582)
写入成功读取完毕一个
13 03 68
19totalsize 104
43 6D 91 68 43 6D F2 F2 43 6D 06 25 43 CD FF E1 FF DD A3 33 43 CD 76 E9 00 00 00 00 00 00 00 00 40 05 1E B8 00 00 00 00 00 00 00 00 43 C8 00 00 43 F0 00 00 43 70 00 00 43 70 00 00 43 70 00 00 44 34 00 00 43 70 00 00 43 70 00 00 43 F0 00 00 44 5C 00 00 3E 26 E9 79 3D CC CC CD 3F 59 16 87 3F 0E 97 8D 42 48 7C 9C
write:1A 03 00 38 00 34 C6 3B
1A 03 68
26totalsize 104
43 6E 4F DF 43 6E 81 CB 43 6D B2 B0 43 CE 75 C3 43 CE 28 31 43 CE 12 0C 00 00 00 00 40 C3 D7 0A 40 99 99 9A 00 00 00 00 44 70 00 00 44 34 00 00 44 D2 00 00 43 B4 00 00 44 16 00 00 44 34 00 00 44 C3 00 00 43 B4 00 00 44 B4 00 00 44 96 00 00 45 0E 80 00 3E 8F 5C 29 3F 1E F9 DB 3F 17 4B C7 3F 39 99 9A 42 48 29 D2
write:13 03 07 CF 00 78 77 D1
write:1D 03 01 0F 00 08 77 AF
13 03 F0
19totalsize 240
44 A2 CC CD 42 DB 33 33 44 4A CC CD 00 00 97 F1 FF 9E 99 9A 00 00 00 00 00 00 00 00 00 00 00 00 00 00 00 00 00 00 00 00 43 0F 33 33 3E CC CC CD 43 00 00 00 00 00 00 00 41 66 66 66 43 DA 99 9A 42 98 CC CD 43 2B 99 9A 00 00 00 00 43 3C CC CD 44 5A CC CD 42 BC 00 00 43 F7 66 66 00 00 00 00 43 8F 00 00 00 00 00 00 00 00 00 00 00 00 00 00 00 00 00 00 00 00 00 00 40 80 00 00 00 00 00 00 40 4C CC CD 00 00 00 00 3F 4C CC CD 44 1A 99 9A 42 C4 00 00 43 85 66 66 00 00 00 00 43 7D 33 33 44 DC A6 66 42 DB 33 33 44 8E CC CD 00 00 00 00 44 00 4C CD 00 00 00 00 00 00 00 00 00 00 00 00 00 00 00 00 00 00 00 00 42 5E 66 66 3E CC CC CD 42 21 99 9A 00 00 00 00 41 60 00 00 43 FE 00 00 42 B6 66 66 43 3F 99 9A 00 00 00 00 43 60 82 75
write:1A 03 07 CF 00 78 77 48
write:13 03 01 0F 00 08 76 81
write:1E 03 00 38 00 34 C7 BF
write:1A 03 01 0F 00 08 76 18
write:14 03 00 38 00 34 C7 15
write:1E 03 07 CF 00 78 76 CC
write:1B 03 00 38 00 34 C7 EA
write:14 03 07 CF 00 78 76 66
write:1E 03 01 0F 00 08 77 9C
77 77 77
heart:77 77 77 2E 75 73 72 2E 63 6E
77 77 77
heart:77 77 77 2E 75 73 72 2E 63 6E
1A 03 F0
26totalsize 240
44 E3 79 9A 43 40 00 00 44 7F 4C CD 00 00 00 00 44 17 59 9A 00 00 00 00 00 00 00 00 00 00 00 00 00 00 00 00 00 00 00 00 42 34 FC 00 03 00 00 10 00 00 3F 7C 00 00 35 3F 01 25 68 99 9A 44 61 73 33 43 10 99 9A 43 C2 B3 33 00 00 00 00 43 B7 99 9A 44 AC E0 00 43 0E CC CD 44 4A 33 33 00 00 00 00 43 D7 19 9A 00 00 00 00 00 00 00 00 00 00 00 00 00 00 00 00 00 00 00 00 40 C0 00 00 3F E6 66 66 40 19 99 9A 00 00 00 00 3F 99 99 9A 44 70 00 00 43 11 33 33 43 D5 4C CD 00 00 00 00 43 C1 CC CD 44 E4 00 00 42 EE CC CD 44 94 20 00 00 00 00 00 44 01 E6 66 00 00 00 00 00 00 00 00 00 00 00 00 00 00 00 00 00 00 00 00 42 0B 33 33 00 00 00 00 41 D3 33 33 00 00 00 00 41 06 66 66 44 3E F3 33 42 F7 33 33 43 9F E6 66 00 00 00 00 43 9F EB
92 DF F1
heart:92 DF F1 ED FF 89 4B 6D E6 E9 43 6E 2E D9 43 6D BC AC 43 CE 1D 2F 5F FF FF FB E7
C7 41 0B
heart:C7 41 0B 85 1F 40 D5 C2 8F 41 0C CC CD 44 A5 00 00 44 70 00 00 44 AA 00 00 45 63 80 00 43 A0 00 00 43 8C 00 00 43 8C 00 00 44 52 00 00 45 02 00 00 44 C8 00 00 45 02 00 00 45 6B 00 00 3F 24 18 93 3F 1C AC 08 3F 23 D7 0A 3F 79 58 10 42 47 BB D3
write:1B 03 07 CF 00 78 76 99
write:14 03 01 0F 00 08 77 36
write:1F 03 00 38 00 34 C6 6E
1B 03 F0
27totalsize 240
45 19 F0 00 41 D8 00 00 44 EF 40 00 00 00 00 00 44 02 59 9A 00 00 00 00 00 00 00 00 00 00 00 00 00 00 00 00 00 00 00 00 44 3B A6 66 41 99 99 9A 44 03 8C CD 00 00 00 00 43 4D 33 33 00 00 00 00 00 00 00 00 00 00 00 00 00 00 00 00 00 00 00 00 45 10 D3 33 41 F9 99 9A 44 E5 33 33 00 00 00 00 43 E1 E6 66 00 00 00 00 00 00 00 00 00 00 00 00 00 00 00 00 00 00 00 00 44 24 40 00 41 86 66 66 43 E5 CC CD 00 00 00 00 43 34 99 9A 00 00 00 00 00 00 00 00 00 00 00 00 00 00 00 00 00 00 00 00 45 1D 76 66 42 4E 66 66 44 F5 19 9A 00 00 00 00 43 FD 33 33 00 00 00 00 00 00 00 00 00 00 00 00 00 00 00 00 00 00 00 00 44 73 99 9A 42 34 00 00 44 1E 8C CD 00 00 00 00 43 93 4C CD 00 00 00 00 00 00 00 00 00 00 00 00 00 00 00 00 00 00 43 DA
14 03 10
2000 04 20 94 00 00 00 00 00 00 13 51 00 00 DF F9
write:1B 03 01 0F 00 08 77 C9
1B 03 10
2700 02 34 F8 00 00 00 00 00 00 DB 1A 00 00 3F CE
write:15 03 00 38 00 34 C6 C4
write:1F 03 07 CF 00 78 77 1D
15 03 68
21totalsize 104
43 6E 1B E7 43 6E 74 FE 43 6D BF 3B 43 CE 54 9C 43 CE 28 31 43 CE 06 E9 00 00 00 00 00 00 00 00 00 00 00 00 04 F1 FF C4 0E 00 00 00 00 00 00 00 00 00 00 00 00 00 00 00 00 00 00 00 00 00 00 00 00 00 00 00 00 00 00 00 00 00 00 00 00 00 00 00 00 00 00 00 00 00 00 00 00 00 00 00 00 00 00 00 00 00 00 00 42 48 5C F0
write:1C 03 00 38 00 34 C6 5D
write:15 03 07 CF 00 78 77 B7
write:1F 03 01 0F 00 08 76 4D
write:1C 03 07 CF 00 78 77 2E
15 03 F0
21totalsize 240
40 CC CC CD 00 00 00 00 40 A6 66 66 00 00 00 00 3F 99 99 9A 00 00 00 00 00 00 00 00 00 00 00 00 00 00 00 00 00 00 00 00 3E CC CC CD 00 00 00 00 3E CC CC CD 00 00 00 00 00 00 00 00 00 00 00 00 00 00 00 00 00 00 00 00 00 00 00 00 00 00 00 00 40 8C CC CD 00 00 00 00 40 66 66 66 00 00 00 00 3F 4C CC CD 00 00 00 00 00 00 00 00 00 00 00 00 00 00 00 00 00 00 00 00 00 00 00 00 00 00 00 00 00 00 00 00 00 00 00 00 00 00 00 00 00 00 00 00 00 00 00 00 00 00 00 00 00 00 00 00 00 00 00 00 42 1E 66 66 00 00 00 00 41 F3 33 33 00 00 00 00 41 13 33 33 00 00 00 00 00 00 00 00 00 00 00 00 00 00 00 00 00 00 00 00 42 D8 00 00 00 00 00 00 42 A3 33 33 00 00 00 00 41 D0 00 00 00 00 00 00 00 00 00 00 00 00 00 00 00 00 00 00 00 00 7F 8C
write:15 03 01 0F 00 08 76 E7
write:20 03 00 38 00 34 C3 61
write:1C 03 01 0F 00 08 76 7E
write:16 03 00 38 00 34 C6 F7
write:20 03 07 CF 00 78 72 12
77 77 77
heart:77 77 77 2E 75 73 72 2E 63 6E
write:1D 03 00 38 00 34 C7 8C
write:16 03 07 CF 00 78 77 84
write:20 03 01 0F 00 08 73 42
write:1D 03 07 CF 00 78 76 FF
write:16 03 01 0F 00 08 76 D4
write:12 03 00 38 00 34 C7 73
write:1D 03 01 0F 00 08 77 AF
write:17 03 00 38 00 34 C7 26
write:12 03 07 CF 00 78 76 00
write:1E 03 00 38 00 34 C7 BF
write:17 03 07 CF 00 78 76 55
write:12 03 01 0F 00 08 77 50
write:1E 03 07 CF 00 78 76 CC
write:17 03 01 0F 00 08 77 05
write:13 03 00 38 00 34 C6 A2
write:1E 03 01 0F 00 08 77 9C
write:18 03 00 38 00 34 C7 D9
write:13 03 07 CF 00 78 77 D1
write:1F 03 00 38 00 34 C6 6E
write:18 03 07 CF 00 78 76 AA
write:13 03 01 0F 00 08 76 81
write:1F 03 07 CF 00 78 77 1D
write:18 03 01 0F 00 08 77 FA
write:14 03 00 38 00 34 C7 15
write:1F 03 01 0F 00 08 76 4D
write:19 03 00 38 00 34 C6 08
write:14 03 07 CF 00 78 76 66
write:20 03 00 38 00 34 C3 61
write:19 03 07 CF 00 78 77 7B
write:14 03 01 0F 00 08 77 36
write:20 03 07 CF 00 78 72 12
write:19 03 01 0F 00 08 76 2B
write:15 03 00 38 00 34 C6 C4
write:20 03 01 0F 00 08 73 42
write:1A 03 00 38 00 34 C6 3B
write:15 03 07 CF 00 78 77 B7
write:12 03 00 38 00 34 C7 73
write:1A 03 07 CF 00 78 77 48
write:15 03 01 0F 00 08 76 E7
write:12 03 07 CF 00 78 76 00
write:1A 03 01 0F 00 08 76 18
write:16 03 00 38 00 34 C6 F7
write:12 03 01 0F 00 08 77 50
write:1B 03 00 38 00 34 C7 EA
write:16 03 07 CF 00 78 77 84
write:13 03 00 38 00 34 C6 A2
write:1B 03 07 CF 00 78 76 99
write:16 03 01 0F 00 08 76 D4
write:13 03 07 CF 00 78 77 D1
write:1B 03 01 0F 00 08 77 C9
write:17 03 00 38 00 34 C7 26
write:13 03 01 0F 00 08 76 81
write:1C 03 00 38 00 34 C6 5D
write:17 03 07 CF 00 78 76 55
write:14 03 00 38 00 34 C7 15
write:1C 03 07 CF 00 78 77 2E
received messag ?->? 
 124.160.213.230:65253 172.16.246.153:6002
write:12 03 00 38 00 34 C7 73
12 03 68
18totalsize 104
43 6E 23 12 43 6E 5C 29 43 6D F9 9A 43 CE 49 79 43 CE 33 54 43 CE 1D 2F 43 33 28 F6 43 36 A3 D7 43 3A F5 C3 47 18 58 00 47 1B 28 00 47 23 20 00 47 EB 50 00 45 E1 00 00 45 8A C0 00 45 99 C0 00 46 81 60 00 47 26 68 00 47 2A 28 00 47 2D E8 00 47 ED 6C 00 3F 69 FB E7 3F 69 BA 5E 3F 6F DF 3B 3F 7D B2 2D 42 48 D7 14
write:17 03 01 0F 00 08 77 05
write:14 03 07 CF 00 78 76 66
write:1C 03 01 0F 00 08 76 7E
write:12 03 07 CF 00 78 76 00
12 03 F0
18write:18 03 00 38 00 34 C7 D9
totalsize 240
47 94 6D 1A 46 3A 70 CD 47 0C 59 CD 00 00 00 00 46 DB C6 00 00 00 00 00 00 00 00 00 00 00 00 00 00 00 00 00 00 00 00 00 46 8B 29 9A 45 26 D6 66 46 12 12 66 00 00 00 00 45 B5 0C CD 00 00 00 00 00 00 00 00 00 00 00 00 00 00 00 00 00 00 00 00 47 A9 B7 80 46 5C 9F 33 47 22 D6 CD 00 00 00 00 46 F2 DF 9A 00 00 00 00 00 00 00 00 00 00 00 00 00 00 00 00 00 00 00 00 46 B2 70 66 45 65 B9 9A 46 3A EB 33 00 00 00 00 45 E1 09 9A 00 00 00 00 00 00 00 00 00 00 00 00 00 00 00 00 00 00 00 00 47 82 8D CD 46 41 63 33 46 D4 77 33 00 00 00 00 46 D5 0E 66 00 00 00 00 00 00 00 00 00 00 00 00 00 00 00 00 00 00 00 00 46 95 B4 66 45 65 46 66 45 FB B3 33 00 00 00 00 45 E8 7B 33 00 00 00 00 00 00 00 00 00 00 00 00 00 00 00 00 00 00 B3 81
write:14 03 01 0F 00 08 77 36
write:1D 03 00 38 00 34 C7 8C
write:12 03 01 0F 00 08 77 50
write:18 03 07 CF 00 78 76 AA
12 03 10
1800 41 28 9E 00 00 00 00 00 14 05 1A 00 00 20 1D
43 6E 23 12
238.137
43 6E 5C 29
238.36
43 6D F9 9A
237.975
43 CE 49 79
412.574
43 CE 33 54
412.401
43 CE 1D 2F
412.228
43 33 28 F6
179.16
43 36 A3 D7
182.64
43 3A F5 C3
186.96
47 18 58 00
39000
47 1B 28 00
39720
47 23 20 00
41760
47 EB 50 00
120480
45 E1 00 00
7200
45 8A C0 00
4440
45 99 C0 00
4920
46 81 60 00
16560
47 26 68 00
42600
47 2A 28 00
43560
47 2D E8 00
44520
47 ED 6C 00
121560
3F 69 FB E7
0.914
3F 69 BA 5E
0.913
3F 6F DF 3B
0.937
3F 7D B2 2D
0.991
42 48 D7 14
50.210037
47 94 6D 1A
75994.2
46 3A 70 CD
11932.2
47 0C 59 CD
35929.8
00 00 00 00
0
46 DB C6 00
28131
00 00 00 00
0
00 00 00 00
0
00 00 00 00
0
00 00 00 00
0
00 00 00 00
0
46 8B 29 9A
17812.8
45 26 D6 66
2669.4
46 12 12 66
9348.6
00 00 00 00
0
45 B5 0C CD
5793.6
00 00 00 00
0
00 00 00 00
0
00 00 00 00
0
00 00 00 00
0
00 00 00 00
0
47 A9 B7 80
86895
46 5C 9F 33
14119.8
47 22 D6 CD
41686.8
00 00 00 00
0
46 F2 DF 9A
31087.8
00 00 00 00
0
00 00 00 00
0
00 00 00 00
0
00 00 00 00
0
00 00 00 00
0
46 B2 70 66
22840.2
45 65 B9 9A
3675.6
46 3A EB 33
11962.8
00 00 00 00
0
45 E1 09 9A
7201.2
00 00 00 00
0
00 00 00 00
0
00 00 00 00
0
00 00 00 00
0
00 00 00 00
0
47 82 8D CD
66843.6
46 41 63 33
12376.8
46 D4 77 33
27195.6
00 00 00 00
0
46 D5 0E 66
27271.2
00 00 00 00
0
00 00 00 00
0
00 00 00 00
0
00 00 00 00
0
00 00 00 00
0
46 95 B4 66
19162.2
45 65 46 66
3668.4
45 FB B3 33
8054.4
00 00 00 00
0
45 E8 7B 33
7439.4
00 00 00 00
0
00 00 00 00
0
00 00 00 00
0
00 00 00 00
0
00 00 B3 81
6.4394e-41
00 41 28 9E
4270238
00 00 00 00
0
00 14 05 1A
1312026
00 00 20 1D
8221
238.137238.36237.975412.574412.401412.228179.16182.64186.96390003972041760120480720044404920165604260043560445201215600.9140.9130.9370.99150.21003775994.211932.235929.80281310000017812.82669.49348.605793.6000008689514119.841686.8031087.80000022840.23675.611962.807201.20000066843.612376.827195.6027271.20000019162.23668.48054.407439.400006.4394e-4118201711262132384270.23801312.0268.221insert into tbl_power_info_v2(P_A_DIANYA,P_B_DIANYA,P_C_DIANYA,P_UAB_XIANDIANYA,P_UBC_XIANDIANYA,P_UCA_XIANDIANYA,P_A_DIANLIU,P_B_DIANLIU,P_C_DIANLIU,P_A_YGGL,P_B_YGGL,P_C_YGGL,P_HXYGGL,P_A_WGGL,P_B_WGGL,P_C_WGGL,P_HXWGGL,P_A_SZGL,P_B_SZGL,P_C_SZGL,P_HXSZGL,P_A_GLYS,P_B_GLYS,P_C_GLYS,P_HXGLYS,P_DWPL,P_BY_KwhZ,P_BY_KwhJ,P_BY_KwhF,P_BY_KwhP,P_BY_KwhG,P_BY_HKwhZ,P_BY_HKwhJ,P_BY_HKwhF,P_BY_HKwhP,P_BY_HKwhG, P_BY_KvarhZ,P_BY_KvarhJ,P_BY_KvarhF,P_BY_KvarhP,P_BY_KvarhG, P_BY_HKvarhZ,P_BY_HKvarhJ,P_BY_HKvarhF,P_BY_HKvarhP,P_BY_HKvarhG, P_SY_KwhZ,P_SY_KwhJ,P_SY_KwhF,P_SY_KwhP,P_SY_KwhG, P_SY_HKwhZ,P_SY_HKwhJ,P_SY_HKwhF,P_SY_HKwhP,P_SY_HKwhG, P_SY_KvarhZ,P_SY_KvarhJ,P_SY_KvarhF,P_SY_KvarhP,P_SY_KvarhG, P_SY_HKvarhZ,P_SY_HKvarhJ,P_SY_HKvarhF,P_SY_HKvarhP,P_SY_HKvarhG, P_SSY_KwhZ,P_SSY_KwhJ,P_SSY_KwhF,P_SSY_KwhP,P_SSY_KwhG, P_SSY_HKwhZ,P_SSY_HKwhJ,P_SSY_HKwhF,P_SSY_HKwhP,P_SSY_HKwhG, P_SSY_KvarhZ,P_SSY_KvarhJ,P_SSY_KvarhF,P_SSY_KvarhP,P_SSY_KvarhG, P_SSY_HKvarhZ,P_SSY_HKvarhJ,P_SSY_HKvarhF,P_SSY_HKvarhP,P_SSY_HKvarhG,P_CODE,P_TIME,P_ZXYGDN,P_FXYGDN,P_ZXWGDN,P_FXWGDN)values(238.137,238.36,237.975,412.574,412.401,412.228,179.16,182.64,186.96,39000,39720,41760,120480,7200,4440,4920,16560,42600,43560,44520,121560,0.914,0.913,0.937,0.991,50.210037,75994.2,11932.2,35929.8,0,28131,0,0,0,0,0,17812.8,2669.4,9348.6,0,5793.6,0,0,0,0,0,86895,14119.8,41686.8,0,31087.8,0,0,0,0,0,22840.2,3675.6,11962.8,0,7201.2,0,0,0,0,0,66843.6,12376.8,27195.6,0,27271.2,0,0,0,0,0,19162.2,3668.4,8054.4,0,7439.4,0,0,0,0,6.4394e-41,18,20171126213238,4270.238,0,1312.026,8.221)
写入成功读取完毕一个
write:15 03 00 38 00 34 C6 C4
write:1D 03 07 CF 00 78 76 FF
write:13 03 00 38 00 34 C6 A2
write:18 03 01 0F 00 08 77 FA
13 03 68
19totalsize 104
43 6D B5 81 43 6D BC AC 43 6D 9C EE 43 CD DA A0 43 CD CF 7D 43 CD CF 7D 00 00 00 00 00 00 00 00 40 0A 3D 71 00 00 00 00 00 00 00 00 43 C8 00 00 43 F0 00 00 43 70 00 00 43 70 00 00 43 70 00 00 44 34 00 00 43 70 00 00 43 70 00 00 43 F0 00 00 44 5C 00 00 3E 30 20 C5 3D EB 85 1F 3F 58 D4 FE 3F 10 20 C5 42 48 80 27
write:15 03 07 CF 00 78 77 B7
write:1D 03 01 0F 00 08 77 AF
write:13 03 07 CF 00 78 77 D1
write:19 03 00 38 00 34 C6 08
write:15 03 01 0F 00 08 76 E7
write:1E 03 00 38 00 34 C7 BF
write:13 03 01 0F 00 08 76 81
write:19 03 07 CF 00 78 77 7B
77 77 77
heart:77 77 77 2E 75 73 72 2E 63 6E
write:16 03 00 38 00 34 C6 F7
13 03 F0
19totalsize 240
44 A2 CC CD 42 DB 33 33 44 4A CC CD 00 00 00 00 43 BE 99 9A 00 00 00 00 00 00 00 00 00 00 00 00 00 00 00 00 00 00 00 00 43 0F 33 33 3E CC CC CD 43 00 00 00 00 00 00 00 41 66 66 66 43 DA CC CD 42 98 CC CD 43 2B 99 9A 00 00 00 00 43 3C CC CD 44 5A CC CD 42 BC 00 00 43 F7 66 66 00 00 00 00 43 8F 00 00 00 00 00 00 00 00 00 00 00 00 00 00 00 00 00 00 00 00 00 00 40 80 00 00 00 00 00 00 40 4C CC CD 00 00 00 00 3F 4C CC CD 44 1A 99 9A 42 C4 00 00 43 85 66 66 00 00 00 00 43 7D 33 33 44 DC A6 66 42 DB 33 33 44 8E CC CD 00 00 00 00 44 00 4C CD 00 00 00 00 00 00 00 00 00 00 00 00 00 00 00 00 00 00 00 00 42 5E 66 66 3E CC CC CD 42 21 99 9A 00 00 00 00 41 60 00 00 43 FE 00 00 42 B6 66 66 43 3F 99 9A 00 00 00 00 43 60 D2 9C
write:1E 03 07 CF 00 78 76 CC
write:14 03 00 38 00 34 C7 15
14 03 68
20totalsize 104
43 6E 09 BA 43 6E 20 83 43 6D F9 17 43 CE 28 31 43 CE 1D 2F 43 CE 12 0C 41 0E B8 52 40 D8 51 EC 41 11 47 AE 44 A5 00 00 44 70 00 00 44 AA 00 00 45 66 00 00 43 A0 00 00 43 8C 00 00 43 8C 00 00 44 5C 00 00 45 04 80 00 44 C8 00 00 45 07 00 00 45 6B 00 00 3F 21 89 37 3F 1A E1 48 3F 20 41 89 3F 79 16 87 42 48 3C B1
write:19 03 01 0F 00 08 76 2B
write:16 03 07 CF 00 78 77 84
write:1E 03 01 0F 00 08 77 9C
write:14 03 07 CF 00 78 76 66
write:1A 03 00 38 00 34 C6 3B
14 03 F0
20totalsize 240
44 A8 0C CD 43 D2 99 9A 43 9B 99 9A 00 00 00 00 44 18 F3 33 00 00 00 00 00 00 00 00 00 00 00 00 00 00 00 00 00 00 00 00 40 0C CC CD 00 00 00 00 40 0C CC CD 00 00 00 00 00 00 00 00 43 9B CC CD 42 C8 CC CD 42 86 CC CD 00 00 00 00 43 0F 99 9A 44 AC 73 33 43 E0 33 33 43 9A 66 66 00 00 00 00 44 1B 8C CD 00 00 00 00 00 00 00 00 00 00 00 00 00 00 00 00 00 00 00 00 40 99 99 9A 00 00 00 00 40 93 33 33 00 00 00 00 00 00 00 00 43 9B 80 00 42 D2 66 66 42 76 66 66 00 00 00 00 43 10 00 00 44 A4 D9 9A 43 ED 99 9A 43 78 66 66 00 00 00 00 44 14 C0 00 00 00 00 00 00 00 00 00 00 00 00 00 00 00 00 00 00 00 00 00 3F 4C CC CD 00 00 00 00 3F 4C CC CD 00 00 00 00 00 00 00 00 43 8C 66 66 42 D1 33 33 42 3B 33 33 00 00 00 00 43 01 54 BF
write:16 03 01 0F 00 08 76 D4
write:1F 03 00 38 00 34 C6 6E
write:14 03 01 0F 00 08 77 36
14 03 10
2000 04 20 A4 00 00 00 00 00 00 13 51 00 00 21 0A
43 6E 09 BA
238.038
43 6E 20 83
238.127
43 6D F9 17
237.973
43 CE 28 31
412.314
43 CE 1D 2F
412.228
43 CE 12 0C
412.141
41 0E B8 52
8.92
40 D8 51 EC
6.76
41 11 47 AE
9.08
44 A5 00 00
1320
44 70 00 00
960
44 AA 00 00
1360
45 66 00 00
3680
43 A0 00 00
320
43 8C 00 00
280
43 8C 00 00
280
44 5C 00 00
880
45 04 80 00
2120
44 C8 00 00
1600
45 07 00 00
2160
45 6B 00 00
3760
3F 21 89 37
0.631
3F 1A E1 48
0.605
3F 20 41 89
0.626
3F 79 16 87
0.973
42 48 3C B1
50.05927
44 A8 0C CD
1344.4
43 D2 99 9A
421.2
43 9B 99 9A
311.2
00 00 00 00
0
44 18 F3 33
611.8
00 00 00 00
0
00 00 00 00
0
00 00 00 00
0
00 00 00 00
0
00 00 00 00
0
40 0C CC CD
2.2
00 00 00 00
0
40 0C CC CD
2.2
00 00 00 00
0
00 00 00 00
0
43 9B CC CD
311.6
42 C8 CC CD
100.4
42 86 CC CD
67.4
00 00 00 00
0
43 0F 99 9A
143.6
44 AC 73 33
1379.6
43 E0 33 33
448.4
43 9A 66 66
308.8
00 00 00 00
0
44 1B 8C CD
622.2
00 00 00 00
0
00 00 00 00
0
00 00 00 00
0
00 00 00 00
0
00 00 00 00
0
40 99 99 9A
4.8
00 00 00 00
0
40 93 33 33
4.6
00 00 00 00
0
00 00 00 00
0
43 9B 80 00
311
42 D2 66 66
105.2
42 76 66 66
61.6
00 00 00 00
0
43 10 00 00
144
44 A4 D9 9A
1318.8
43 ED 99 9A
475.2
43 78 66 66
248.4
00 00 00 00
0
44 14 C0 00
595
00 00 00 00
0
00 00 00 00
0
00 00 00 00
0
00 00 00 00
0
00 00 00 00
0
3F 4C CC CD
0.8
00 00 00 00
0
3F 4C CC CD
0.8
00 00 00 00
0
00 00 00 00
0
43 8C 66 66
280.8
42 D1 33 33
104.6
42 3B 33 33
46.8
00 00 00 00
0
43 01 54 BF
129.33104
00 04 20 A4
270500
00 00 00 00
0
00 00 13 51
4945
00 00 21 0A
8458
238.038238.127237.973412.314412.228412.1418.926.769.0813209601360368032028028088021201600216037600.6310.6050.6260.97350.059271344.4421.2311.20611.8000002.202.200311.6100.467.40143.61379.6448.4308.80622.2000004.804.600311105.261.601441318.8475.2248.40595000000.800.800280.8104.646.80129.331042020171126213429270.504.9458.458insert into tbl_power_info_v2(P_A_DIANYA,P_B_DIANYA,P_C_DIANYA,P_UAB_XIANDIANYA,P_UBC_XIANDIANYA,P_UCA_XIANDIANYA,P_A_DIANLIU,P_B_DIANLIU,P_C_DIANLIU,P_A_YGGL,P_B_YGGL,P_C_YGGL,P_HXYGGL,P_A_WGGL,P_B_WGGL,P_C_WGGL,P_HXWGGL,P_A_SZGL,P_B_SZGL,P_C_SZGL,P_HXSZGL,P_A_GLYS,P_B_GLYS,P_C_GLYS,P_HXGLYS,P_DWPL,P_BY_KwhZ,P_BY_KwhJ,P_BY_KwhF,P_BY_KwhP,P_BY_KwhG,P_BY_HKwhZ,P_BY_HKwhJ,P_BY_HKwhF,P_BY_HKwhP,P_BY_HKwhG, P_BY_KvarhZ,P_BY_KvarhJ,P_BY_KvarhF,P_BY_KvarhP,P_BY_KvarhG, P_BY_HKvarhZ,P_BY_HKvarhJ,P_BY_HKvarhF,P_BY_HKvarhP,P_BY_HKvarhG, P_SY_KwhZ,P_SY_KwhJ,P_SY_KwhF,P_SY_KwhP,P_SY_KwhG, P_SY_HKwhZ,P_SY_HKwhJ,P_SY_HKwhF,P_SY_HKwhP,P_SY_HKwhG, P_SY_KvarhZ,P_SY_KvarhJ,P_SY_KvarhF,P_SY_KvarhP,P_SY_KvarhG, P_SY_HKvarhZ,P_SY_HKvarhJ,P_SY_HKvarhF,P_SY_HKvarhP,P_SY_HKvarhG, P_SSY_KwhZ,P_SSY_KwhJ,P_SSY_KwhF,P_SSY_KwhP,P_SSY_KwhG, P_SSY_HKwhZ,P_SSY_HKwhJ,P_SSY_HKwhF,P_SSY_HKwhP,P_SSY_HKwhG, P_SSY_KvarhZ,P_SSY_KvarhJ,P_SSY_KvarhF,P_SSY_KvarhP,P_SSY_KvarhG, P_SSY_HKvarhZ,P_SSY_HKvarhJ,P_SSY_HKvarhF,P_SSY_HKvarhP,P_SSY_HKvarhG,P_CODE,P_TIME,P_ZXYGDN,P_FXYGDN,P_ZXWGDN,P_FXWGDN)values(238.038,238.127,237.973,412.314,412.228,412.141,8.92,6.76,9.08,1320,960,1360,3680,320,280,280,880,2120,1600,2160,3760,0.631,0.605,0.626,0.973,50.05927,1344.4,421.2,311.2,0,611.8,0,0,0,0,0,2.2,0,2.2,0,0,311.6,100.4,67.4,0,143.6,1379.6,448.4,308.8,0,622.2,0,0,0,0,0,4.8,0,4.6,0,0,311,105.2,61.6,0,144,1318.8,475.2,248.4,0,595,0,0,0,0,0,0.8,0,0.8,0,0,280.8,104.6,46.8,0,129.33104,20,20171126213429,270.5,0,4.945,8.458)
写入成功读取完毕一个
write:1A 03 07 CF 00 78 77 48
write:17 03 00 38 00 34 C7 26
write:1F 03 07 CF 00 78 77 1D
write:15 03 00 38 00 34 C6 C4
15 03 68
21totalsize 104
43 6D E2 D1 43 6E 03 54 43 6D FC EE 43 CE 06 E9 43 CE 12 0C 43 CD FB E7 00 00 00 00 00 00 00 00 00 00 00 00 00 00 00 00 00 00 00 00 00 00 00 00 00 00 00 00 00 00 00 00 00 00 00 00 00 00 00 00 00 00 00 00 00 00 00 00 00 00 00 00 00 00 00 00 00 00 00 00 00 00 00 00 00 00 00 00 00 00 00 00 00 00 00 00 42 48 AB A6
write:1A 03 01 0F 00 08 76 18
write:17 03 07 CF 00 78 76 55
write:1F 03 01 0F 00 08 76 4D
write:15 03 07 CF 00 78 77 B7
write:1B 03 00 38 00 34 C7 EA
15 03 F0
21totalsize 240
40 CC CC CD 00 00 00 00 40 A6 66 66 00 00 00 00 3F 99 99 9A 00 00 00 00 00 00 00 00 00 00 00 00 00 00 00 00 00 00 00 00 3E CC CC CD 00 00 00 00 3E CC CC CD 00 00 00 00 00 00 00 00 00 00 00 00 00 00 00 00 00 00 00 00 00 00 00 00 00 00 00 00 40 8C CC CD 00 00 00 00 40 66 66 66 00 00 00 00 3F 4C CC CD 00 00 00 00 00 00 00 00 00 00 00 00 00 00 00 00 00 00 00 00 00 00 00 00 00 00 00 00 00 00 00 00 00 00 00 00 00 00 00 00 00 00 00 00 00 00 00 00 00 00 00 00 00 00 00 00 00 00 00 00 42 1E 66 66 00 00 00 00 41 F3 33 33 00 00 00 00 41 13 33 33 00 00 00 00 00 00 00 00 00 00 00 00 00 00 00 00 00 00 00 00 42 D8 00 00 00 00 00 00 42 A3 33 33 00 00 00 00 41 D0 00 00 00 00 00 00 00 00 00 00 00 00 00 00 00 00 00 00 00 00 7F 8C
write:17 03 01 0F 00 08 77 05
write:20 03 00 38 00 34 C3 61
write:15 03 01 0F 00 08 76 E7
write:1B 03 07 CF 00 78 76 99
15 03 10
2100 00 18 95 00 00 00 00 00 00 1D 3D 00 00 8A E4
43 6D E2 D1
237.886
43 6E 03 54
238.013
43 6D FC EE
237.988
43 CE 06 E9
412.054
43 CE 12 0C
412.141
43 CD FB E7
411.968
00 00 00 00
0
00 00 00 00
0
00 00 00 00
0
00 00 00 00
0
00 00 00 00
0
00 00 00 00
0
00 00 00 00
0
00 00 00 00
0
00 00 00 00
0
00 00 00 00
0
00 00 00 00
0
00 00 00 00
0
00 00 00 00
0
00 00 00 00
0
00 00 00 00
0
00 00 00 00
0
00 00 00 00
0
00 00 00 00
0
00 00 00 00
0
42 48 AB A6
50.167625
40 CC CC CD
6.4
00 00 00 00
0
40 A6 66 66
5.2
00 00 00 00
0
3F 99 99 9A
1.2
00 00 00 00
0
00 00 00 00
0
00 00 00 00
0
00 00 00 00
0
00 00 00 00
0
3E CC CC CD
0.4
00 00 00 00
0
3E CC CC CD
0.4
00 00 00 00
0
00 00 00 00
0
00 00 00 00
0
00 00 00 00
0
00 00 00 00
0
00 00 00 00
0
00 00 00 00
0
40 8C CC CD
4.4
00 00 00 00
0
40 66 66 66
3.6
00 00 00 00
0
3F 4C CC CD
0.8
00 00 00 00
0
00 00 00 00
0
00 00 00 00
0
00 00 00 00
0
00 00 00 00
0
00 00 00 00
0
00 00 00 00
0
00 00 00 00
0
00 00 00 00
0
00 00 00 00
0
00 00 00 00
0
00 00 00 00
0
00 00 00 00
0
00 00 00 00
0
00 00 00 00
0
42 1E 66 66
39.6
00 00 00 00
0
41 F3 33 33
30.4
00 00 00 00
0
41 13 33 33
9.2
00 00 00 00
0
00 00 00 00
0
00 00 00 00
0
00 00 00 00
0
00 00 00 00
0
42 D8 00 00
108
00 00 00 00
0
42 A3 33 33
81.6
00 00 00 00
0
41 D0 00 00
26
00 00 00 00
0
00 00 00 00
0
00 00 00 00
0
00 00 00 00
0
00 00 7F 8C
4.5755e-41
00 00 18 95
6293
00 00 00 00
0
00 00 1D 3D
7485
00 00 8A E4
35556
237.886238.013237.988412.054412.141411.968000000000000000000050.1676256.405.201.2000000.400.400000004.403.600.800000000000000039.6030.409.200000108081.602600004.5755e-4121201711262135336.29307.48535.556insert into tbl_power_info_v2(P_A_DIANYA,P_B_DIANYA,P_C_DIANYA,P_UAB_XIANDIANYA,P_UBC_XIANDIANYA,P_UCA_XIANDIANYA,P_A_DIANLIU,P_B_DIANLIU,P_C_DIANLIU,P_A_YGGL,P_B_YGGL,P_C_YGGL,P_HXYGGL,P_A_WGGL,P_B_WGGL,P_C_WGGL,P_HXWGGL,P_A_SZGL,P_B_SZGL,P_C_SZGL,P_HXSZGL,P_A_GLYS,P_B_GLYS,P_C_GLYS,P_HXGLYS,P_DWPL,P_BY_KwhZ,P_BY_KwhJ,P_BY_KwhF,P_BY_KwhP,P_BY_KwhG,P_BY_HKwhZ,P_BY_HKwhJ,P_BY_HKwhF,P_BY_HKwhP,P_BY_HKwhG, P_BY_KvarhZ,P_BY_KvarhJ,P_BY_KvarhF,P_BY_KvarhP,P_BY_KvarhG, P_BY_HKvarhZ,P_BY_HKvarhJ,P_BY_HKvarhF,P_BY_HKvarhP,P_BY_HKvarhG, P_SY_KwhZ,P_SY_KwhJ,P_SY_KwhF,P_SY_KwhP,P_SY_KwhG, P_SY_HKwhZ,P_SY_HKwhJ,P_SY_HKwhF,P_SY_HKwhP,P_SY_HKwhG, P_SY_KvarhZ,P_SY_KvarhJ,P_SY_KvarhF,P_SY_KvarhP,P_SY_KvarhG, P_SY_HKvarhZ,P_SY_HKvarhJ,P_SY_HKvarhF,P_SY_HKvarhP,P_SY_HKvarhG, P_SSY_KwhZ,P_SSY_KwhJ,P_SSY_KwhF,P_SSY_KwhP,P_SSY_KwhG, P_SSY_HKwhZ,P_SSY_HKwhJ,P_SSY_HKwhF,P_SSY_HKwhP,P_SSY_HKwhG, P_SSY_KvarhZ,P_SSY_KvarhJ,P_SSY_KvarhF,P_SSY_KvarhP,P_SSY_KvarhG, P_SSY_HKvarhZ,P_SSY_HKvarhJ,P_SSY_HKvarhF,P_SSY_HKvarhP,P_SSY_HKvarhG,P_CODE,P_TIME,P_ZXYGDN,P_FXYGDN,P_ZXWGDN,P_FXWGDN)values(237.886,238.013,237.988,412.054,412.141,411.968,0,0,0,0,0,0,0,0,0,0,0,0,0,0,0,0,0,0,0,50.167625,6.4,0,5.2,0,1.2,0,0,0,0,0,0.4,0,0.4,0,0,0,0,0,0,0,4.4,0,3.6,0,0.8,0,0,0,0,0,0,0,0,0,0,0,0,0,0,0,39.6,0,30.4,0,9.2,0,0,0,0,0,108,0,81.6,0,26,0,0,0,0,4.5755e-41,21,20171126213533,6.293,0,7.485,35.556)
写入成功读取完毕一个
write:18 03 00 38 00 34 C7 D9
write:20 03 07 CF 00 78 72 12
write:16 03 00 38 00 34 C6 F7
write:1B 03 01 0F 00 08 77 C9
write:18 03 07 CF 00 78 76 AA
write:20 03 01 0F 00 08 73 42
write:16 03 07 CF 00 78 77 84
write:1C 03 00 38 00 34 C6 5D
write:18 03 01 0F 00 08 77 FA
write:16 03 01 0F 00 08 76 D4
write:12 03 00 38 00 34 C7 73
write:1C 03 07 CF 00 78 77 2E
write:19 03 00 38 00 34 C6 08
write:17 03 00 38 00 34 C7 26
write:12 03 07 CF 00 78 76 00
write:1C 03 01 0F 00 08 76 7E
write:19 03 07 CF 00 78 77 7B
write:17 03 07 CF 00 78 76 55
write:12 03 01 0F 00 08 77 50
write:1D 03 00 38 00 34 C7 8C
write:19 03 01 0F 00 08 76 2B
write:17 03 01 0F 00 08 77 05
write:13 03 00 38 00 34 C6 A2
write:1D 03 07 CF 00 78 76 FF
write:1A 03 00 38 00 34 C6 3B
write:18 03 00 38 00 34 C7 D9
write:13 03 07 CF 00 78 77 D1
write:1D 03 01 0F 00 08 77 AF
write:1A 03 07 CF 00 78 77 48
write:18 03 07 CF 00 78 76 AA
write:13 03 01 0F 00 08 76 81
write:1E 03 00 38 00 34 C7 BF
write:1A 03 01 0F 00 08 76 18
write:18 03 01 0F 00 08 77 FA
write:14 03 00 38 00 34 C7 15
write:1E 03 07 CF 00 78 76 CC
write:1B 03 00 38 00 34 C7 EA
write:19 03 00 38 00 34 C6 08
write:14 03 07 CF 00 78 76 66
write:1E 03 01 0F 00 08 77 9C
write:1B 03 07 CF 00 78 76 99
write:19 03 07 CF 00 78 77 7B
write:14 03 01 0F 00 08 77 36
write:1F 03 00 38 00 34 C6 6E
write:1B 03 01 0F 00 08 77 C9
write:19 03 01 0F 00 08 76 2B
write:15 03 00 38 00 34 C6 C4
write:1F 03 07 CF 00 78 77 1D
write:1C 03 00 38 00 34 C6 5D
write:1A 03 00 38 00 34 C6 3B
write:15 03 07 CF 00 78 77 B7
write:1F 03 01 0F 00 08 76 4D
write:1C 03 07 CF 00 78 77 2E
write:1A 03 07 CF 00 78 77 48
write:15 03 01 0F 00 08 76 E7
write:20 03 00 38 00 34 C3 61
77 77 77
heart:77 77 77 2E 75 73 72 2E 63 6E
received messag ?->? 
 124.160.213.230:65254 172.16.246.153:6002
write:12 03 00 38 00 34 C7 73
77 77 77
heart:77 77 77 2E 75 73 72 2E 63 6E
7E 7C 7B
heart:7E 7C 7B E2 B5 FF FB 7F FF FE DE DB FD FF DF FF FB F1 ED FF C4 EB FF F3 6B FF ED F6 CB FE FE EE 7B CD F0 C5 43 CD FB E7 43 CD FB E7 00 00 00 00 3F
CD FB E7
heart:CD FB E7 43 CD 4A 7F 43 CD 4A 7F 40 05 1E B8 FB FF FF F7 40 73 33 33 43 B4 00 00 44 66 00 00 44 52 00 00 45 04 80 00 00 00 85 00 1E 00 20 FB 02 77 05 0A 00 11 13 81 A0 00 00 00 00 1B 21 03 02 00 00 00 1B C1 20 00 00 00 00 1B C1 43 00 00 00 00 03 66 00 00 00 00 00 13 11 F0 80 00 00 00 12 BB 82 8D 00 50 00 00 72 F1 AA 84 6E 1F 01 7B 42 3E 5F 00 1B 08 3F 80 57 00 00 43 C8 00 00 3F 70 A3 D7 3F 29 37 4C 3F 41 89 37 3F 80 00 00 42 48 34 6C
write:1C 03 01 0F 00 08 76 7E
write:1A 03 01 0F 00 08 76 18
write:16 03 00 38 00 34 C6 F7
write:20 03 07 CF 00 78 72 12
1A 03 10
2600 02 88 D1 00 00 00 00 00 00 3D F8 00 00 42 3E
43 6E 4F DF
238.312
43 6E 81 CB
238.507
43 6D B2 B0
237.698
43 CE 75 C3
412.92
43 CE 28 31
412.314
43 CE 12 0C
412.141
00 00 00 00
0
40 C3 D7 0A
6.12
40 99 99 9A
4.8
00 00 00 00
0
44 70 00 00
960
44 34 00 00
720
44 D2 00 00
1680
43 B4 00 00
360
44 16 00 00
600
44 34 00 00
720
44 C3 00 00
1560
43 B4 00 00
360
44 B4 00 00
1440
44 96 00 00
1200
45 0E 80 00
2280
3E 8F 5C 29
0.28
3F 1E F9 DB
0.621
3F 17 4B C7
0.591
3F 39 99 9A
0.725
42 48 29 D2
50.04084
44 E3 79 9A
1819.8
43 40 00 00
192
44 7F 4C CD
1021.2
00 00 00 00
0
44 17 59 9A
605.4
00 00 00 00
0
00 00 00 00
0
00 00 00 00
0
00 00 00 00
0
00 00 00 00
0
42 34 FC 00
45.246094
03 00 00 10
3.761589e-37
00 00 3F 7C
2.2774e-41
00 00 35 3F
1.9101e-41
01 25 68 99
3.038076e-38
9A 44 61 73
-4.061057e-23
33 43 10 99
4.541707e-08
9A 43 C2 B3
-4.0482332e-23
33 00 00 00
2.9802322e-08
00 43 B7 99
6.21884e-39
9A 44 AC E0
-4.0671497e-23
00 43 0E CC
6.158286e-39
CD 44 4A 33
-2.0582482e+08
33 00 00 00
2.9802322e-08
00 43 D7 19
6.230141e-39
9A 00 00 00
-2.646978e-23
00 00 00 00
0
00 00 00 00
0
00 00 00 00
0
00 00 00 00
0
00 40 C0 00
5.946348e-39
00 3F E6 66
5.868288e-39
66 40 19 99
2.2679164e+23
9A 00 00 00
-2.646978e-23
00 3F 99 99
5.840737e-39
9A 44 70 00
-4.0622323e-23
00 43 11 33
6.159148e-39
33 43 D5 4C
4.5595968e-08
CD 00 00 00
-1.3421773e+08
00 43 C1 CC
6.2225e-39
CD 44 E4 00
-2.0645478e+08
00 42 EE CC
6.146807e-39
CD 44 94 20
-2.0612762e+08
00 00 00 00
0
00 44 01 E6
6.245495e-39
66 00 00 00
1.5111573e+23
00 00 00 00
0
00 00 00 00
0
00 00 00 00
0
00 00 00 00
0
00 42 0B 33
6.06516e-39
33 00 00 00
2.9802322e-08
00 41 D3 33
6.045071e-39
33 00 00 00
2.9802322e-08
00 41 06 66
5.971603e-39
66 44 3E F3
2.3168626e+23
33 42 F7 33
4.539397e-08
33 43 9F E6
4.5547402e-08
66 00 00 00
1.5111573e+23
00 43 9F EB
6.210346e-39
00 02 88 D1
166097
00 00 00 00
0
00 00 3D F8
15864
00 00 42 3E
16958
238.312238.507237.698412.92412.314412.14106.124.80960720168036060072015603601440120022800.280.6210.5910.72550.040841819.81921021.20605.40000045.2460943.761589e-372.2774e-411.9101e-413.038076e-38-4.061057e-234.541707e-08-4.0482332e-232.9802322e-086.21884e-39-4.0671497e-236.158286e-39-2.0582482e+082.9802322e-086.230141e-39-2.646978e-2300005.946348e-395.868288e-392.2679164e+23-2.646978e-235.840737e-39-4.0622323e-236.159148e-394.5595968e-08-1.3421773e+086.2225e-39-2.0645478e+086.146807e-39-2.0612762e+0806.245495e-391.5111573e+2300006.06516e-392.9802322e-086.045071e-392.9802322e-085.971603e-392.3168626e+234.539397e-084.5547402e-081.5111573e+236.210346e-392620171126214031166.097015.86416.958insert into tbl_power_info_v2(P_A_DIANYA,P_B_DIANYA,P_C_DIANYA,P_UAB_XIANDIANYA,P_UBC_XIANDIANYA,P_UCA_XIANDIANYA,P_A_DIANLIU,P_B_DIANLIU,P_C_DIANLIU,P_A_YGGL,P_B_YGGL,P_C_YGGL,P_HXYGGL,P_A_WGGL,P_B_WGGL,P_C_WGGL,P_HXWGGL,P_A_SZGL,P_B_SZGL,P_C_SZGL,P_HXSZGL,P_A_GLYS,P_B_GLYS,P_C_GLYS,P_HXGLYS,P_DWPL,P_BY_KwhZ,P_BY_KwhJ,P_BY_KwhF,P_BY_KwhP,P_BY_KwhG,P_BY_HKwhZ,P_BY_HKwhJ,P_BY_HKwhF,P_BY_HKwhP,P_BY_HKwhG, P_BY_KvarhZ,P_BY_KvarhJ,P_BY_KvarhF,P_BY_KvarhP,P_BY_KvarhG, P_BY_HKvarhZ,P_BY_HKvarhJ,P_BY_HKvarhF,P_BY_HKvarhP,P_BY_HKvarhG, P_SY_KwhZ,P_SY_KwhJ,P_SY_KwhF,P_SY_KwhP,P_SY_KwhG, P_SY_HKwhZ,P_SY_HKwhJ,P_SY_HKwhF,P_SY_HKwhP,P_SY_HKwhG, P_SY_KvarhZ,P_SY_KvarhJ,P_SY_KvarhF,P_SY_KvarhP,P_SY_KvarhG, P_SY_HKvarhZ,P_SY_HKvarhJ,P_SY_HKvarhF,P_SY_HKvarhP,P_SY_HKvarhG, P_SSY_KwhZ,P_SSY_KwhJ,P_SSY_KwhF,P_SSY_KwhP,P_SSY_KwhG, P_SSY_HKwhZ,P_SSY_HKwhJ,P_SSY_HKwhF,P_SSY_HKwhP,P_SSY_HKwhG, P_SSY_KvarhZ,P_SSY_KvarhJ,P_SSY_KvarhF,P_SSY_KvarhP,P_SSY_KvarhG, P_SSY_HKvarhZ,P_SSY_HKvarhJ,P_SSY_HKvarhF,P_SSY_HKvarhP,P_SSY_HKvarhG,P_CODE,P_TIME,P_ZXYGDN,P_FXYGDN,P_ZXWGDN,P_FXWGDN)values(238.312,238.507,237.698,412.92,412.314,412.141,0,6.12,4.8,0,960,720,1680,360,600,720,1560,360,1440,1200,2280,0.28,0.621,0.591,0.725,50.04084,1819.8,192,1021.2,0,605.4,0,0,0,0,0,45.246094,3.761589e-37,2.2774e-41,1.9101e-41,3.038076e-38,-4.061057e-23,4.541707e-08,-4.0482332e-23,2.9802322e-08,6.21884e-39,-4.0671497e-23,6.158286e-39,-2.0582482e+08,2.9802322e-08,6.230141e-39,-2.646978e-23,0,0,0,0,5.946348e-39,5.868288e-39,2.2679164e+23,-2.646978e-23,5.840737e-39,-4.0622323e-23,6.159148e-39,4.5595968e-08,-1.3421773e+08,6.2225e-39,-2.0645478e+08,6.146807e-39,-2.0612762e+08,0,6.245495e-39,1.5111573e+23,0,0,0,0,6.06516e-39,2.9802322e-08,6.045071e-39,2.9802322e-08,5.971603e-39,2.3168626e+23,4.539397e-08,4.5547402e-08,1.5111573e+23,6.210346e-39,26,20171126214031,166.097,0,15.864,16.958)
写入成功读取完毕一个
write:12 03 07 CF 00 78 76 00
12 03 F0
18totalsize 240
47 94 75 33 46 3A 70 CD 47 0C 6A 00 00 00 00 00 46 DB C6 00 00 00 00 00 00 00 00 00 00 00 00 00 00 00 00 00 00 00 00 00 46 8B 2E 66 45 26 D6 66 46 12 1E 66 00 00 00 00 45 B5 0C CD 00 00 00 00 00 00 00 00 00 00 00 00 00 00 00 00 00 00 00 00 47 A9 B7 80 46 5C 9F 33 47 22 D6 CD 00 00 00 00 46 F2 DF 9A 00 00 00 00 00 00 00 00 00 00 00 00 00 00 00 00 00 00 00 00 46 B2 70 66 45 65 B9 9A 46 3A EB 33 00 00 00 00 45 E1 09 9A 00 00 00 00 00 00 00 00 00 00 00 00 00 00 00 00 00 00 00 00 47 82 8D CD 46 41 63 33 46 D4 77 33 00 00 00 00 46 D5 0E 66 00 00 00 00 00 00 00 00 00 00 00 00 00 00 00 00 00 00 00 00 46 95 B4 66 45 65 46 66 45 FB B3 33 00 00 00 00 45 E8 7B 33 00 00 00 00 00 00 00 00 00 00 00 00 00 00 00 00 00 00 BB C9
write:1D 03 00 38 00 34 C7 8C
write:1B 03 00 38 00 34 C7 EA
write:16 03 07 CF 00 78 77 84
write:20 03 01 0F 00 08 73 42

err2222: read tcp 172.16.246.153:6002->124.160.213.16:14249: read: connection timed out
write:12 03 01 0F 00 08 77 50
write:1D 03 07 CF 00 78 76 FF
1B 03 68
27write:1B 03 07 CF 00 78 76 99
totalsize 175
43 6C CE 56 43 6C FB E7 43 6C F7 4C 43 CD 7E FF E3 F7 37 43 CD 1E 35 00 00 00 00 3F E6 66 66 00 00 00 00 43 70 00 00 43 70 00 00 00 00 00 00 44 16 00 00 43 70 00 00 43 B4 00 00 00 00 00 00 44 16 00 00 43 B4 00 00 43 F0 00 00 00 00 00 00 44 52 00 00 3F 21 89 37 3F 1C 6A 7F 00 00 00 00 3F 38 51 EC 42 48 2B AC 1B 03 F0 00 00 45 19 F9 9A 41 D8 00 00 44 EF 40 00 00 00 00 00 44 02 59 9A 00 00 00 00 00 00 00 00 00 00 00 00 00 00 00 00 00 00 00 00 44 3B A6 66 41 99 99 9A 44 03 8C CD 00 00 00 00 43 4D 33 33 00 00 00 00 00 00 00
write:16 03 01 0F 00 08 76 D4
write err: write tcp 172.16.246.153:6002->124.160.213.16:14249: use of closed network connection
00 00 00
heart:00 00 00 00 00 00 00 00 00 00 00 00 00 45 10 D3 33 41 F9 99 9A 44 E5 33 33 00 00 00 00 43 E1 E6 66 00 00 00 00 00 00 00 00 00 00 00 00 00 00 00 00 00 00 00 00 44 24 40 00 41 86 66 66 43 E5 CC CD 00 00 00 00 43 34 99 9A 00 00 00 00 00 00 00 00 00 00 00 00 00 00 00 00 00 00 00 00 45 1D 76 66 42 4E 66 66 44 F5 19 9A 00 00 00 00 43 FD 33 33 00 00 00 00 00 00 00 00 00 00 00 00 00 00 00 00 00 00 00 00 44 73 99 9A 42 34 00 00 44 1E 8C CD 00 00 00 00 43 93 4C CD 00 00 00 00 00 00 00 00 00 00 00 00 00 00 00 00 00 00 54 83
write:12 03 00 38 00 34 C7 73
write:13 03 00 38 00 34 C6 A2
13 03 68
19totalsize 104
43 6C C8 B4 43 6C D7 0A 43 6C D3 B6 43 CD 08 10 43 CD 13 12 43 CD 08 10 00 00 00 00 00 00 00 00 40 0A 3D 71 00 00 00 00 00 00 00 00 43 C8 00 00 43 F0 00 00 43 70 00 00 43 70 00 00 43 70 00 00 44 34 00 00 43 70 00 00 43 70 00 00 43 F0 00 00 44 5C 00 00 3E 35 3F 7D 3D F7 CE D9 3F 58 D4 FE 3F 10 62 4E 42 48 C6 F2
write:1D 03 01 0F 00 08 77 AF
write:1B 03 01 0F 00 08 77 C9

err2222: read tcp 172.16.246.153:6002->124.160.213.16:14245: read: connection timed out
write:12 03 07 CF 00 78 76 00
write err: write tcp 172.16.246.153:6002->124.160.213.16:14245: use of closed network connection
write:13 03 07 CF 00 78 77 D1
1B 03 10
2700 02 34 F9 00 00 00 00 00 00 DB 1B 00 00 6A F2
43 6C CE 56
236.806
43 6C FB E7
236.984
43 6C F7 4C
236.966
43 CD 7E FF
410.99216
E3 F7 37 43
-9.1206556e+21
CD 1E 35 00
-1.658921e+08
00 00 00 3F
8.8e-44
E6 66 66 00
-2.7200646e+23
00 00 00 43
9.4e-44
70 00 00 43
1.584576e+29
70 00 00 00
1.5845633e+29
00 00 00 44
9.5e-44
16 00 00 43
1.033984e-25
70 00 00 43
1.584576e+29
B4 00 00 00
-1.1920929e-07
00 00 00 44
9.5e-44
16 00 00 43
1.033984e-25
B4 00 00 43
-1.1921024e-07
F0 00 00 00
-1.5845633e+29
00 00 00 44
9.5e-44
52 00 00 3F
1.3743999e+11
21 89 37 3F
9.298105e-19
1C 6A 7F 00
7.758825e-22
00 00 00 3F
8.8e-44
38 51 EC 42
5.0049515e-05
48 2B AC 1B
175792.42
03 F0 00 00
1.4105932e-36
45 19 F9 9A
2463.6
41 D8 00 00
27
44 EF 40 00
1914
00 00 00 00
0
44 02 59 9A
521.4
00 00 00 00
0
00 00 00 00
0
00 00 00 00
0
00 00 00 00
0
00 00 00 00
0
44 3B A6 66
750.6
41 99 99 9A
19.2
44 03 8C CD
526.2
00 00 00 00
0
43 4D 33 33
205.2
00 00 00 00
0
00 00 00 00
0
45 19 F0 00
2463
41 D8 00 00
27
44 EF 40 00
1914
00 00 00 00
0
44 02 59 9A
521.4
00 00 00 00
0
00 00 00 00
0
00 00 00 00
0
00 00 00 00
0
00 00 00 00
0
44 3B A6 66
750.6
41 99 99 9A
19.2
44 03 8C CD
526.2
00 00 00 00
0
43 4D 33 33
205.2
00 00 00 00
0
00 00 00 00
0
00 00 00 00
0
00 00 00 00
0
00 00 00 00
0
45 10 D3 33
2317.2
41 F9 99 9A
31.2
44 E5 33 33
1833.6
00 00 00 00
0
43 E1 E6 66
451.8
00 00 00 00
0
00 00 00 00
0
00 00 00 00
0
00 00 00 00
0
00 00 00 00
0
44 24 40 00
657
41 86 66 66
16.8
43 E5 CC CD
459.6
00 00 00 00
0
43 34 99 9A
180.6
00 00 00 00
0
00 00 00 00
0
00 00 00 00
0
00 00 00 00
0
00 00 00 00
0
45 1D 76 66
2519.4
42 4E 66 66
51.6
44 F5 19 9A
1960.8
00 00 00 00
0
43 FD 33 33
506.4
00 00 00 00
0
00 00 00 00
0
00 00 00 00
0
00 00 00 00
0
00 00 00 00
0
44 73 99 9A
974.4
42 34 00 00
45
44 1E 8C CD
634.2
00 00 00 00
0
43 93 4C CD
294.6
00 00 00 00
0
00 00 00 00
0
00 00 00 00
0
00 00 00 00
0
00 00 43 DA
2.434e-41
00 02 34 F9
144633
00 00 00 00
0
00 00 DB 1B
56091
00 00 6A F2
27378
236.806236.984236.966410.99216-9.1206556e+21-1.658921e+088.8e-44-2.7200646e+239.4e-441.584576e+291.5845633e+299.5e-441.033984e-251.584576e+29-1.1920929e-079.5e-441.033984e-25-1.1921024e-07-1.5845633e+299.5e-441.3743999e+119.298105e-197.758825e-228.8e-445.0049515e-05175792.421.4105932e-362463.62719140521.400000750.619.2526.20205.20024632719140521.400000750.619.2526.20205.2000002317.231.21833.60451.80000065716.8459.60180.6000002519.451.61960.80506.400000974.445634.20294.600002.434e-412720171126214137144.633056.09127.378insert into tbl_power_info_v2(P_A_DIANYA,P_B_DIANYA,P_C_DIANYA,P_UAB_XIANDIANYA,P_UBC_XIANDIANYA,P_UCA_XIANDIANYA,P_A_DIANLIU,P_B_DIANLIU,P_C_DIANLIU,P_A_YGGL,P_B_YGGL,P_C_YGGL,P_HXYGGL,P_A_WGGL,P_B_WGGL,P_C_WGGL,P_HXWGGL,P_A_SZGL,P_B_SZGL,P_C_SZGL,P_HXSZGL,P_A_GLYS,P_B_GLYS,P_C_GLYS,P_HXGLYS,P_DWPL,P_BY_KwhZ,P_BY_KwhJ,P_BY_KwhF,P_BY_KwhP,P_BY_KwhG,P_BY_HKwhZ,P_BY_HKwhJ,P_BY_HKwhF,P_BY_HKwhP,P_BY_HKwhG, P_BY_KvarhZ,P_BY_KvarhJ,P_BY_KvarhF,P_BY_KvarhP,P_BY_KvarhG, P_BY_HKvarhZ,P_BY_HKvarhJ,P_BY_HKvarhF,P_BY_HKvarhP,P_BY_HKvarhG, P_SY_KwhZ,P_SY_KwhJ,P_SY_KwhF,P_SY_KwhP,P_SY_KwhG, P_SY_HKwhZ,P_SY_HKwhJ,P_SY_HKwhF,P_SY_HKwhP,P_SY_HKwhG, P_SY_KvarhZ,P_SY_KvarhJ,P_SY_KvarhF,P_SY_KvarhP,P_SY_KvarhG, P_SY_HKvarhZ,P_SY_HKvarhJ,P_SY_HKvarhF,P_SY_HKvarhP,P_SY_HKvarhG, P_SSY_KwhZ,P_SSY_KwhJ,P_SSY_KwhF,P_SSY_KwhP,P_SSY_KwhG, P_SSY_HKwhZ,P_SSY_HKwhJ,P_SSY_HKwhF,P_SSY_HKwhP,P_SSY_HKwhG, P_SSY_KvarhZ,P_SSY_KvarhJ,P_SSY_KvarhF,P_SSY_KvarhP,P_SSY_KvarhG, P_SSY_HKvarhZ,P_SSY_HKvarhJ,P_SSY_HKvarhF,P_SSY_HKvarhP,P_SSY_HKvarhG,P_CODE,P_TIME,P_ZXYGDN,P_FXYGDN,P_ZXWGDN,P_FXWGDN)values(236.806,236.984,236.966,410.99216,-9.1206556e+21,-1.658921e+08,8.8e-44,-2.7200646e+23,9.4e-44,1.584576e+29,1.5845633e+29,9.5e-44,1.033984e-25,1.584576e+29,-1.1920929e-07,9.5e-44,1.033984e-25,-1.1921024e-07,-1.5845633e+29,9.5e-44,1.3743999e+11,9.298105e-19,7.758825e-22,8.8e-44,5.0049515e-05,175792.42,1.4105932e-36,2463.6,27,1914,0,521.4,0,0,0,0,0,750.6,19.2,526.2,0,205.2,0,0,2463,27,1914,0,521.4,0,0,0,0,0,750.6,19.2,526.2,0,205.2,0,0,0,0,0,2317.2,31.2,1833.6,0,451.8,0,0,0,0,0,657,16.8,459.6,0,180.6,0,0,0,0,0,2519.4,51.6,1960.8,0,506.4,0,0,0,0,0,974.4,45,634.2,0,294.6,0,0,0,0,2.434e-41,27,20171126214137,144.633,0,56.091,27.378)
Error 1136: Column count doesn't match value count at row 1
写入成功panic: runtime error: invalid memory address or nil pointer dereference
[signal SIGSEGV: segmentation violation code=0x1 addr=0x0 pc=0x5125a5]

goroutine 35 [running]:
database/sql.(*Rows).close(0x0, 0x0, 0x0, 0x0, 0x0)
	/usr/local/soft/go/src/database/sql/sql.go:2742 +0x75
database/sql.(*Rows).Close(0x0, 0x0, 0x0)
	/usr/local/soft/go/src/database/sql/sql.go:2738 +0x3d
main.insert(0xc42021df80)
	/root/work/go/readwrite/gostu/src/main/main2006.go:86 +0x456
main.HandData(0x5ead1b)
	/root/work/go/readwrite/gostu/src/main/main2006.go:141 +0x36e
main.handleRead(0x719c80, 0xc420116090)
	/root/work/go/readwrite/gostu/src/main/main2006.go:246 +0xf09
created by main.main
	/root/work/go/readwrite/gostu/src/main/main2006.go:117 +0x409
exit status 2
