nohup: ignoring input
Listening on :6002
received messag ?->? 
 124.160.213.19:41331 172.16.246.153:6002
write:12 03 00 38 00 34 C7 73
12 03 68
18totalsize 104
43 6A 56 C9 43 6A B4 FE 43 6A A0 42 43 CB 15 1F 43 CB 36 66 43 CB 0A 1D 43 48 A3 D7 43 66 0A 3D 43 0F A3 D7 47 31 A8 00 47 4C D8 00 46 F6 90 00 47 FC A8 00 45 FB 40 00 45 F3 C0 00 45 D9 80 00 46 B2 20 00 47 37 C0 00 47 52 F0 00 47 03 B8 00 48 00 34 00 3F 77 4B C7 3F 78 51 EC 3F 6F 5C 29 3F 7C 28 F6 42 47 F7 00
write:12 03 07 CF 00 78 76 00
12 03 F0
18totalsize 240
47 8C C7 00 46 30 3B 33 47 03 CD 00 00 00 00 00 46 D3 63 33 00 00 00 00 00 00 00 00 00 00 00 00 00 00 00 00 00 00 00 00 46 84 75 9A 45 1E 19 9A 46 09 F8 CD 00 00 00 00 45 AE D3 33 00 00 00 00 00 00 00 00 00 00 00 00 00 00 00 00 00 00 00 00 47 A9 B7 80 46 5C 9F 33 47 22 D6 CD 00 00 00 00 46 F2 DF 9A 00 00 00 00 00 00 00 00 00 00 00 00 00 00 00 00 00 00 00 00 46 B2 70 66 45 65 B9 9A 46 3A EB 33 00 00 00 00 45 E1 09 9A 00 00 00 00 00 00 00 00 00 00 00 00 00 00 00 00 00 00 00 00 47 82 8D CD 46 41 63 33 46 D4 77 33 00 00 00 00 46 D5 0E 66 00 00 00 00 00 00 00 00 00 00 00 00 00 00 00 00 00 00 00 00 46 95 B4 66 45 65 46 66 45 FB B3 33 00 00 00 00 45 E8 7B 33 00 00 00 00 00 00 00 00 00 00 00 00 00 00 00 00 00 00 99 16
write:12 03 01 0F 00 08 77 50
12 03 10
1800 40 A9 23 00 00 00 00 00 13 E9 2A 00 00 31 10
43 6A 56 C9
234.339
43 6A B4 FE
234.707
43 6A A0 42
234.626
43 CB 15 1F
406.165
43 CB 36 66
406.425
43 CB 0A 1D
406.079
43 48 A3 D7
200.64
43 66 0A 3D
230.04
43 0F A3 D7
143.64
47 31 A8 00
45480
47 4C D8 00
52440
46 F6 90 00
31560
47 FC A8 00
129360
45 FB 40 00
8040
45 F3 C0 00
7800
45 D9 80 00
6960
46 B2 20 00
22800
47 37 C0 00
47040
47 52 F0 00
54000
47 03 B8 00
33720
48 00 34 00
131280
3F 77 4B C7
0.966
3F 78 51 EC
0.97
3F 6F 5C 29
0.935
3F 7C 28 F6
0.985
42 47 F7 00
49.99121
47 8C C7 00
72078
46 30 3B 33
11278.8
47 03 CD 00
33741
00 00 00 00
0
46 D3 63 33
27057.6
00 00 00 00
0
00 00 00 00
0
00 00 00 00
0
00 00 00 00
0
00 00 00 00
0
46 84 75 9A
16954.8
45 1E 19 9A
2529.6
46 09 F8 CD
8830.2
00 00 00 00
0
45 AE D3 33
5594.4
00 00 00 00
0
00 00 00 00
0
00 00 00 00
0
00 00 00 00
0
00 00 00 00
0
47 A9 B7 80
86895
46 5C 9F 33
14119.8
47 22 D6 CD
41686.8
00 00 00 00
0
46 F2 DF 9A
31087.8
00 00 00 00
0
00 00 00 00
0
00 00 00 00
0
00 00 00 00
0
00 00 00 00
0
46 B2 70 66
22840.2
45 65 B9 9A
3675.6
46 3A EB 33
11962.8
00 00 00 00
0
45 E1 09 9A
7201.2
00 00 00 00
0
00 00 00 00
0
00 00 00 00
0
00 00 00 00
0
00 00 00 00
0
47 82 8D CD
66843.6
46 41 63 33
12376.8
46 D4 77 33
27195.6
00 00 00 00
0
46 D5 0E 66
27271.2
00 00 00 00
0
00 00 00 00
0
00 00 00 00
0
00 00 00 00
0
00 00 00 00
0
46 95 B4 66
19162.2
45 65 46 66
3668.4
45 FB B3 33
8054.4
00 00 00 00
0
45 E8 7B 33
7439.4
00 00 00 00
0
00 00 00 00
0
00 00 00 00
0
00 00 00 00
0
00 00 99 16
5.4917e-41
00 40 A9 23
4237603
00 00 00 00
0
00 13 E9 2A
1304874
00 00 31 10
12560
234.339234.707234.626406.165406.425406.079200.64230.04143.64454805244031560129360804078006960228004704054000337201312800.9660.970.9350.98549.991217207811278.833741027057.60000016954.82529.68830.205594.4000008689514119.841686.8031087.80000022840.23675.611962.807201.20000066843.612376.827195.6027271.20000019162.23668.48054.407439.400005.4917e-4118201711251029214237.60301304.87412.56insert into tbl_power_info_v2(P_A_DIANYA,P_B_DIANYA,P_C_DIANYA,P_UAB_XIANDIANYA,P_UBC_XIANDIANYA,P_UCA_XIANDIANYA,P_A_DIANLIU,P_B_DIANLIU,P_C_DIANLIU,P_A_YGGL,P_B_YGGL,P_C_YGGL,P_HXYGGL,P_A_WGGL,P_B_WGGL,P_C_WGGL,P_HXWGGL,P_A_SZGL,P_B_SZGL,P_C_SZGL,P_HXSZGL,P_A_GLYS,P_B_GLYS,P_C_GLYS,P_HXGLYS,P_DWPL,P_BY_KwhZ,P_BY_KwhJ,P_BY_KwhF,P_BY_KwhP,P_BY_KwhG,P_BY_HKwhZ,P_BY_HKwhJ,P_BY_HKwhF,P_BY_HKwhP,P_BY_HKwhG, P_BY_KvarhZ,P_BY_KvarhJ,P_BY_KvarhF,P_BY_KvarhP,P_BY_KvarhG, P_BY_HKvarhZ,P_BY_HKvarhJ,P_BY_HKvarhF,P_BY_HKvarhP,P_BY_HKvarhG, P_SY_KwhZ,P_SY_KwhJ,P_SY_KwhF,P_SY_KwhP,P_SY_KwhG, P_SY_HKwhZ,P_SY_HKwhJ,P_SY_HKwhF,P_SY_HKwhP,P_SY_HKwhG, P_SY_KvarhZ,P_SY_KvarhJ,P_SY_KvarhF,P_SY_KvarhP,P_SY_KvarhG, P_SY_HKvarhZ,P_SY_HKvarhJ,P_SY_HKvarhF,P_SY_HKvarhP,P_SY_HKvarhG, P_SSY_KwhZ,P_SSY_KwhJ,P_SSY_KwhF,P_SSY_KwhP,P_SSY_KwhG, P_SSY_HKwhZ,P_SSY_HKwhJ,P_SSY_HKwhF,P_SSY_HKwhP,P_SSY_HKwhG, P_SSY_KvarhZ,P_SSY_KvarhJ,P_SSY_KvarhF,P_SSY_KvarhP,P_SSY_KvarhG, P_SSY_HKvarhZ,P_SSY_HKvarhJ,P_SSY_HKvarhF,P_SSY_HKvarhP,P_SSY_HKvarhG,P_CODE,P_TIME,P_ZXYGDN,P_FXYGDN,P_ZXWGDN,P_FXWGDN)values(234.339,234.707,234.626,406.165,406.425,406.079,200.64,230.04,143.64,45480,52440,31560,129360,8040,7800,6960,22800,47040,54000,33720,131280,0.966,0.97,0.935,0.985,49.99121,72078,11278.8,33741,0,27057.6,0,0,0,0,0,16954.8,2529.6,8830.2,0,5594.4,0,0,0,0,0,86895,14119.8,41686.8,0,31087.8,0,0,0,0,0,22840.2,3675.6,11962.8,0,7201.2,0,0,0,0,0,66843.6,12376.8,27195.6,0,27271.2,0,0,0,0,0,19162.2,3668.4,8054.4,0,7439.4,0,0,0,0,5.4917e-41,18,20171125102921,4237.603,0,1304.874,12.56)
写入成功读取完毕一个
write:13 03 00 38 00 34 C6 A2
13 03 68
19totalsize 104
43 6A 18 10 43 6A 96 87 43 6A 74 FE 43 CA FE FA 43 CB 36 66 43 CA F3 F8 00 00 00 00 3F 99 99 9A 40 05 1E B8 00 00 00 00 00 00 00 00 43 C8 00 00 44 0C 00 00 43 70 00 00 43 70 00 00 43 70 00 00 44 34 00 00 43 70 00 00 43 A0 00 00 43 F0 00 00 44 70 00 00 3E C3 95 81 3E 3B 64 5A 3F 5A 5E 35 3F 1D F3 B6 42 48 B6 B0
write:13 03 07 CF 00 78 77 D1
13 03 F0
19totalsize 240
44 A0 00 00 42 D1 99 9A 44 48 4C CD 00 00 00 00 43 BA CC CD 00 00 00 00 00 00 00 00 00 00 00 00 00 00 00 00 00 00 00 00 43 0F 33 33 3E CC CC CD 43 00 00 00 00 00 00 00 41 66 66 66 43 CD 99 9A 42 8F 33 33 43 1F 33 33 00 00 00 00 43 34 00 00 44 5A CC CD 42 BC 00 00 43 F7 66 66 00 00 00 00 43 8F 00 00 00 00 00 00 00 00 00 00 00 00 00 00 00 00 00 00 00 00 00 00 40 80 00 00 00 00 00 00 40 4C CC CD 00 00 00 00 3F 4C CC CD 44 1A 99 9A 42 C4 00 00 43 85 66 66 00 00 00 00 43 7D 33 33 44 DC A6 66 42 DB 33 33 44 8E CC CD 00 00 00 00 44 00 4C CD 00 00 00 00 00 00 00 00 00 00 00 00 00 00 00 00 00 00 00 00 42 5E 66 66 3E CC CC CD 42 21 99 9A 00 00 00 00 41 60 00 00 43 FE 00 00 42 B6 66 66 43 3F 99 9A 00 00 00 00 43 60 82 B5
write:13 03 01 0F 00 08 76 81
13 03 10
1900 02 93 6D 00 00 00 00 00 00 00 00 00 00 00 00
43 6A 18 10
234.094
43 6A 96 87
234.588
43 6A 74 FE
234.457
43 CA FE FA
405.992
43 CB 36 66
406.425
43 CA F3 F8
405.906
00 00 00 00
0
3F 99 99 9A
1.2
40 05 1E B8
2.08
00 00 00 00
0
00 00 00 00
0
43 C8 00 00
400
44 0C 00 00
560
43 70 00 00
240
43 70 00 00
240
43 70 00 00
240
44 34 00 00
720
43 70 00 00
240
43 A0 00 00
320
43 F0 00 00
480
44 70 00 00
960
3E C3 95 81
0.382
3E 3B 64 5A
0.183
3F 5A 5E 35
0.853
3F 1D F3 B6
0.617
42 48 B6 B0
50.178406
44 A0 00 00
1280
42 D1 99 9A
104.8
44 48 4C CD
801.2
00 00 00 00
0
43 BA CC CD
373.6
00 00 00 00
0
00 00 00 00
0
00 00 00 00
0
00 00 00 00
0
00 00 00 00
0
43 0F 33 33
143.2
3E CC CC CD
0.4
43 00 00 00
128
00 00 00 00
0
41 66 66 66
14.4
43 CD 99 9A
411.2
42 8F 33 33
71.6
43 1F 33 33
159.2
00 00 00 00
0
43 34 00 00
180
44 5A CC CD
875.2
42 BC 00 00
94
43 F7 66 66
494.8
00 00 00 00
0
43 8F 00 00
286
00 00 00 00
0
00 00 00 00
0
00 00 00 00
0
00 00 00 00
0
00 00 00 00
0
40 80 00 00
4
00 00 00 00
0
40 4C CC CD
3.2
00 00 00 00
0
3F 4C CC CD
0.8
44 1A 99 9A
618.4
42 C4 00 00
98
43 85 66 66
266.8
00 00 00 00
0
43 7D 33 33
253.2
44 DC A6 66
1765.2
42 DB 33 33
109.6
44 8E CC CD
1142.4
00 00 00 00
0
44 00 4C CD
513.2
00 00 00 00
0
00 00 00 00
0
00 00 00 00
0
00 00 00 00
0
00 00 00 00
0
42 5E 66 66
55.6
3E CC CC CD
0.4
42 21 99 9A
40.4
00 00 00 00
0
41 60 00 00
14
43 FE 00 00
508
42 B6 66 66
91.2
43 3F 99 9A
191.6
00 00 00 00
0
43 60 82 B5
224.51057
00 02 93 6D
168813
00 00 00 00
0
00 00 00 00
0
00 00 00 00
0
234.094234.588234.457405.992406.425405.90601.22.08004005602402402407202403204809600.3820.1830.8530.61750.1784061280104.8801.20373.600000143.20.4128014.4411.271.6159.20180875.294494.8028600000403.200.8618.498266.80253.21765.2109.61142.40513.20000055.60.440.401450891.2191.60224.510571920171125103020168.813000insert into tbl_power_info_v2(P_A_DIANYA,P_B_DIANYA,P_C_DIANYA,P_UAB_XIANDIANYA,P_UBC_XIANDIANYA,P_UCA_XIANDIANYA,P_A_DIANLIU,P_B_DIANLIU,P_C_DIANLIU,P_A_YGGL,P_B_YGGL,P_C_YGGL,P_HXYGGL,P_A_WGGL,P_B_WGGL,P_C_WGGL,P_HXWGGL,P_A_SZGL,P_B_SZGL,P_C_SZGL,P_HXSZGL,P_A_GLYS,P_B_GLYS,P_C_GLYS,P_HXGLYS,P_DWPL,P_BY_KwhZ,P_BY_KwhJ,P_BY_KwhF,P_BY_KwhP,P_BY_KwhG,P_BY_HKwhZ,P_BY_HKwhJ,P_BY_HKwhF,P_BY_HKwhP,P_BY_HKwhG, P_BY_KvarhZ,P_BY_KvarhJ,P_BY_KvarhF,P_BY_KvarhP,P_BY_KvarhG, P_BY_HKvarhZ,P_BY_HKvarhJ,P_BY_HKvarhF,P_BY_HKvarhP,P_BY_HKvarhG, P_SY_KwhZ,P_SY_KwhJ,P_SY_KwhF,P_SY_KwhP,P_SY_KwhG, P_SY_HKwhZ,P_SY_HKwhJ,P_SY_HKwhF,P_SY_HKwhP,P_SY_HKwhG, P_SY_KvarhZ,P_SY_KvarhJ,P_SY_KvarhF,P_SY_KvarhP,P_SY_KvarhG, P_SY_HKvarhZ,P_SY_HKvarhJ,P_SY_HKvarhF,P_SY_HKvarhP,P_SY_HKvarhG, P_SSY_KwhZ,P_SSY_KwhJ,P_SSY_KwhF,P_SSY_KwhP,P_SSY_KwhG, P_SSY_HKwhZ,P_SSY_HKwhJ,P_SSY_HKwhF,P_SSY_HKwhP,P_SSY_HKwhG, P_SSY_KvarhZ,P_SSY_KvarhJ,P_SSY_KvarhF,P_SSY_KvarhP,P_SSY_KvarhG, P_SSY_HKvarhZ,P_SSY_HKvarhJ,P_SSY_HKvarhF,P_SSY_HKvarhP,P_SSY_HKvarhG,P_CODE,P_TIME,P_ZXYGDN,P_FXYGDN,P_ZXWGDN,P_FXWGDN)values(234.094,234.588,234.457,405.992,406.425,405.906,0,1.2,2.08,0,0,400,560,240,240,240,720,240,320,480,960,0.382,0.183,0.853,0.617,50.178406,1280,104.8,801.2,0,373.6,0,0,0,0,0,143.2,0.4,128,0,14.4,411.2,71.6,159.2,0,180,875.2,94,494.8,0,286,0,0,0,0,0,4,0,3.2,0,0.8,618.4,98,266.8,0,253.2,1765.2,109.6,1142.4,0,513.2,0,0,0,0,0,55.6,0.4,40.4,0,14,508,91.2,191.6,0,224.51057,19,20171125103020,168.813,0,0,0)
写入成功读取完毕一个
00 00 35
heart:00 00 35 3F 00 00 63 88
write:14 03 00 38 00 34 C7 15
14 03 68
20totalsize 104
43 69 E2 8F 43 6A A3 12 43 6A 33 33 43 CA D2 B0 43 CA FE FA 43 CA A6 46 00 00 00 00 00 00 00 00 00 00 00 00 00 00 00 00 00 00 00 00 00 00 00 00 42 A0 00 00 00 00 00 00 00 00 00 00 00 00 00 00 00 00 00 00 00 00 00 00 00 00 00 00 42 A0 00 00 42 A0 00 00 00 00 00 00 00 00 00 00 3F 2D 0E 56 3F 6D D2 F2 42 48 E8 DD
write:14 03 07 CF 00 78 76 66
14 03 F0
20totalsize 240
44 A0 0C CD 43 C7 99 9A 43 90 E6 66 00 00 00 00 44 13 D9 9A 00 00 00 00 00 00 00 00 00 00 00 00 00 00 00 00 00 00 00 00 40 0C CC CD 00 00 00 00 40 0C CC CD 00 00 00 00 00 00 00 00 43 94 4C CD 42 BE 66 66 42 7A 66 66 00 00 00 00 43 0A 99 9A 44 AC 73 33 43 E0 33 33 43 9A 66 66 00 00 00 00 44 1B 8C CD 00 00 00 00 00 00 00 00 00 00 00 00 00 00 00 00 00 00 00 00 40 99 99 9A 00 00 00 00 40 93 33 33 00 00 00 00 00 00 00 00 43 9B 80 00 42 D2 66 66 42 76 66 66 00 00 00 00 43 10 00 00 44 A4 D9 9A 43 ED 99 9A 43 78 66 66 00 00 00 00 44 14 C0 00 00 00 00 00 00 00 00 00 00 00 00 00 00 00 00 00 00 00 00 00 3F 4C CC CD 00 00 00 00 3F 4C CC CD 00 00 00 00 00 00 00 00 43 8C 66 66 42 D1 33 33 42 3B 33 33 00 00 00 00 43 01 26 97
write:14 03 01 0F 00 08 77 36
14 03 10
2000 04 1A 65 00 00 00 00 00 00 13 51 00 00 81 AD
43 69 E2 8F
233.885
43 6A A3 12
234.637
43 6A 33 33
234.2
43 CA D2 B0
405.646
43 CA FE FA
405.992
43 CA A6 46
405.299
00 00 00 00
0
00 00 00 00
0
00 00 00 00
0
00 00 00 00
0
00 00 00 00
0
00 00 00 00
0
42 A0 00 00
80
00 00 00 00
0
00 00 00 00
0
00 00 00 00
0
00 00 00 00
0
00 00 00 00
0
00 00 00 00
0
42 A0 00 00
80
42 A0 00 00
80
00 00 00 00
0
00 00 00 00
0
3F 2D 0E 56
0.676
3F 6D D2 F2
0.929
42 48 E8 DD
50.227406
44 A0 0C CD
1280.4
43 C7 99 9A
399.2
43 90 E6 66
289.8
00 00 00 00
0
44 13 D9 9A
591.4
00 00 00 00
0
00 00 00 00
0
00 00 00 00
0
00 00 00 00
0
00 00 00 00
0
40 0C CC CD
2.2
00 00 00 00
0
40 0C CC CD
2.2
00 00 00 00
0
00 00 00 00
0
43 94 4C CD
296.6
42 BE 66 66
95.2
42 7A 66 66
62.6
00 00 00 00
0
43 0A 99 9A
138.6
44 AC 73 33
1379.6
43 E0 33 33
448.4
43 9A 66 66
308.8
00 00 00 00
0
44 1B 8C CD
622.2
00 00 00 00
0
00 00 00 00
0
00 00 00 00
0
00 00 00 00
0
00 00 00 00
0
40 99 99 9A
4.8
00 00 00 00
0
40 93 33 33
4.6
00 00 00 00
0
00 00 00 00
0
43 9B 80 00
311
42 D2 66 66
105.2
42 76 66 66
61.6
00 00 00 00
0
43 10 00 00
144
44 A4 D9 9A
1318.8
43 ED 99 9A
475.2
43 78 66 66
248.4
00 00 00 00
0
44 14 C0 00
595
00 00 00 00
0
00 00 00 00
0
00 00 00 00
0
00 00 00 00
0
00 00 00 00
0
3F 4C CC CD
0.8
00 00 00 00
0
3F 4C CC CD
0.8
00 00 00 00
0
00 00 00 00
0
43 8C 66 66
280.8
42 D1 33 33
104.6
42 3B 33 33
46.8
00 00 00 00
0
43 01 26 97
129.15074
00 04 1A 65
268901
00 00 00 00
0
00 00 13 51
4945
00 00 81 AD
33197
233.885234.637234.2405.646405.992405.299000000800000008080000.6760.92950.2274061280.4399.2289.80591.4000002.202.200296.695.262.60138.61379.6448.4308.80622.2000004.804.600311105.261.601441318.8475.2248.40595000000.800.800280.8104.646.80129.150742020171125103122268.90104.94533.197insert into tbl_power_info_v2(P_A_DIANYA,P_B_DIANYA,P_C_DIANYA,P_UAB_XIANDIANYA,P_UBC_XIANDIANYA,P_UCA_XIANDIANYA,P_A_DIANLIU,P_B_DIANLIU,P_C_DIANLIU,P_A_YGGL,P_B_YGGL,P_C_YGGL,P_HXYGGL,P_A_WGGL,P_B_WGGL,P_C_WGGL,P_HXWGGL,P_A_SZGL,P_B_SZGL,P_C_SZGL,P_HXSZGL,P_A_GLYS,P_B_GLYS,P_C_GLYS,P_HXGLYS,P_DWPL,P_BY_KwhZ,P_BY_KwhJ,P_BY_KwhF,P_BY_KwhP,P_BY_KwhG,P_BY_HKwhZ,P_BY_HKwhJ,P_BY_HKwhF,P_BY_HKwhP,P_BY_HKwhG, P_BY_KvarhZ,P_BY_KvarhJ,P_BY_KvarhF,P_BY_KvarhP,P_BY_KvarhG, P_BY_HKvarhZ,P_BY_HKvarhJ,P_BY_HKvarhF,P_BY_HKvarhP,P_BY_HKvarhG, P_SY_KwhZ,P_SY_KwhJ,P_SY_KwhF,P_SY_KwhP,P_SY_KwhG, P_SY_HKwhZ,P_SY_HKwhJ,P_SY_HKwhF,P_SY_HKwhP,P_SY_HKwhG, P_SY_KvarhZ,P_SY_KvarhJ,P_SY_KvarhF,P_SY_KvarhP,P_SY_KvarhG, P_SY_HKvarhZ,P_SY_HKvarhJ,P_SY_HKvarhF,P_SY_HKvarhP,P_SY_HKvarhG, P_SSY_KwhZ,P_SSY_KwhJ,P_SSY_KwhF,P_SSY_KwhP,P_SSY_KwhG, P_SSY_HKwhZ,P_SSY_HKwhJ,P_SSY_HKwhF,P_SSY_HKwhP,P_SSY_HKwhG, P_SSY_KvarhZ,P_SSY_KvarhJ,P_SSY_KvarhF,P_SSY_KvarhP,P_SSY_KvarhG, P_SSY_HKvarhZ,P_SSY_HKvarhJ,P_SSY_HKvarhF,P_SSY_HKvarhP,P_SSY_HKvarhG,P_CODE,P_TIME,P_ZXYGDN,P_FXYGDN,P_ZXWGDN,P_FXWGDN)values(233.885,234.637,234.2,405.646,405.992,405.299,0,0,0,0,0,0,80,0,0,0,0,0,0,80,80,0,0,0.676,0.929,50.227406,1280.4,399.2,289.8,0,591.4,0,0,0,0,0,2.2,0,2.2,0,0,296.6,95.2,62.6,0,138.6,1379.6,448.4,308.8,0,622.2,0,0,0,0,0,4.8,0,4.6,0,0,311,105.2,61.6,0,144,1318.8,475.2,248.4,0,595,0,0,0,0,0,0.8,0,0.8,0,0,280.8,104.6,46.8,0,129.15074,20,20171125103122,268.901,0,4.945,33.197)
写入成功读取完毕一个
write:15 03 00 38 00 34 C6 C4
15 03 68
21totalsize 104
43 6A 28 73 43 6A E7 F0 43 6A 90 21 43 CB 15 3F 43 CB 41 89 43 CA E8 D5 00 00 00 00 00 00 00 00 00 00 00 00 00 00 00 00 00 00 00 00 00 00 00 00 00 00 00 00 00 00 00 00 00 00 00 00 00 00 00 00 00 00 00 00 00 00 00 00 00 00 00 00 00 00 00 00 00 00 00 00 00 00 00 00 00 00 00 00 00 00 00 00 00 00 00 00 42 48 56 8E
write:15 03 07 CF 00 78 77 B7
15 03 F0
21totalsize 240
40 CC CC CD 00 00 00 00 40 A6 66 66 00 00 00 00 3F 99 99 9A 00 00 00 00 00 00 00 00 00 00 00 00 00 00 00 00 00 00 00 00 3E CC CC CD 00 00 00 00 3E CC CC CD 00 00 00 00 00 00 00 00 00 00 00 00 00 00 00 00 00 00 00 00 00 00 00 00 00 00 00 00 40 8C CC CD 00 00 00 00 40 66 66 66 00 00 00 00 3F 4C CC CD 00 00 00 00 00 00 00 00 00 00 00 00 00 00 00 00 00 00 00 00 00 00 00 00 00 00 00 00 00 00 00 00 00 00 00 00 00 00 00 00 00 00 00 00 00 00 00 00 00 00 00 00 00 00 00 00 00 00 00 00 42 1E 66 66 00 00 00 00 41 F3 33 33 00 00 00 00 41 13 33 33 00 00 00 00 00 00 00 00 00 00 00 00 00 00 00 00 00 00 00 00 42 D8 00 00 00 00 00 00 42 A3 33 33 00 00 00 00 41 D0 00 00 00 00 00 00 00 00 00 00 00 00 00 00 00 00 00 00 00 00 7F 8C
write:15 03 01 0F 00 08 76 E7
15 03 10
2100 00 18 95 00 00 00 00 00 00 1D 3D 00 00 8A E4
43 6A 28 73
234.158
43 6A E7 F0
234.906
43 6A 90 21
234.563
43 CB 15 3F
406.166
43 CB 41 89
406.512
43 CA E8 D5
405.819
00 00 00 00
0
00 00 00 00
0
00 00 00 00
0
00 00 00 00
0
00 00 00 00
0
00 00 00 00
0
00 00 00 00
0
00 00 00 00
0
00 00 00 00
0
00 00 00 00
0
00 00 00 00
0
00 00 00 00
0
00 00 00 00
0
00 00 00 00
0
00 00 00 00
0
00 00 00 00
0
00 00 00 00
0
00 00 00 00
0
00 00 00 00
0
42 48 56 8E
50.084526
40 CC CC CD
6.4
00 00 00 00
0
40 A6 66 66
5.2
00 00 00 00
0
3F 99 99 9A
1.2
00 00 00 00
0
00 00 00 00
0
00 00 00 00
0
00 00 00 00
0
00 00 00 00
0
3E CC CC CD
0.4
00 00 00 00
0
3E CC CC CD
0.4
00 00 00 00
0
00 00 00 00
0
00 00 00 00
0
00 00 00 00
0
00 00 00 00
0
00 00 00 00
0
00 00 00 00
0
40 8C CC CD
4.4
00 00 00 00
0
40 66 66 66
3.6
00 00 00 00
0
3F 4C CC CD
0.8
00 00 00 00
0
00 00 00 00
0
00 00 00 00
0
00 00 00 00
0
00 00 00 00
0
00 00 00 00
0
00 00 00 00
0
00 00 00 00
0
00 00 00 00
0
00 00 00 00
0
00 00 00 00
0
00 00 00 00
0
00 00 00 00
0
00 00 00 00
0
00 00 00 00
0
42 1E 66 66
39.6
00 00 00 00
0
41 F3 33 33
30.4
00 00 00 00
0
41 13 33 33
9.2
00 00 00 00
0
00 00 00 00
0
00 00 00 00
0
00 00 00 00
0
00 00 00 00
0
42 D8 00 00
108
00 00 00 00
0
42 A3 33 33
81.6
00 00 00 00
0
41 D0 00 00
26
00 00 00 00
0
00 00 00 00
0
00 00 00 00
0
00 00 00 00
0
00 00 7F 8C
4.5755e-41
00 00 18 95
6293
00 00 00 00
0
00 00 1D 3D
7485
00 00 8A E4
35556
234.158234.906234.563406.166406.512405.819000000000000000000050.0845266.405.201.2000000.400.400000004.403.600.800000000000000039.6030.409.200000108081.602600004.5755e-4121201711251032216.29307.48535.556insert into tbl_power_info_v2(P_A_DIANYA,P_B_DIANYA,P_C_DIANYA,P_UAB_XIANDIANYA,P_UBC_XIANDIANYA,P_UCA_XIANDIANYA,P_A_DIANLIU,P_B_DIANLIU,P_C_DIANLIU,P_A_YGGL,P_B_YGGL,P_C_YGGL,P_HXYGGL,P_A_WGGL,P_B_WGGL,P_C_WGGL,P_HXWGGL,P_A_SZGL,P_B_SZGL,P_C_SZGL,P_HXSZGL,P_A_GLYS,P_B_GLYS,P_C_GLYS,P_HXGLYS,P_DWPL,P_BY_KwhZ,P_BY_KwhJ,P_BY_KwhF,P_BY_KwhP,P_BY_KwhG,P_BY_HKwhZ,P_BY_HKwhJ,P_BY_HKwhF,P_BY_HKwhP,P_BY_HKwhG, P_BY_KvarhZ,P_BY_KvarhJ,P_BY_KvarhF,P_BY_KvarhP,P_BY_KvarhG, P_BY_HKvarhZ,P_BY_HKvarhJ,P_BY_HKvarhF,P_BY_HKvarhP,P_BY_HKvarhG, P_SY_KwhZ,P_SY_KwhJ,P_SY_KwhF,P_SY_KwhP,P_SY_KwhG, P_SY_HKwhZ,P_SY_HKwhJ,P_SY_HKwhF,P_SY_HKwhP,P_SY_HKwhG, P_SY_KvarhZ,P_SY_KvarhJ,P_SY_KvarhF,P_SY_KvarhP,P_SY_KvarhG, P_SY_HKvarhZ,P_SY_HKvarhJ,P_SY_HKvarhF,P_SY_HKvarhP,P_SY_HKvarhG, P_SSY_KwhZ,P_SSY_KwhJ,P_SSY_KwhF,P_SSY_KwhP,P_SSY_KwhG, P_SSY_HKwhZ,P_SSY_HKwhJ,P_SSY_HKwhF,P_SSY_HKwhP,P_SSY_HKwhG, P_SSY_KvarhZ,P_SSY_KvarhJ,P_SSY_KvarhF,P_SSY_KvarhP,P_SSY_KvarhG, P_SSY_HKvarhZ,P_SSY_HKvarhJ,P_SSY_HKvarhF,P_SSY_HKvarhP,P_SSY_HKvarhG,P_CODE,P_TIME,P_ZXYGDN,P_FXYGDN,P_ZXWGDN,P_FXWGDN)values(234.158,234.906,234.563,406.166,406.512,405.819,0,0,0,0,0,0,0,0,0,0,0,0,0,0,0,0,0,0,0,50.084526,6.4,0,5.2,0,1.2,0,0,0,0,0,0.4,0,0.4,0,0,0,0,0,0,0,4.4,0,3.6,0,0.8,0,0,0,0,0,0,0,0,0,0,0,0,0,0,0,39.6,0,30.4,0,9.2,0,0,0,0,0,108,0,81.6,0,26,0,0,0,0,4.5755e-41,21,20171125103221,6.293,0,7.485,35.556)
写入成功读取完毕一个
write:16 03 00 38 00 34 C6 F7
77 77 77
heart:77 77 77 2E 75 73 72 2E 63 6E
write:16 03 07 CF 00 78 77 84
write:16 03 01 0F 00 08 76 D4
77 77 77
heart:77 77 77 2E 75 73 72 2E 63 6E
write:17 03 00 38 00 34 C7 26
17 03 68
23totalsize 104
43 6A 2F 1B 43 6A B6 87 43 6A A3 54 43 CA FE FA 43 CB 36 66 43 CA F3 F8 3F DC 28 F6 40 70 A3 D7 00 00 00 00 43 70 00 00 44 48 00 00 42 F0 00 00 44 91 00 00 42 A0 00 00 42 A0 00 00 00 00 00 00 42 F0 00 00 43 C8 00 00 44 5C 00 00 42 F0 00 00 44 96 00 00 3F 23 53 F8 3F 6C 49 BA 3F 5E 76 C9 3F 7E 76 C9 42 48 46 45
write:17 03 07 CF 00 78 76 55
17 03 F0
23totalsize 240
44 9D 19 9A 43 5C 33 33 44 4C 4C CD 00 00 00 00 43 5B 33 33 00 00 00 00 00 00 00 00 00 00 00 00 00 00 00 00 00 00 00 00 42 04 00 00 40 4C CC CD 41 CC CC CD 00 00 00 00 40 86 66 66 42 5E 66 66 41 40 00 00 41 B4 CC CD 00 00 00 00 41 A6 66 66 44 AC 0C CD 43 8E E6 66 44 54 80 00 00 00 00 00 43 70 33 33 00 00 00 00 00 00 00 00 00 00 00 00 00 00 00 00 00 00 00 00 41 16 66 66 3E CC CC CD 40 D9 99 9A 00 00 00 00 3F E6 66 66 42 D5 33 33 41 BB 33 33 42 46 66 66 00 00 00 00 42 05 99 9A 44 EF 33 33 43 86 66 66 44 9D 8C CD 00 00 00 00 43 C0 19 9A 00 00 00 00 00 00 00 00 00 00 00 00 00 00 00 00 00 00 00 00 41 66 66 66 3F 19 99 9A 41 20 00 00 00 00 00 00 40 73 33 33 42 8D 99 9A 41 56 66 66 41 F6 66 66 00 00 00 00 41 D3 31 04
write:17 03 01 0F 00 08 77 05
17 03 10
2300 03 E9 95 00 00 00 00 00 00 E7 72 00 00 49 52
43 6A 2F 1B
234.184
43 6A B6 87
234.713
43 6A A3 54
234.638
43 CA FE FA
405.992
43 CB 36 66
406.425
43 CA F3 F8
405.906
3F DC 28 F6
1.72
40 70 A3 D7
3.76
00 00 00 00
0
43 70 00 00
240
44 48 00 00
800
42 F0 00 00
120
44 91 00 00
1160
42 A0 00 00
80
42 A0 00 00
80
00 00 00 00
0
42 F0 00 00
120
43 C8 00 00
400
44 5C 00 00
880
42 F0 00 00
120
44 96 00 00
1200
3F 23 53 F8
0.638
3F 6C 49 BA
0.923
3F 5E 76 C9
0.869
3F 7E 76 C9
0.994
42 48 46 45
50.068623
44 9D 19 9A
1256.8
43 5C 33 33
220.2
44 4C 4C CD
817.2
00 00 00 00
0
43 5B 33 33
219.2
00 00 00 00
0
00 00 00 00
0
00 00 00 00
0
00 00 00 00
0
00 00 00 00
0
42 04 00 00
33
40 4C CC CD
3.2
41 CC CC CD
25.6
00 00 00 00
0
40 86 66 66
4.2
42 5E 66 66
55.6
41 40 00 00
12
41 B4 CC CD
22.6
00 00 00 00
0
41 A6 66 66
20.8
44 AC 0C CD
1376.4
43 8E E6 66
285.8
44 54 80 00
850
00 00 00 00
0
43 70 33 33
240.2
00 00 00 00
0
00 00 00 00
0
00 00 00 00
0
00 00 00 00
0
00 00 00 00
0
41 16 66 66
9.4
3E CC CC CD
0.4
40 D9 99 9A
6.8
00 00 00 00
0
3F E6 66 66
1.8
42 D5 33 33
106.6
41 BB 33 33
23.4
42 46 66 66
49.6
00 00 00 00
0
42 05 99 9A
33.4
44 EF 33 33
1913.6
43 86 66 66
268.8
44 9D 8C CD
1260.4
00 00 00 00
0
43 C0 19 9A
384.2
00 00 00 00
0
00 00 00 00
0
00 00 00 00
0
00 00 00 00
0
00 00 00 00
0
41 66 66 66
14.4
3F 19 99 9A
0.6
41 20 00 00
10
00 00 00 00
0
40 73 33 33
3.8
42 8D 99 9A
70.8
41 56 66 66
13.4
41 F6 66 66
30.8
00 00 00 00
0
41 D3 31 04
26.398933
00 03 E9 95
256405
00 00 00 00
0
00 00 E7 72
59250
00 00 49 52
18770
234.184234.713234.638405.992406.425405.9061.723.76024080012011608080012040088012012000.6380.9230.8690.99450.0686231256.8220.2817.20219.200000333.225.604.255.61222.6020.81376.4285.88500240.2000009.40.46.801.8106.623.449.6033.41913.6268.81260.40384.20000014.40.61003.870.813.430.8026.3989332320171125103421256.405059.2518.77insert into tbl_power_info_v2(P_A_DIANYA,P_B_DIANYA,P_C_DIANYA,P_UAB_XIANDIANYA,P_UBC_XIANDIANYA,P_UCA_XIANDIANYA,P_A_DIANLIU,P_B_DIANLIU,P_C_DIANLIU,P_A_YGGL,P_B_YGGL,P_C_YGGL,P_HXYGGL,P_A_WGGL,P_B_WGGL,P_C_WGGL,P_HXWGGL,P_A_SZGL,P_B_SZGL,P_C_SZGL,P_HXSZGL,P_A_GLYS,P_B_GLYS,P_C_GLYS,P_HXGLYS,P_DWPL,P_BY_KwhZ,P_BY_KwhJ,P_BY_KwhF,P_BY_KwhP,P_BY_KwhG,P_BY_HKwhZ,P_BY_HKwhJ,P_BY_HKwhF,P_BY_HKwhP,P_BY_HKwhG, P_BY_KvarhZ,P_BY_KvarhJ,P_BY_KvarhF,P_BY_KvarhP,P_BY_KvarhG, P_BY_HKvarhZ,P_BY_HKvarhJ,P_BY_HKvarhF,P_BY_HKvarhP,P_BY_HKvarhG, P_SY_KwhZ,P_SY_KwhJ,P_SY_KwhF,P_SY_KwhP,P_SY_KwhG, P_SY_HKwhZ,P_SY_HKwhJ,P_SY_HKwhF,P_SY_HKwhP,P_SY_HKwhG, P_SY_KvarhZ,P_SY_KvarhJ,P_SY_KvarhF,P_SY_KvarhP,P_SY_KvarhG, P_SY_HKvarhZ,P_SY_HKvarhJ,P_SY_HKvarhF,P_SY_HKvarhP,P_SY_HKvarhG, P_SSY_KwhZ,P_SSY_KwhJ,P_SSY_KwhF,P_SSY_KwhP,P_SSY_KwhG, P_SSY_HKwhZ,P_SSY_HKwhJ,P_SSY_HKwhF,P_SSY_HKwhP,P_SSY_HKwhG, P_SSY_KvarhZ,P_SSY_KvarhJ,P_SSY_KvarhF,P_SSY_KvarhP,P_SSY_KvarhG, P_SSY_HKvarhZ,P_SSY_HKvarhJ,P_SSY_HKvarhF,P_SSY_HKvarhP,P_SSY_HKvarhG,P_CODE,P_TIME,P_ZXYGDN,P_FXYGDN,P_ZXWGDN,P_FXWGDN)values(234.184,234.713,234.638,405.992,406.425,405.906,1.72,3.76,0,240,800,120,1160,80,80,0,120,400,880,120,1200,0.638,0.923,0.869,0.994,50.068623,1256.8,220.2,817.2,0,219.2,0,0,0,0,0,33,3.2,25.6,0,4.2,55.6,12,22.6,0,20.8,1376.4,285.8,850,0,240.2,0,0,0,0,0,9.4,0.4,6.8,0,1.8,106.6,23.4,49.6,0,33.4,1913.6,268.8,1260.4,0,384.2,0,0,0,0,0,14.4,0.6,10,0,3.8,70.8,13.4,30.8,0,26.398933,23,20171125103421,256.405,0,59.25,18.77)
写入成功读取完毕一个
write:18 03 00 38 00 34 C7 D9
18 03 68
24totalsize 104
43 69 B1 27 43 69 FD 2F 43 6A 0C 4A 43 CA 6E D9 43 CA 9B 44 43 CA 79 FC 3F EB 85 1F 3F 8F 5C 29 3F 19 99 9A 43 8C 00 00 43 20 00 00 42 F0 00 00 44 0C 00 00 00 00 00 00 42 A0 00 00 00 00 00 00 00 00 00 00 43 DC 00 00 43 8C 00 00 43 20 00 00 44 0C 00 00 3F 21 06 25 3F 2F 5C 29 3F 49 78 D5 3F 7E F9 DB 42 47 EE 56
write:18 03 07 CF 00 78 76 AA
18 03 F0
24totalsize 240
44 5F 66 66 43 54 33 33 43 F3 33 33 00 00 00 00 43 42 CC CD 00 00 00 00 00 00 00 00 00 00 00 00 00 00 00 00 00 00 00 00 43 33 99 9A 41 DE 66 66 42 D4 00 00 00 00 00 00 42 36 66 66 41 D3 33 33 40 F3 33 33 41 73 33 33 00 00 00 00 40 66 66 66 44 19 99 9A 43 00 00 00 43 A7 CC CD 00 00 00 00 43 16 99 9A 00 00 00 00 00 00 00 00 00 00 00 00 00 00 00 00 00 00 00 00 42 45 99 9A 3F 80 00 00 42 09 99 9A 00 00 00 00 41 60 00 00 42 0A 66 66 41 00 00 00 41 AC CC CD 00 00 00 00 40 99 99 9A 44 3F E6 66 43 0C 33 33 43 D9 E6 66 00 00 00 00 43 3F 66 66 00 00 00 00 00 00 00 00 00 00 00 00 00 00 00 00 00 00 00 00 43 A3 99 9A 41 A8 00 00 43 6C 99 9A 00 00 00 00 42 8A CC CD 42 1B 33 33 41 23 33 33 41 A6 66 66 00 00 00 00 40 F9 9A 6C
write:18 03 01 0F 00 08 77 FA
18 03 10
2400 02 02 0D 00 00 00 00 00 00 C6 23 00 00 F7 6C
43 69 B1 27
233.692
43 69 FD 2F
233.989
43 6A 0C 4A
234.048
43 CA 6E D9
404.866
43 CA 9B 44
405.213
43 CA 79 FC
404.953
3F EB 85 1F
1.84
3F 8F 5C 29
1.12
3F 19 99 9A
0.6
43 8C 00 00
280
43 20 00 00
160
42 F0 00 00
120
44 0C 00 00
560
00 00 00 00
0
42 A0 00 00
80
00 00 00 00
0
00 00 00 00
0
43 DC 00 00
440
43 8C 00 00
280
43 20 00 00
160
44 0C 00 00
560
3F 21 06 25
0.629
3F 2F 5C 29
0.685
3F 49 78 D5
0.787
3F 7E F9 DB
0.996
42 47 EE 56
49.98275
44 5F 66 66
893.6
43 54 33 33
212.2
43 F3 33 33
486.4
00 00 00 00
0
43 42 CC CD
194.8
00 00 00 00
0
00 00 00 00
0
00 00 00 00
0
00 00 00 00
0
00 00 00 00
0
43 33 99 9A
179.6
41 DE 66 66
27.8
42 D4 00 00
106
00 00 00 00
0
42 36 66 66
45.6
41 D3 33 33
26.4
40 F3 33 33
7.6
41 73 33 33
15.2
00 00 00 00
0
40 66 66 66
3.6
44 19 99 9A
614.4
43 00 00 00
128
43 A7 CC CD
335.6
00 00 00 00
0
43 16 99 9A
150.6
00 00 00 00
0
00 00 00 00
0
00 00 00 00
0
00 00 00 00
0
00 00 00 00
0
42 45 99 9A
49.4
3F 80 00 00
1
42 09 99 9A
34.4
00 00 00 00
0
41 60 00 00
14
42 0A 66 66
34.6
41 00 00 00
8
41 AC CC CD
21.6
00 00 00 00
0
40 99 99 9A
4.8
44 3F E6 66
767.6
43 0C 33 33
140.2
43 D9 E6 66
435.8
00 00 00 00
0
43 3F 66 66
191.4
00 00 00 00
0
00 00 00 00
0
00 00 00 00
0
00 00 00 00
0
00 00 00 00
0
43 A3 99 9A
327.2
41 A8 00 00
21
43 6C 99 9A
236.6
00 00 00 00
0
42 8A CC CD
69.4
42 1B 33 33
38.8
41 23 33 33
10.2
41 A6 66 66
20.8
00 00 00 00
0
40 F9 9A 6C
7.8001003
00 02 02 0D
131597
00 00 00 00
0
00 00 C6 23
50723
00 00 F7 6C
63340
233.692233.989234.048404.866405.213404.9531.841.120.6280160120560080004402801605600.6290.6850.7870.99649.98275893.6212.2486.40194.800000179.627.8106045.626.47.615.203.6614.4128335.60150.60000049.4134.401434.6821.604.8767.6140.2435.80191.400000327.221236.6069.438.810.220.807.80010032420171125103526131.597050.72363.34insert into tbl_power_info_v2(P_A_DIANYA,P_B_DIANYA,P_C_DIANYA,P_UAB_XIANDIANYA,P_UBC_XIANDIANYA,P_UCA_XIANDIANYA,P_A_DIANLIU,P_B_DIANLIU,P_C_DIANLIU,P_A_YGGL,P_B_YGGL,P_C_YGGL,P_HXYGGL,P_A_WGGL,P_B_WGGL,P_C_WGGL,P_HXWGGL,P_A_SZGL,P_B_SZGL,P_C_SZGL,P_HXSZGL,P_A_GLYS,P_B_GLYS,P_C_GLYS,P_HXGLYS,P_DWPL,P_BY_KwhZ,P_BY_KwhJ,P_BY_KwhF,P_BY_KwhP,P_BY_KwhG,P_BY_HKwhZ,P_BY_HKwhJ,P_BY_HKwhF,P_BY_HKwhP,P_BY_HKwhG, P_BY_KvarhZ,P_BY_KvarhJ,P_BY_KvarhF,P_BY_KvarhP,P_BY_KvarhG, P_BY_HKvarhZ,P_BY_HKvarhJ,P_BY_HKvarhF,P_BY_HKvarhP,P_BY_HKvarhG, P_SY_KwhZ,P_SY_KwhJ,P_SY_KwhF,P_SY_KwhP,P_SY_KwhG, P_SY_HKwhZ,P_SY_HKwhJ,P_SY_HKwhF,P_SY_HKwhP,P_SY_HKwhG, P_SY_KvarhZ,P_SY_KvarhJ,P_SY_KvarhF,P_SY_KvarhP,P_SY_KvarhG, P_SY_HKvarhZ,P_SY_HKvarhJ,P_SY_HKvarhF,P_SY_HKvarhP,P_SY_HKvarhG, P_SSY_KwhZ,P_SSY_KwhJ,P_SSY_KwhF,P_SSY_KwhP,P_SSY_KwhG, P_SSY_HKwhZ,P_SSY_HKwhJ,P_SSY_HKwhF,P_SSY_HKwhP,P_SSY_HKwhG, P_SSY_KvarhZ,P_SSY_KvarhJ,P_SSY_KvarhF,P_SSY_KvarhP,P_SSY_KvarhG, P_SSY_HKvarhZ,P_SSY_HKvarhJ,P_SSY_HKvarhF,P_SSY_HKvarhP,P_SSY_HKvarhG,P_CODE,P_TIME,P_ZXYGDN,P_FXYGDN,P_ZXWGDN,P_FXWGDN)values(233.692,233.989,234.048,404.866,405.213,404.953,1.84,1.12,0.6,280,160,120,560,0,80,0,0,440,280,160,560,0.629,0.685,0.787,0.996,49.98275,893.6,212.2,486.4,0,194.8,0,0,0,0,0,179.6,27.8,106,0,45.6,26.4,7.6,15.2,0,3.6,614.4,128,335.6,0,150.6,0,0,0,0,0,49.4,1,34.4,0,14,34.6,8,21.6,0,4.8,767.6,140.2,435.8,0,191.4,0,0,0,0,0,327.2,21,236.6,0,69.4,38.8,10.2,20.8,0,7.8001003,24,20171125103526,131.597,0,50.723,63.34)
写入成功读取完毕一个
write:19 03 00 38 00 34 C6 08
19 03 68
25totalsize 104
43 6A 5D 2F 43 6A B2 6F 43 6A AA C1 43 CB 0A 1D 43 CB 2B 64 43 CB 0A 1D 00 00 00 00 3F 85 1E B8 40 1C 28 F6 42 A0 00 00 43 20 00 00 43 C8 00 00 44 20 00 00 00 00 00 00 42 A0 00 00 00 00 00 00 42 F0 00 00 42 F0 00 00 43 70 00 00 44 0C 00 00 44 2A 00 00 3F 4E 14 7B 3F 1E 35 3F 3F 3E B8 52 3F 7C ED 91 42 48 AA 21
write:19 03 07 CF 00 78 77 7B
77 77 77
heart:77 77 77 2E 75 73 72 2E 63 6E
19 03 F0
25totalsize 240
43 B8 19 9A 42 26 66 66 43 51 00 00 00 00 00 00 42 EB 33 33 00 00 00 00 00 00 00 00 00 00 00 00 00 00 00 00 00 00 00 00 41 73 33 33 00 00 00 00 41 60 00 00 00 00 00 00 3F 80 00 00 42 1F 33 33 40 EC CC CD 41 79 99 9A 00 00 00 00 41 84 CC CD 43 B7 B3 33 42 3F 33 33 43 3E 00 00 00 00 00 00 43 01 66 66 00 00 00 00 00 00 00 00 00 00 00 00 00 00 00 00 00 00 00 00 41 10 00 00 00 00 00 00 40 C6 66 66 00 00 00 00 40 26 66 66 42 63 33 33 41 29 99 9A 41 BC CC CD 00 00 00 00 41 B3 33 33 43 A0 E6 66 42 0F 33 33 43 2B CC CD 00 00 00 00 42 E4 00 00 00 00 00 00 00 00 00 00 00 00 00 00 00 00 00 00 00 00 00 00 3E CC CC CD 00 00 00 00 3E 4C CC CD 00 00 00 00 00 00 00 00 42 21 99 9A 40 B9 99 9A 41 A3 33 33 00 00 00 00 41 60 17 83
write:19 03 01 0F 00 08 76 2B
19 03 10
2500 00 F3 7C 00 00 00 00 00 00 06 98 00 00 91 08
43 6A 5D 2F
234.364
43 6A B2 6F
234.697
43 6A AA C1
234.667
43 CB 0A 1D
406.079
43 CB 2B 64
406.339
43 CB 0A 1D
406.079
00 00 00 00
0
3F 85 1E B8
1.04
40 1C 28 F6
2.44
42 A0 00 00
80
43 20 00 00
160
43 C8 00 00
400
44 20 00 00
640
00 00 00 00
0
42 A0 00 00
80
00 00 00 00
0
42 F0 00 00
120
42 F0 00 00
120
43 70 00 00
240
44 0C 00 00
560
44 2A 00 00
680
3F 4E 14 7B
0.805
3F 1E 35 3F
0.618
3F 3E B8 52
0.745
3F 7C ED 91
0.988
42 48 AA 21
50.16614
43 B8 19 9A
368.2
42 26 66 66
41.6
43 51 00 00
209
00 00 00 00
0
42 EB 33 33
117.6
00 00 00 00
0
00 00 00 00
0
00 00 00 00
0
00 00 00 00
0
00 00 00 00
0
41 73 33 33
15.2
00 00 00 00
0
41 60 00 00
14
00 00 00 00
0
3F 80 00 00
1
42 1F 33 33
39.8
40 EC CC CD
7.4
41 79 99 9A
15.6
00 00 00 00
0
41 84 CC CD
16.6
43 B7 B3 33
367.4
42 3F 33 33
47.8
43 3E 00 00
190
00 00 00 00
0
43 01 66 66
129.4
00 00 00 00
0
00 00 00 00
0
00 00 00 00
0
00 00 00 00
0
00 00 00 00
0
41 10 00 00
9
00 00 00 00
0
40 C6 66 66
6.2
00 00 00 00
0
40 26 66 66
2.6
42 63 33 33
56.8
41 29 99 9A
10.6
41 BC CC CD
23.6
00 00 00 00
0
41 B3 33 33
22.4
43 A0 E6 66
321.8
42 0F 33 33
35.8
43 2B CC CD
171.8
00 00 00 00
0
42 E4 00 00
114
00 00 00 00
0
00 00 00 00
0
00 00 00 00
0
00 00 00 00
0
00 00 00 00
0
3E CC CC CD
0.4
00 00 00 00
0
3E 4C CC CD
0.2
00 00 00 00
0
00 00 00 00
0
42 21 99 9A
40.4
40 B9 99 9A
5.8
41 A3 33 33
20.4
00 00 00 00
0
41 60 17 83
14.00574
00 00 F3 7C
62332
00 00 00 00
0
00 00 06 98
1688
00 00 91 08
37128
234.364234.697234.667406.079406.339406.07901.042.448016040064008001201202405606800.8050.6180.7450.98850.16614368.241.62090117.60000015.20140139.87.415.6016.6367.447.81900129.400000906.202.656.810.623.6022.4321.835.8171.80114000000.400.20040.45.820.4014.00574252017112510361962.33201.68837.128insert into tbl_power_info_v2(P_A_DIANYA,P_B_DIANYA,P_C_DIANYA,P_UAB_XIANDIANYA,P_UBC_XIANDIANYA,P_UCA_XIANDIANYA,P_A_DIANLIU,P_B_DIANLIU,P_C_DIANLIU,P_A_YGGL,P_B_YGGL,P_C_YGGL,P_HXYGGL,P_A_WGGL,P_B_WGGL,P_C_WGGL,P_HXWGGL,P_A_SZGL,P_B_SZGL,P_C_SZGL,P_HXSZGL,P_A_GLYS,P_B_GLYS,P_C_GLYS,P_HXGLYS,P_DWPL,P_BY_KwhZ,P_BY_KwhJ,P_BY_KwhF,P_BY_KwhP,P_BY_KwhG,P_BY_HKwhZ,P_BY_HKwhJ,P_BY_HKwhF,P_BY_HKwhP,P_BY_HKwhG, P_BY_KvarhZ,P_BY_KvarhJ,P_BY_KvarhF,P_BY_KvarhP,P_BY_KvarhG, P_BY_HKvarhZ,P_BY_HKvarhJ,P_BY_HKvarhF,P_BY_HKvarhP,P_BY_HKvarhG, P_SY_KwhZ,P_SY_KwhJ,P_SY_KwhF,P_SY_KwhP,P_SY_KwhG, P_SY_HKwhZ,P_SY_HKwhJ,P_SY_HKwhF,P_SY_HKwhP,P_SY_HKwhG, P_SY_KvarhZ,P_SY_KvarhJ,P_SY_KvarhF,P_SY_KvarhP,P_SY_KvarhG, P_SY_HKvarhZ,P_SY_HKvarhJ,P_SY_HKvarhF,P_SY_HKvarhP,P_SY_HKvarhG, P_SSY_KwhZ,P_SSY_KwhJ,P_SSY_KwhF,P_SSY_KwhP,P_SSY_KwhG, P_SSY_HKwhZ,P_SSY_HKwhJ,P_SSY_HKwhF,P_SSY_HKwhP,P_SSY_HKwhG, P_SSY_KvarhZ,P_SSY_KvarhJ,P_SSY_KvarhF,P_SSY_KvarhP,P_SSY_KvarhG, P_SSY_HKvarhZ,P_SSY_HKvarhJ,P_SSY_HKvarhF,P_SSY_HKvarhP,P_SSY_HKvarhG,P_CODE,P_TIME,P_ZXYGDN,P_FXYGDN,P_ZXWGDN,P_FXWGDN)values(234.364,234.697,234.667,406.079,406.339,406.079,0,1.04,2.44,80,160,400,640,0,80,0,120,120,240,560,680,0.805,0.618,0.745,0.988,50.16614,368.2,41.6,209,0,117.6,0,0,0,0,0,15.2,0,14,0,1,39.8,7.4,15.6,0,16.6,367.4,47.8,190,0,129.4,0,0,0,0,0,9,0,6.2,0,2.6,56.8,10.6,23.6,0,22.4,321.8,35.8,171.8,0,114,0,0,0,0,0,0.4,0,0.2,0,0,40.4,5.8,20.4,0,14.00574,25,20171125103619,62.332,0,1.688,37.128)
写入成功读取完毕一个
write:1A 03 00 38 00 34 C6 3B
1A 03 68
26totalsize 104
43 69 F4 7B 43 69 EE D9 43 6A 48 F6 43 CA 90 21 43 CA B1 68 43 CA B1 68 40 02 8F 5C 40 21 47 AE 40 5E B8 52 00 00 00 00 43 B4 00 00 43 F0 00 00 44 70 00 00 43 B4 00 00 43 F0 00 00 44 16 00 00 44 B4 00 00 43 F0 00 00 44 16 00 00 44 52 00 00 44 D2 00 00 3E C1 06 25 3F 16 C8 B4 3F 12 B0 21 3F 12 F1 AA 42 47 79 5B
write:1A 03 07 CF 00 78 77 48
1A 03 F0
26totalsize 240
44 DE F9 9A 43 39 66 66 44 7B 19 9A 00 00 00 00 44 14 59 9A 00 00 00 00 00 00 00 00 00 00 00 00 00 00 00 00 00 00 00 00 42 97 33 33 40 99 99 9A 42 1C 00 00 00 00 00 00 41 F9 99 9A 44 54 D9 9A 43 07 99 9A 43 B6 B3 33 00 00 00 00 43 AE E6 66 44 AC E0 00 43 0E CC CD 44 4A 33 33 00 00 00 00 43 D7 19 9A 00 00 00 00 00 00 00 00 00 00 00 00 00 00 00 00 00 00 00 00 40 C0 00 00 3F E6 66 66 40 19 99 9A 00 00 00 00 3F 99 99 9A 44 70 00 00 43 11 33 33 43 D5 4C CD 00 00 00 00 43 C1 CC CD 44 E4 00 00 42 EE CC CD 44 94 20 00 00 00 00 00 44 01 E6 66 00 00 00 00 00 00 00 00 00 00 00 00 00 00 00 00 00 00 00 00 42 0B 33 33 00 00 00 00 41 D3 33 33 00 00 00 00 41 06 66 66 44 3E F3 33 42 F7 33 33 43 9F E6 66 00 00 00 00 43 9F 11 74
write:1A 03 01 0F 00 08 76 18
1A 03 10
2600 02 87 A5 00 00 00 00 00 00 3D F8 00 00 E9 DB
43 69 F4 7B
233.955
43 69 EE D9
233.933
43 6A 48 F6
234.285
43 CA 90 21
405.126
43 CA B1 68
405.386
43 CA B1 68
405.386
40 02 8F 5C
2.04
40 21 47 AE
2.52
40 5E B8 52
3.48
00 00 00 00
0
43 B4 00 00
360
43 F0 00 00
480
44 70 00 00
960
43 B4 00 00
360
43 F0 00 00
480
44 16 00 00
600
44 B4 00 00
1440
43 F0 00 00
480
44 16 00 00
600
44 52 00 00
840
44 D2 00 00
1680
3E C1 06 25
0.377
3F 16 C8 B4
0.589
3F 12 B0 21
0.573
3F 12 F1 AA
0.574
42 47 79 5B
49.86851
44 DE F9 9A
1783.8
43 39 66 66
185.4
44 7B 19 9A
1004.4
00 00 00 00
0
44 14 59 9A
593.4
00 00 00 00
0
00 00 00 00
0
00 00 00 00
0
00 00 00 00
0
00 00 00 00
0
42 97 33 33
75.6
40 99 99 9A
4.8
42 1C 00 00
39
00 00 00 00
0
41 F9 99 9A
31.2
44 54 D9 9A
851.4
43 07 99 9A
135.6
43 B6 B3 33
365.4
00 00 00 00
0
43 AE E6 66
349.8
44 AC E0 00
1383
43 0E CC CD
142.8
44 4A 33 33
808.8
00 00 00 00
0
43 D7 19 9A
430.2
00 00 00 00
0
00 00 00 00
0
00 00 00 00
0
00 00 00 00
0
00 00 00 00
0
40 C0 00 00
6
3F E6 66 66
1.8
40 19 99 9A
2.4
00 00 00 00
0
3F 99 99 9A
1.2
44 70 00 00
960
43 11 33 33
145.2
43 D5 4C CD
426.6
00 00 00 00
0
43 C1 CC CD
387.6
44 E4 00 00
1824
42 EE CC CD
119.4
44 94 20 00
1185
00 00 00 00
0
44 01 E6 66
519.6
00 00 00 00
0
00 00 00 00
0
00 00 00 00
0
00 00 00 00
0
00 00 00 00
0
42 0B 33 33
34.8
00 00 00 00
0
41 D3 33 33
26.4
00 00 00 00
0
41 06 66 66
8.4
44 3E F3 33
763.8
42 F7 33 33
123.6
43 9F E6 66
319.8
00 00 00 00
0
43 9F 11 74
318.13635
00 02 87 A5
165797
00 00 00 00
0
00 00 3D F8
15864
00 00 E9 DB
59867
233.955233.933234.285405.126405.386405.3862.042.523.480360480960360480600144048060084016800.3770.5890.5730.57449.868511783.8185.41004.40593.40000075.64.839031.2851.4135.6365.40349.81383142.8808.80430.20000061.82.401.2960145.2426.60387.61824119.411850519.60000034.8026.408.4763.8123.6319.80318.136352620171125103721165.797015.86459.867insert into tbl_power_info_v2(P_A_DIANYA,P_B_DIANYA,P_C_DIANYA,P_UAB_XIANDIANYA,P_UBC_XIANDIANYA,P_UCA_XIANDIANYA,P_A_DIANLIU,P_B_DIANLIU,P_C_DIANLIU,P_A_YGGL,P_B_YGGL,P_C_YGGL,P_HXYGGL,P_A_WGGL,P_B_WGGL,P_C_WGGL,P_HXWGGL,P_A_SZGL,P_B_SZGL,P_C_SZGL,P_HXSZGL,P_A_GLYS,P_B_GLYS,P_C_GLYS,P_HXGLYS,P_DWPL,P_BY_KwhZ,P_BY_KwhJ,P_BY_KwhF,P_BY_KwhP,P_BY_KwhG,P_BY_HKwhZ,P_BY_HKwhJ,P_BY_HKwhF,P_BY_HKwhP,P_BY_HKwhG, P_BY_KvarhZ,P_BY_KvarhJ,P_BY_KvarhF,P_BY_KvarhP,P_BY_KvarhG, P_BY_HKvarhZ,P_BY_HKvarhJ,P_BY_HKvarhF,P_BY_HKvarhP,P_BY_HKvarhG, P_SY_KwhZ,P_SY_KwhJ,P_SY_KwhF,P_SY_KwhP,P_SY_KwhG, P_SY_HKwhZ,P_SY_HKwhJ,P_SY_HKwhF,P_SY_HKwhP,P_SY_HKwhG, P_SY_KvarhZ,P_SY_KvarhJ,P_SY_KvarhF,P_SY_KvarhP,P_SY_KvarhG, P_SY_HKvarhZ,P_SY_HKvarhJ,P_SY_HKvarhF,P_SY_HKvarhP,P_SY_HKvarhG, P_SSY_KwhZ,P_SSY_KwhJ,P_SSY_KwhF,P_SSY_KwhP,P_SSY_KwhG, P_SSY_HKwhZ,P_SSY_HKwhJ,P_SSY_HKwhF,P_SSY_HKwhP,P_SSY_HKwhG, P_SSY_KvarhZ,P_SSY_KvarhJ,P_SSY_KvarhF,P_SSY_KvarhP,P_SSY_KvarhG, P_SSY_HKvarhZ,P_SSY_HKvarhJ,P_SSY_HKvarhF,P_SSY_HKvarhP,P_SSY_HKvarhG,P_CODE,P_TIME,P_ZXYGDN,P_FXYGDN,P_ZXWGDN,P_FXWGDN)values(233.955,233.933,234.285,405.126,405.386,405.386,2.04,2.52,3.48,0,360,480,960,360,480,600,1440,480,600,840,1680,0.377,0.589,0.573,0.574,49.86851,1783.8,185.4,1004.4,0,593.4,0,0,0,0,0,75.6,4.8,39,0,31.2,851.4,135.6,365.4,0,349.8,1383,142.8,808.8,0,430.2,0,0,0,0,0,6,1.8,2.4,0,1.2,960,145.2,426.6,0,387.6,1824,119.4,1185,0,519.6,0,0,0,0,0,34.8,0,26.4,0,8.4,763.8,123.6,319.8,0,318.13635,26,20171125103721,165.797,0,15.864,59.867)
写入成功读取完毕一个
write:1B 03 00 38 00 34 C7 EA
1B 03 68
27totalsize 104
43 6A D0 21 43 6B 2A 3D 43 6B 6D 50 43 CB 78 F6 43 CB BB 85 43 CB 9A 3D 42 17 AE 14 41 C4 CC CD 41 D6 14 7B 46 0A C0 00 45 B4 00 00 45 BF 40 00 46 A1 40 00 44 87 00 00 44 70 00 00 44 B4 00 00 45 61 00 00 46 0A C0 00 45 B4 00 00 45 C6 C0 00 46 A4 10 00 3F 7D F3 B6 3F 7B E7 6D 3F 78 D4 FE 3F 7C 28 F6 42 48 BC 8B
write:1B 03 07 CF 00 78 76 99
1B 03 F0
27totalsize 240
45 11 76 66 41 CE 66 66 44 E1 F9 9A 00 00 00 00 43 F6 99 9A 00 00 00 00 00 00 00 00 00 00 00 00 00 00 00 00 00 00 00 00 44 33 40 00 41 90 00 00 43 FB B3 33 00 00 00 00 43 43 00 00 00 00 00 00 00 00 00 00 00 00 00 00 00 00 00 00 00 00 00 00 45 10 D3 33 41 F9 99 9A 44 E5 33 33 00 00 00 00 43 E1 E6 66 00 00 00 00 00 00 00 00 00 00 00 00 00 00 00 00 00 00 00 00 44 24 40 00 41 86 66 66 43 E5 CC CD 00 00 00 00 43 34 99 9A 00 00 00 00 00 00 00 00 00 00 00 00 00 00 00 00 00 00 00 00 45 1D 76 66 42 4E 66 66 44 F5 19 9A 00 00 00 00 43 FD 33 33 00 00 00 00 00 00 00 00 00 00 00 00 00 00 00 00 00 00 00 00 44 73 99 9A 42 34 00 00 44 1E 8C CD 00 00 00 00 43 93 4C CD 00 00 00 00 00 00 00 00 00 00 00 00 00 00 00 00 00 00 CD CF
write:1B 03 01 0F 00 08 77 C9
1B 03 10
2700 02 30 8B 00 00 00 00 00 00 DA 01 00 00 1A 7F
43 6A D0 21
234.813
43 6B 2A 3D
235.165
43 6B 6D 50
235.427
43 CB 78 F6
406.945
43 CB BB 85
407.465
43 CB 9A 3D
407.205
42 17 AE 14
37.92
41 C4 CC CD
24.6
41 D6 14 7B
26.76
46 0A C0 00
8880
45 B4 00 00
5760
45 BF 40 00
6120
46 A1 40 00
20640
44 87 00 00
1080
44 70 00 00
960
44 B4 00 00
1440
45 61 00 00
3600
46 0A C0 00
8880
45 B4 00 00
5760
45 C6 C0 00
6360
46 A4 10 00
21000
3F 7D F3 B6
0.992
3F 7B E7 6D
0.984
3F 78 D4 FE
0.972
3F 7C 28 F6
0.985
42 48 BC 8B
50.184124
45 11 76 66
2327.4
41 CE 66 66
25.8
44 E1 F9 9A
1807.8
00 00 00 00
0
43 F6 99 9A
493.2
00 00 00 00
0
00 00 00 00
0
00 00 00 00
0
00 00 00 00
0
00 00 00 00
0
44 33 40 00
717
41 90 00 00
18
43 FB B3 33
503.4
00 00 00 00
0
43 43 00 00
195
00 00 00 00
0
00 00 00 00
0
00 00 00 00
0
00 00 00 00
0
00 00 00 00
0
45 10 D3 33
2317.2
41 F9 99 9A
31.2
44 E5 33 33
1833.6
00 00 00 00
0
43 E1 E6 66
451.8
00 00 00 00
0
00 00 00 00
0
00 00 00 00
0
00 00 00 00
0
00 00 00 00
0
44 24 40 00
657
41 86 66 66
16.8
43 E5 CC CD
459.6
00 00 00 00
0
43 34 99 9A
180.6
00 00 00 00
0
00 00 00 00
0
00 00 00 00
0
00 00 00 00
0
00 00 00 00
0
45 1D 76 66
2519.4
42 4E 66 66
51.6
44 F5 19 9A
1960.8
00 00 00 00
0
43 FD 33 33
506.4
00 00 00 00
0
00 00 00 00
0
00 00 00 00
0
00 00 00 00
0
00 00 00 00
0
44 73 99 9A
974.4
42 34 00 00
45
44 1E 8C CD
634.2
00 00 00 00
0
43 93 4C CD
294.6
00 00 00 00
0
00 00 00 00
0
00 00 00 00
0
00 00 00 00
0
00 00 CD CF
7.383e-41
00 02 30 8B
143499
00 00 00 00
0
00 00 DA 01
55809
00 00 1A 7F
6783
234.813235.165235.427406.945407.465407.20537.9224.626.7688805760612020640108096014403600888057606360210000.9920.9840.9720.98550.1841242327.425.81807.80493.20000071718503.40195000002317.231.21833.60451.80000065716.8459.60180.6000002519.451.61960.80506.400000974.445634.20294.600007.383e-412720171125103821143.499055.8096.783insert into tbl_power_info_v2(P_A_DIANYA,P_B_DIANYA,P_C_DIANYA,P_UAB_XIANDIANYA,P_UBC_XIANDIANYA,P_UCA_XIANDIANYA,P_A_DIANLIU,P_B_DIANLIU,P_C_DIANLIU,P_A_YGGL,P_B_YGGL,P_C_YGGL,P_HXYGGL,P_A_WGGL,P_B_WGGL,P_C_WGGL,P_HXWGGL,P_A_SZGL,P_B_SZGL,P_C_SZGL,P_HXSZGL,P_A_GLYS,P_B_GLYS,P_C_GLYS,P_HXGLYS,P_DWPL,P_BY_KwhZ,P_BY_KwhJ,P_BY_KwhF,P_BY_KwhP,P_BY_KwhG,P_BY_HKwhZ,P_BY_HKwhJ,P_BY_HKwhF,P_BY_HKwhP,P_BY_HKwhG, P_BY_KvarhZ,P_BY_KvarhJ,P_BY_KvarhF,P_BY_KvarhP,P_BY_KvarhG, P_BY_HKvarhZ,P_BY_HKvarhJ,P_BY_HKvarhF,P_BY_HKvarhP,P_BY_HKvarhG, P_SY_KwhZ,P_SY_KwhJ,P_SY_KwhF,P_SY_KwhP,P_SY_KwhG, P_SY_HKwhZ,P_SY_HKwhJ,P_SY_HKwhF,P_SY_HKwhP,P_SY_HKwhG, P_SY_KvarhZ,P_SY_KvarhJ,P_SY_KvarhF,P_SY_KvarhP,P_SY_KvarhG, P_SY_HKvarhZ,P_SY_HKvarhJ,P_SY_HKvarhF,P_SY_HKvarhP,P_SY_HKvarhG, P_SSY_KwhZ,P_SSY_KwhJ,P_SSY_KwhF,P_SSY_KwhP,P_SSY_KwhG, P_SSY_HKwhZ,P_SSY_HKwhJ,P_SSY_HKwhF,P_SSY_HKwhP,P_SSY_HKwhG, P_SSY_KvarhZ,P_SSY_KvarhJ,P_SSY_KvarhF,P_SSY_KvarhP,P_SSY_KvarhG, P_SSY_HKvarhZ,P_SSY_HKvarhJ,P_SSY_HKvarhF,P_SSY_HKvarhP,P_SSY_HKvarhG,P_CODE,P_TIME,P_ZXYGDN,P_FXYGDN,P_ZXWGDN,P_FXWGDN)values(234.813,235.165,235.427,406.945,407.465,407.205,37.92,24.6,26.76,8880,5760,6120,20640,1080,960,1440,3600,8880,5760,6360,21000,0.992,0.984,0.972,0.985,50.184124,2327.4,25.8,1807.8,0,493.2,0,0,0,0,0,717,18,503.4,0,195,0,0,0,0,0,2317.2,31.2,1833.6,0,451.8,0,0,0,0,0,657,16.8,459.6,0,180.6,0,0,0,0,0,2519.4,51.6,1960.8,0,506.4,0,0,0,0,0,974.4,45,634.2,0,294.6,0,0,0,0,7.383e-41,27,20171125103821,143.499,0,55.809,6.783)
写入成功读取完毕一个
write:1C 03 00 38 00 34 C6 5D
77 77 77
heart:77 77 77 2E 75 73 72 2E 63 6E
write:1C 03 07 CF 00 78 77 2E
write:1C 03 01 0F 00 08 76 7E
77 77 77
heart:77 77 77 2E 75 73 72 2E 63 6E
write:1D 03 00 38 00 34 C7 8C
77 77 77
heart:77 77 77 2E 75 73 72 2E 63 6E
write:1D 03 07 CF 00 78 76 FF
write:1D 03 01 0F 00 08 77 AF
77 77 77
heart:77 77 77 2E 75 73 72 2E 63 6E
write:1E 03 00 38 00 34 C7 BF
77 77 77
heart:77 77 77 2E 75 73 72 2E 63 6E
write:1E 03 07 CF 00 78 76 CC
write:1E 03 01 0F 00 08 77 9C
77 77 77
heart:77 77 77 2E 75 73 72 2E 63 6E
write:1F 03 00 38 00 34 C6 6E
77 77 77
heart:77 77 77 2E 75 73 72 2E 63 6E
write:1F 03 07 CF 00 78 77 1D
write:1F 03 01 0F 00 08 76 4D
77 77 77
heart:77 77 77 2E 75 73 72 2E 63 6E
write:20 03 00 38 00 34 C3 61
77 77 77
heart:77 77 77 2E 75 73 72 2E 63 6E
write:20 03 07 CF 00 78 72 12
write:20 03 01 0F 00 08 73 42
77 77 77
heart:77 77 77 2E 75 73 72 2E 63 6E
write:12 03 00 38 00 34 C7 73
12 03 68
18totalsize 104
43 6A A0 C5 43 6B 05 A2 43 6A D2 B0 43 CB 57 AE 43 CB 6D D3 43 CB 41 89 43 22 5C 29 43 5C 14 7B 43 38 EB 85 47 07 78 00 47 40 A8 00 47 1E E8 00 47 F3 84 00 46 4C 60 00 46 4E 40 00 46 44 E0 00 47 17 E0 00 47 14 98 00 47 4A 08 00 47 29 B0 00 47 FF 00 00 3F 69 78 D5 3F 73 F7 CF 3F 6F 9D B2 3F 74 7A E1 42 48 A4 20
write:12 03 07 CF 00 78 76 00
12 03 F0
18totalsize 240
47 8C D5 B3 46 30 3B 33 47 03 EB 00 00 00 00 00 46 D3 63 33 00 00 00 00 00 00 00 00 00 00 00 00 00 00 00 00 00 00 00 00 46 84 85 33 45 1E 19 9A 46 0A 1A 66 00 00 00 00 45 AE D3 33 00 00 00 00 00 00 00 00 00 00 00 00 00 00 00 00 00 00 00 00 47 A9 B7 80 46 5C 9F 33 47 22 D6 CD 00 00 00 00 46 F2 DF 9A 00 00 00 00 00 00 00 00 00 00 00 00 00 00 00 00 00 00 00 00 46 B2 70 66 45 65 B9 9A 46 3A EB 33 00 00 00 00 45 E1 09 9A 00 00 00 00 00 00 00 00 00 00 00 00 00 00 00 00 00 00 00 00 47 82 8D CD 46 41 63 33 46 D4 77 33 00 00 00 00 46 D5 0E 66 00 00 00 00 00 00 00 00 00 00 00 00 00 00 00 00 00 00 00 00 46 95 B4 66 45 65 46 66 45 FB B3 33 00 00 00 00 45 E8 7B 33 00 00 00 00 00 00 00 00 00 00 00 00 00 00 00 00 00 00 FA BB
write:12 03 01 0F 00 08 77 50
12 03 10
1800 40 AA 18 00 00 00 00 00 13 E9 6F 00 00 FE E5
43 6A A0 C5
234.628
43 6B 05 A2
235.022
43 6A D2 B0
234.823
43 CB 57 AE
406.685
43 CB 6D D3
406.858
43 CB 41 89
406.512
43 22 5C 29
162.36
43 5C 14 7B
220.08
43 38 EB 85
184.92
47 07 78 00
34680
47 40 A8 00
49320
47 1E E8 00
40680
47 F3 84 00
124680
46 4C 60 00
13080
46 4E 40 00
13200
46 44 E0 00
12600
47 17 E0 00
38880
47 14 98 00
38040
47 4A 08 00
51720
47 29 B0 00
43440
47 FF 00 00
130560
3F 69 78 D5
0.912
3F 73 F7 CF
0.953
3F 6F 9D B2
0.936
3F 74 7A E1
0.955
42 48 A4 20
50.16028
47 8C D5 B3
72107.4
46 30 3B 33
11278.8
47 03 EB 00
33771
00 00 00 00
0
46 D3 63 33
27057.6
00 00 00 00
0
00 00 00 00
0
00 00 00 00
0
00 00 00 00
0
00 00 00 00
0
46 84 85 33
16962.6
45 1E 19 9A
2529.6
46 0A 1A 66
8838.6
00 00 00 00
0
45 AE D3 33
5594.4
00 00 00 00
0
00 00 00 00
0
00 00 00 00
0
00 00 00 00
0
00 00 00 00
0
47 A9 B7 80
86895
46 5C 9F 33
14119.8
47 22 D6 CD
41686.8
00 00 00 00
0
46 F2 DF 9A
31087.8
00 00 00 00
0
00 00 00 00
0
00 00 00 00
0
00 00 00 00
0
00 00 00 00
0
46 B2 70 66
22840.2
45 65 B9 9A
3675.6
46 3A EB 33
11962.8
00 00 00 00
0
45 E1 09 9A
7201.2
00 00 00 00
0
00 00 00 00
0
00 00 00 00
0
00 00 00 00
0
00 00 00 00
0
47 82 8D CD
66843.6
46 41 63 33
12376.8
46 D4 77 33
27195.6
00 00 00 00
0
46 D5 0E 66
27271.2
00 00 00 00
0
00 00 00 00
0
00 00 00 00
0
00 00 00 00
0
00 00 00 00
0
46 95 B4 66
19162.2
45 65 46 66
3668.4
45 FB B3 33
8054.4
00 00 00 00
0
45 E8 7B 33
7439.4
00 00 00 00
0
00 00 00 00
0
00 00 00 00
0
00 00 00 00
0
00 00 FA BB
8.9945e-41
00 40 AA 18
4237848
00 00 00 00
0
00 13 E9 6F
1304943
00 00 FE E5
65253
234.628235.022234.823406.685406.858406.512162.36220.08184.92346804932040680124680130801320012600388803804051720434401305600.9120.9530.9360.95550.1602872107.411278.833771027057.60000016962.62529.68838.605594.4000008689514119.841686.8031087.80000022840.23675.611962.807201.20000066843.612376.827195.6027271.20000019162.23668.48054.407439.400008.9945e-4118201711251044264237.84801304.94365.253insert into tbl_power_info_v2(P_A_DIANYA,P_B_DIANYA,P_C_DIANYA,P_UAB_XIANDIANYA,P_UBC_XIANDIANYA,P_UCA_XIANDIANYA,P_A_DIANLIU,P_B_DIANLIU,P_C_DIANLIU,P_A_YGGL,P_B_YGGL,P_C_YGGL,P_HXYGGL,P_A_WGGL,P_B_WGGL,P_C_WGGL,P_HXWGGL,P_A_SZGL,P_B_SZGL,P_C_SZGL,P_HXSZGL,P_A_GLYS,P_B_GLYS,P_C_GLYS,P_HXGLYS,P_DWPL,P_BY_KwhZ,P_BY_KwhJ,P_BY_KwhF,P_BY_KwhP,P_BY_KwhG,P_BY_HKwhZ,P_BY_HKwhJ,P_BY_HKwhF,P_BY_HKwhP,P_BY_HKwhG, P_BY_KvarhZ,P_BY_KvarhJ,P_BY_KvarhF,P_BY_KvarhP,P_BY_KvarhG, P_BY_HKvarhZ,P_BY_HKvarhJ,P_BY_HKvarhF,P_BY_HKvarhP,P_BY_HKvarhG, P_SY_KwhZ,P_SY_KwhJ,P_SY_KwhF,P_SY_KwhP,P_SY_KwhG, P_SY_HKwhZ,P_SY_HKwhJ,P_SY_HKwhF,P_SY_HKwhP,P_SY_HKwhG, P_SY_KvarhZ,P_SY_KvarhJ,P_SY_KvarhF,P_SY_KvarhP,P_SY_KvarhG, P_SY_HKvarhZ,P_SY_HKvarhJ,P_SY_HKvarhF,P_SY_HKvarhP,P_SY_HKvarhG, P_SSY_KwhZ,P_SSY_KwhJ,P_SSY_KwhF,P_SSY_KwhP,P_SSY_KwhG, P_SSY_HKwhZ,P_SSY_HKwhJ,P_SSY_HKwhF,P_SSY_HKwhP,P_SSY_HKwhG, P_SSY_KvarhZ,P_SSY_KvarhJ,P_SSY_KvarhF,P_SSY_KvarhP,P_SSY_KvarhG, P_SSY_HKvarhZ,P_SSY_HKvarhJ,P_SSY_HKvarhF,P_SSY_HKvarhP,P_SSY_HKvarhG,P_CODE,P_TIME,P_ZXYGDN,P_FXYGDN,P_ZXWGDN,P_FXWGDN)values(234.628,235.022,234.823,406.685,406.858,406.512,162.36,220.08,184.92,34680,49320,40680,124680,13080,13200,12600,38880,38040,51720,43440,130560,0.912,0.953,0.936,0.955,50.16028,72107.4,11278.8,33771,0,27057.6,0,0,0,0,0,16962.6,2529.6,8838.6,0,5594.4,0,0,0,0,0,86895,14119.8,41686.8,0,31087.8,0,0,0,0,0,22840.2,3675.6,11962.8,0,7201.2,0,0,0,0,0,66843.6,12376.8,27195.6,0,27271.2,0,0,0,0,0,19162.2,3668.4,8054.4,0,7439.4,0,0,0,0,8.9945e-41,18,20171125104426,4237.848,0,1304.943,65.253)
写入成功读取完毕一个
write:13 03 00 38 00 34 C6 A2
13 03 68
19totalsize 104
43 6B 3B 64 43 6B 5C 6A 43 6B 5A 5E 43 CB BB 64 43 CB C6 87 43 CB BB 64 00 00 00 00 3F 99 99 9A 40 05 1E B8 00 00 00 00 00 00 00 00 43 C8 00 00 44 0C 00 00 43 70 00 00 43 70 00 00 43 70 00 00 44 34 00 00 43 70 00 00 43 A0 00 00 43 F0 00 00 44 70 00 00 3E BE F9 DB 3E 40 83 12 3F 5A 5E 35 3F 1D F3 B6 42 48 15 25
write:13 03 07 CF 00 78 77 D1
13 03 F0
19totalsize 240
44 A0 00 00 42 D1 99 9A 44 48 4C CD 00 00 00 00 43 BA CC CD 00 00 00 00 00 00 00 00 00 00 00 00 00 00 00 00 00 00 00 00 43 0F 33 33 3E CC CC CD 43 00 00 00 00 00 00 00 41 66 66 66 43 CD CC CD 42 8F 33 33 43 1F 99 9A 00 00 00 00 43 34 00 00 44 5A CC CD 42 BC 00 00 43 F7 66 66 00 00 00 00 43 8F 00 00 00 00 00 00 00 00 00 00 00 00 00 00 00 00 00 00 00 00 00 00 40 80 00 00 00 00 00 00 40 4C CC CD 00 00 00 00 3F 4C CC CD 44 1A 99 9A 42 C4 00 00 43 85 66 66 00 00 00 00 43 7D 33 33 44 DC A6 66 42 DB 33 33 44 8E CC CD 00 00 00 00 44 00 4C CD 00 00 00 00 00 00 00 00 00 00 00 00 00 00 00 00 00 00 00 00 42 5E 66 66 3E CC CC CD 42 21 99 9A 00 00 00 00 41 60 00 00 43 FE 00 00 42 B6 66 66 43 3F 99 9A 00 00 00 00 43 60 72 C6
write:13 03 01 0F 00 08 76 81
13 03 10
1900 02 93 6F 00 00 00 00 00 00 35 3F 00 00 68 30
43 6B 3B 64
235.232
43 6B 5C 6A
235.361
43 6B 5A 5E
235.353
43 CB BB 64
407.464
43 CB C6 87
407.551
43 CB BB 64
407.464
00 00 00 00
0
3F 99 99 9A
1.2
40 05 1E B8
2.08
00 00 00 00
0
00 00 00 00
0
43 C8 00 00
400
44 0C 00 00
560
43 70 00 00
240
43 70 00 00
240
43 70 00 00
240
44 34 00 00
720
43 70 00 00
240
43 A0 00 00
320
43 F0 00 00
480
44 70 00 00
960
3E BE F9 DB
0.373
3E 40 83 12
0.188
3F 5A 5E 35
0.853
3F 1D F3 B6
0.617
42 48 15 25
50.02065
44 A0 00 00
1280
42 D1 99 9A
104.8
44 48 4C CD
801.2
00 00 00 00
0
43 BA CC CD
373.6
00 00 00 00
0
00 00 00 00
0
00 00 00 00
0
00 00 00 00
0
00 00 00 00
0
43 0F 33 33
143.2
3E CC CC CD
0.4
43 00 00 00
128
00 00 00 00
0
41 66 66 66
14.4
43 CD CC CD
411.6
42 8F 33 33
71.6
43 1F 99 9A
159.6
00 00 00 00
0
43 34 00 00
180
44 5A CC CD
875.2
42 BC 00 00
94
43 F7 66 66
494.8
00 00 00 00
0
43 8F 00 00
286
00 00 00 00
0
00 00 00 00
0
00 00 00 00
0
00 00 00 00
0
00 00 00 00
0
40 80 00 00
4
00 00 00 00
0
40 4C CC CD
3.2
00 00 00 00
0
3F 4C CC CD
0.8
44 1A 99 9A
618.4
42 C4 00 00
98
43 85 66 66
266.8
00 00 00 00
0
43 7D 33 33
253.2
44 DC A6 66
1765.2
42 DB 33 33
109.6
44 8E CC CD
1142.4
00 00 00 00
0
44 00 4C CD
513.2
00 00 00 00
0
00 00 00 00
0
00 00 00 00
0
00 00 00 00
0
00 00 00 00
0
42 5E 66 66
55.6
3E CC CC CD
0.4
42 21 99 9A
40.4
00 00 00 00
0
41 60 00 00
14
43 FE 00 00
508
42 B6 66 66
91.2
43 3F 99 9A
191.6
00 00 00 00
0
43 60 72 C6
224.44833
00 02 93 6F
168815
00 00 00 00
0
00 00 35 3F
13631
00 00 68 30
26672
235.232235.361235.353407.464407.551407.46401.22.08004005602402402407202403204809600.3730.1880.8530.61750.020651280104.8801.20373.600000143.20.4128014.4411.671.6159.60180875.294494.8028600000403.200.8618.498266.80253.21765.2109.61142.40513.20000055.60.440.401450891.2191.60224.448331920171125104527168.815013.63126.672insert into tbl_power_info_v2(P_A_DIANYA,P_B_DIANYA,P_C_DIANYA,P_UAB_XIANDIANYA,P_UBC_XIANDIANYA,P_UCA_XIANDIANYA,P_A_DIANLIU,P_B_DIANLIU,P_C_DIANLIU,P_A_YGGL,P_B_YGGL,P_C_YGGL,P_HXYGGL,P_A_WGGL,P_B_WGGL,P_C_WGGL,P_HXWGGL,P_A_SZGL,P_B_SZGL,P_C_SZGL,P_HXSZGL,P_A_GLYS,P_B_GLYS,P_C_GLYS,P_HXGLYS,P_DWPL,P_BY_KwhZ,P_BY_KwhJ,P_BY_KwhF,P_BY_KwhP,P_BY_KwhG,P_BY_HKwhZ,P_BY_HKwhJ,P_BY_HKwhF,P_BY_HKwhP,P_BY_HKwhG, P_BY_KvarhZ,P_BY_KvarhJ,P_BY_KvarhF,P_BY_KvarhP,P_BY_KvarhG, P_BY_HKvarhZ,P_BY_HKvarhJ,P_BY_HKvarhF,P_BY_HKvarhP,P_BY_HKvarhG, P_SY_KwhZ,P_SY_KwhJ,P_SY_KwhF,P_SY_KwhP,P_SY_KwhG, P_SY_HKwhZ,P_SY_HKwhJ,P_SY_HKwhF,P_SY_HKwhP,P_SY_HKwhG, P_SY_KvarhZ,P_SY_KvarhJ,P_SY_KvarhF,P_SY_KvarhP,P_SY_KvarhG, P_SY_HKvarhZ,P_SY_HKvarhJ,P_SY_HKvarhF,P_SY_HKvarhP,P_SY_HKvarhG, P_SSY_KwhZ,P_SSY_KwhJ,P_SSY_KwhF,P_SSY_KwhP,P_SSY_KwhG, P_SSY_HKwhZ,P_SSY_HKwhJ,P_SSY_HKwhF,P_SSY_HKwhP,P_SSY_HKwhG, P_SSY_KvarhZ,P_SSY_KvarhJ,P_SSY_KvarhF,P_SSY_KvarhP,P_SSY_KvarhG, P_SSY_HKvarhZ,P_SSY_HKvarhJ,P_SSY_HKvarhF,P_SSY_HKvarhP,P_SSY_HKvarhG,P_CODE,P_TIME,P_ZXYGDN,P_FXYGDN,P_ZXWGDN,P_FXWGDN)values(235.232,235.361,235.353,407.464,407.551,407.464,0,1.2,2.08,0,0,400,560,240,240,240,720,240,320,480,960,0.373,0.188,0.853,0.617,50.02065,1280,104.8,801.2,0,373.6,0,0,0,0,0,143.2,0.4,128,0,14.4,411.6,71.6,159.6,0,180,875.2,94,494.8,0,286,0,0,0,0,0,4,0,3.2,0,0.8,618.4,98,266.8,0,253.2,1765.2,109.6,1142.4,0,513.2,0,0,0,0,0,55.6,0.4,40.4,0,14,508,91.2,191.6,0,224.44833,19,20171125104527,168.815,0,13.631,26.672)
写入成功读取完毕一个
write:14 03 00 38 00 34 C7 15
14 03 68
20totalsize 104
43 6B 70 62 43 6B DF 7D 43 6B DC 6A 43 CC 09 17 43 CC 35 60 43 CC 09 17 00 00 00 00 00 00 00 00 00 00 00 00 00 00 00 00 00 00 00 00 00 00 00 00 42 A0 00 00 00 00 00 00 00 00 00 00 00 00 00 00 00 00 00 00 00 00 00 00 00 00 00 00 42 A0 00 00 42 A0 00 00 00 00 00 00 00 00 00 00 3F 29 78 D5 3F 6C 8B 44 42 48 F4 B3
write:14 03 07 CF 00 78 76 66
14 03 F0
20totalsize 240
44 A0 13 33 43 C7 99 9A 43 90 E6 66 00 00 00 00 44 13 D9 9A 00 00 00 00 00 00 00 00 00 00 00 00 00 00 00 00 00 00 00 00 40 0C CC CD 00 00 00 00 40 0C CC CD 00 00 00 00 00 00 00 00 43 94 4C CD 42 BE 66 66 42 7A 66 66 00 00 00 00 43 0A 99 9A 44 AC 73 33 43 E0 33 33 43 9A 66 66 00 00 00 00 44 1B 8C CD 00 00 00 00 00 00 00 00 00 00 00 00 00 00 00 00 00 00 00 00 40 99 99 9A 00 00 00 00 40 93 33 33 00 00 00 00 00 00 00 00 43 9B 80 00 42 D2 66 66 42 76 66 66 00 00 00 00 43 10 00 00 44 A4 D9 9A 43 ED 99 9A 43 78 66 66 00 00 00 00 44 14 C0 00 00 00 00 00 00 00 00 00 00 00 00 00 00 00 00 00 00 00 00 00 3F 4C CC CD 00 00 00 00 3F 4C CC CD 00 00 00 00 00 00 00 00 43 8C 66 66 42 D1 33 33 42 3B 33 33 00 00 00 00 43 01 F1 62
write:14 03 01 0F 00 08 77 36
14 03 10
2000 04 1A 66 00 00 00 00 00 00 13 51 00 00 8E E9
43 6B 70 62
235.439
43 6B DF 7D
235.873
43 6B DC 6A
235.861
43 CC 09 17
408.071
43 CC 35 60
408.417
43 CC 09 17
408.071
00 00 00 00
0
00 00 00 00
0
00 00 00 00
0
00 00 00 00
0
00 00 00 00
0
00 00 00 00
0
42 A0 00 00
80
00 00 00 00
0
00 00 00 00
0
00 00 00 00
0
00 00 00 00
0
00 00 00 00
0
00 00 00 00
0
42 A0 00 00
80
42 A0 00 00
80
00 00 00 00
0
00 00 00 00
0
3F 29 78 D5
0.662
3F 6C 8B 44
0.924
42 48 F4 B3
50.238964
44 A0 13 33
1280.6
43 C7 99 9A
399.2
43 90 E6 66
289.8
00 00 00 00
0
44 13 D9 9A
591.4
00 00 00 00
0
00 00 00 00
0
00 00 00 00
0
00 00 00 00
0
00 00 00 00
0
40 0C CC CD
2.2
00 00 00 00
0
40 0C CC CD
2.2
00 00 00 00
0
00 00 00 00
0
43 94 4C CD
296.6
42 BE 66 66
95.2
42 7A 66 66
62.6
00 00 00 00
0
43 0A 99 9A
138.6
44 AC 73 33
1379.6
43 E0 33 33
448.4
43 9A 66 66
308.8
00 00 00 00
0
44 1B 8C CD
622.2
00 00 00 00
0
00 00 00 00
0
00 00 00 00
0
00 00 00 00
0
00 00 00 00
0
40 99 99 9A
4.8
00 00 00 00
0
40 93 33 33
4.6
00 00 00 00
0
00 00 00 00
0
43 9B 80 00
311
42 D2 66 66
105.2
42 76 66 66
61.6
00 00 00 00
0
43 10 00 00
144
44 A4 D9 9A
1318.8
43 ED 99 9A
475.2
43 78 66 66
248.4
00 00 00 00
0
44 14 C0 00
595
00 00 00 00
0
00 00 00 00
0
00 00 00 00
0
00 00 00 00
0
00 00 00 00
0
3F 4C CC CD
0.8
00 00 00 00
0
3F 4C CC CD
0.8
00 00 00 00
0
00 00 00 00
0
43 8C 66 66
280.8
42 D1 33 33
104.6
42 3B 33 33
46.8
00 00 00 00
0
43 01 F1 62
129.9429
00 04 1A 66
268902
00 00 00 00
0
00 00 13 51
4945
00 00 8E E9
36585
235.439235.873235.861408.071408.417408.071000000800000008080000.6620.92450.2389641280.6399.2289.80591.4000002.202.200296.695.262.60138.61379.6448.4308.80622.2000004.804.600311105.261.601441318.8475.2248.40595000000.800.800280.8104.646.80129.94292020171125104628268.90204.94536.585insert into tbl_power_info_v2(P_A_DIANYA,P_B_DIANYA,P_C_DIANYA,P_UAB_XIANDIANYA,P_UBC_XIANDIANYA,P_UCA_XIANDIANYA,P_A_DIANLIU,P_B_DIANLIU,P_C_DIANLIU,P_A_YGGL,P_B_YGGL,P_C_YGGL,P_HXYGGL,P_A_WGGL,P_B_WGGL,P_C_WGGL,P_HXWGGL,P_A_SZGL,P_B_SZGL,P_C_SZGL,P_HXSZGL,P_A_GLYS,P_B_GLYS,P_C_GLYS,P_HXGLYS,P_DWPL,P_BY_KwhZ,P_BY_KwhJ,P_BY_KwhF,P_BY_KwhP,P_BY_KwhG,P_BY_HKwhZ,P_BY_HKwhJ,P_BY_HKwhF,P_BY_HKwhP,P_BY_HKwhG, P_BY_KvarhZ,P_BY_KvarhJ,P_BY_KvarhF,P_BY_KvarhP,P_BY_KvarhG, P_BY_HKvarhZ,P_BY_HKvarhJ,P_BY_HKvarhF,P_BY_HKvarhP,P_BY_HKvarhG, P_SY_KwhZ,P_SY_KwhJ,P_SY_KwhF,P_SY_KwhP,P_SY_KwhG, P_SY_HKwhZ,P_SY_HKwhJ,P_SY_HKwhF,P_SY_HKwhP,P_SY_HKwhG, P_SY_KvarhZ,P_SY_KvarhJ,P_SY_KvarhF,P_SY_KvarhP,P_SY_KvarhG, P_SY_HKvarhZ,P_SY_HKvarhJ,P_SY_HKvarhF,P_SY_HKvarhP,P_SY_HKvarhG, P_SSY_KwhZ,P_SSY_KwhJ,P_SSY_KwhF,P_SSY_KwhP,P_SSY_KwhG, P_SSY_HKwhZ,P_SSY_HKwhJ,P_SSY_HKwhF,P_SSY_HKwhP,P_SSY_HKwhG, P_SSY_KvarhZ,P_SSY_KvarhJ,P_SSY_KvarhF,P_SSY_KvarhP,P_SSY_KvarhG, P_SSY_HKvarhZ,P_SSY_HKvarhJ,P_SSY_HKvarhF,P_SSY_HKvarhP,P_SSY_HKvarhG,P_CODE,P_TIME,P_ZXYGDN,P_FXYGDN,P_ZXWGDN,P_FXWGDN)values(235.439,235.873,235.861,408.071,408.417,408.071,0,0,0,0,0,0,80,0,0,0,0,0,0,80,80,0,0,0.662,0.924,50.238964,1280.6,399.2,289.8,0,591.4,0,0,0,0,0,2.2,0,2.2,0,0,296.6,95.2,62.6,0,138.6,1379.6,448.4,308.8,0,622.2,0,0,0,0,0,4.8,0,4.6,0,0,311,105.2,61.6,0,144,1318.8,475.2,248.4,0,595,0,0,0,0,0,0.8,0,0.8,0,0,280.8,104.6,46.8,0,129.9429,20,20171125104628,268.902,0,4.945,36.585)
写入成功读取完毕一个
write:15 03 00 38 00 34 C6 C4
15 03 68
21totalsize 104
43 6A E8 73 43 6B 6A 3D 43 6B 6C 8B 43 CB A5 3F 43 CB DC AC 43 CB A5 3F 00 00 00 00 00 00 00 00 00 00 00 00 00 00 00 00 00 00 00 00 00 00 00 00 00 00 00 00 00 00 00 00 00 00 00 00 00 00 00 00 00 00 00 00 00 00 00 00 00 00 00 00 00 00 00 00 00 00 00 00 00 00 00 00 00 00 00 00 00 00 00 00 00 00 00 00 42 48 40 F8
write:15 03 07 CF 00 78 77 B7
15 03 F0
21totalsize 240
40 CC CC CD 00 00 00 00 40 A6 66 66 00 00 00 00 3F 99 99 9A 00 00 00 00 00 00 00 00 00 00 00 00 00 00 00 00 00 00 00 00 3E CC CC CD 00 00 00 00 3E CC CC CD 00 00 00 00 00 00 00 00 00 00 00 00 00 00 00 00 00 00 00 00 00 00 00 00 00 00 00 00 40 8C CC CD 00 00 00 00 40 66 66 66 00 00 00 00 3F 4C CC CD 00 00 00 00 00 00 00 00 00 00 00 00 00 00 00 00 00 00 00 00 00 00 00 00 00 00 00 00 00 00 00 00 00 00 00 00 00 00 00 00 00 00 00 00 00 00 00 00 00 00 00 00 00 00 00 00 00 00 00 00 42 1E 66 66 00 00 00 00 41 F3 33 33 00 00 00 00 41 13 33 33 00 00 00 00 00 00 00 00 00 00 00 00 00 00 00 00 00 00 00 00 42 D8 00 00 00 00 00 00 42 A3 33 33 00 00 00 00 41 D0 00 00 00 00 00 00 00 00 00 00 00 00 00 00 00 00 00 00 00 00 7F 8C
write:15 03 01 0F 00 08 76 E7
15 03 10
2100 00 18 95 00 00 00 00 00 00 1D 3D 00 00 8A E4
43 6A E8 73
234.908
43 6B 6A 3D
235.415
43 6B 6C 8B
235.424
43 CB A5 3F
407.291
43 CB DC AC
407.724
43 CB A5 3F
407.291
00 00 00 00
0
00 00 00 00
0
00 00 00 00
0
00 00 00 00
0
00 00 00 00
0
00 00 00 00
0
00 00 00 00
0
00 00 00 00
0
00 00 00 00
0
00 00 00 00
0
00 00 00 00
0
00 00 00 00
0
00 00 00 00
0
00 00 00 00
0
00 00 00 00
0
00 00 00 00
0
00 00 00 00
0
00 00 00 00
0
00 00 00 00
0
42 48 40 F8
50.063446
40 CC CC CD
6.4
00 00 00 00
0
40 A6 66 66
5.2
00 00 00 00
0
3F 99 99 9A
1.2
00 00 00 00
0
00 00 00 00
0
00 00 00 00
0
00 00 00 00
0
00 00 00 00
0
3E CC CC CD
0.4
00 00 00 00
0
3E CC CC CD
0.4
00 00 00 00
0
00 00 00 00
0
00 00 00 00
0
00 00 00 00
0
00 00 00 00
0
00 00 00 00
0
00 00 00 00
0
40 8C CC CD
4.4
00 00 00 00
0
40 66 66 66
3.6
00 00 00 00
0
3F 4C CC CD
0.8
00 00 00 00
0
00 00 00 00
0
00 00 00 00
0
00 00 00 00
0
00 00 00 00
0
00 00 00 00
0
00 00 00 00
0
00 00 00 00
0
00 00 00 00
0
00 00 00 00
0
00 00 00 00
0
00 00 00 00
0
00 00 00 00
0
00 00 00 00
0
00 00 00 00
0
42 1E 66 66
39.6
00 00 00 00
0
41 F3 33 33
30.4
00 00 00 00
0
41 13 33 33
9.2
00 00 00 00
0
00 00 00 00
0
00 00 00 00
0
00 00 00 00
0
00 00 00 00
0
42 D8 00 00
108
00 00 00 00
0
42 A3 33 33
81.6
00 00 00 00
0
41 D0 00 00
26
00 00 00 00
0
00 00 00 00
0
00 00 00 00
0
00 00 00 00
0
00 00 7F 8C
4.5755e-41
00 00 18 95
6293
00 00 00 00
0
00 00 1D 3D
7485
00 00 8A E4
35556
234.908235.415235.424407.291407.724407.291000000000000000000050.0634466.405.201.2000000.400.400000004.403.600.800000000000000039.6030.409.200000108081.602600004.5755e-4121201711251047266.29307.48535.556insert into tbl_power_info_v2(P_A_DIANYA,P_B_DIANYA,P_C_DIANYA,P_UAB_XIANDIANYA,P_UBC_XIANDIANYA,P_UCA_XIANDIANYA,P_A_DIANLIU,P_B_DIANLIU,P_C_DIANLIU,P_A_YGGL,P_B_YGGL,P_C_YGGL,P_HXYGGL,P_A_WGGL,P_B_WGGL,P_C_WGGL,P_HXWGGL,P_A_SZGL,P_B_SZGL,P_C_SZGL,P_HXSZGL,P_A_GLYS,P_B_GLYS,P_C_GLYS,P_HXGLYS,P_DWPL,P_BY_KwhZ,P_BY_KwhJ,P_BY_KwhF,P_BY_KwhP,P_BY_KwhG,P_BY_HKwhZ,P_BY_HKwhJ,P_BY_HKwhF,P_BY_HKwhP,P_BY_HKwhG, P_BY_KvarhZ,P_BY_KvarhJ,P_BY_KvarhF,P_BY_KvarhP,P_BY_KvarhG, P_BY_HKvarhZ,P_BY_HKvarhJ,P_BY_HKvarhF,P_BY_HKvarhP,P_BY_HKvarhG, P_SY_KwhZ,P_SY_KwhJ,P_SY_KwhF,P_SY_KwhP,P_SY_KwhG, P_SY_HKwhZ,P_SY_HKwhJ,P_SY_HKwhF,P_SY_HKwhP,P_SY_HKwhG, P_SY_KvarhZ,P_SY_KvarhJ,P_SY_KvarhF,P_SY_KvarhP,P_SY_KvarhG, P_SY_HKvarhZ,P_SY_HKvarhJ,P_SY_HKvarhF,P_SY_HKvarhP,P_SY_HKvarhG, P_SSY_KwhZ,P_SSY_KwhJ,P_SSY_KwhF,P_SSY_KwhP,P_SSY_KwhG, P_SSY_HKwhZ,P_SSY_HKwhJ,P_SSY_HKwhF,P_SSY_HKwhP,P_SSY_HKwhG, P_SSY_KvarhZ,P_SSY_KvarhJ,P_SSY_KvarhF,P_SSY_KvarhP,P_SSY_KvarhG, P_SSY_HKvarhZ,P_SSY_HKvarhJ,P_SSY_HKvarhF,P_SSY_HKvarhP,P_SSY_HKvarhG,P_CODE,P_TIME,P_ZXYGDN,P_FXYGDN,P_ZXWGDN,P_FXWGDN)values(234.908,235.415,235.424,407.291,407.724,407.291,0,0,0,0,0,0,0,0,0,0,0,0,0,0,0,0,0,0,0,50.063446,6.4,0,5.2,0,1.2,0,0,0,0,0,0.4,0,0.4,0,0,0,0,0,0,0,4.4,0,3.6,0,0.8,0,0,0,0,0,0,0,0,0,0,0,0,0,0,0,39.6,0,30.4,0,9.2,0,0,0,0,0,108,0,81.6,0,26,0,0,0,0,4.5755e-41,21,20171125104726,6.293,0,7.485,35.556)
写入成功读取完毕一个
write:16 03 00 38 00 34 C6 F7
77 77 77
heart:77 77 77 2E 75 73 72 2E 63 6E
write:16 03 07 CF 00 78 77 84
write:16 03 01 0F 00 08 76 D4
77 77 77
heart:77 77 77 2E 75 73 72 2E 63 6E
write:17 03 00 38 00 34 C7 26
17 03 68
23totalsize 104
43 6A DE 35 43 6B 3A 1D 43 6A D2 6F 43 CB 84 19 43 CB 84 19 43 CB 57 AE 41 2E 14 7B 40 73 33 33 00 00 00 00 45 20 00 00 44 52 00 00 42 A0 00 00 45 59 80 00 42 A0 00 00 42 A0 00 00 00 00 00 00 43 20 00 00 45 20 00 00 44 5C 00 00 42 F0 00 00 45 59 80 00 3F 7E 76 C9 3F 6E 97 8D 3F 53 B6 46 3F 7F BE 77 42 47 F4 32
write:17 03 07 CF 00 78 76 55
17 03 F0
23totalsize 240
44 9D 33 33 43 5C 33 33 44 4C 80 00 00 00 00 00 43 5B 33 33 00 00 00 00 00 00 00 00 00 00 00 00 00 00 00 00 00 00 00 00 42 04 00 00 40 4C CC CD 41 CC CC CD 00 00 00 00 40 86 66 66 42 5E 66 66 41 40 00 00 41 B4 CC CD 00 00 00 00 41 A6 66 66 44 AC 0C CD 43 8E E6 66 44 54 80 00 00 00 00 00 43 70 33 33 00 00 00 00 00 00 00 00 00 00 00 00 00 00 00 00 00 00 00 00 41 16 66 66 3E CC CC CD 40 D9 99 9A 00 00 00 00 3F E6 66 66 42 D5 33 33 41 BB 33 33 42 46 66 66 00 00 00 00 42 05 99 9A 44 EF 33 33 43 86 66 66 44 9D 8C CD 00 00 00 00 43 C0 19 9A 00 00 00 00 00 00 00 00 00 00 00 00 00 00 00 00 00 00 00 00 41 66 66 66 3F 19 99 9A 41 20 00 00 00 00 00 00 40 73 33 33 42 8D 99 9A 41 56 66 66 41 F6 66 66 00 00 00 00 41 D3 E9 D9
write:17 03 01 0F 00 08 77 05
17 03 10
2300 03 E9 A9 00 00 00 00 00 00 E7 72 00 00 89 02
43 6A DE 35
234.868
43 6B 3A 1D
235.227
43 6A D2 6F
234.822
43 CB 84 19
407.032
43 CB 84 19
407.032
43 CB 57 AE
406.685
41 2E 14 7B
10.88
40 73 33 33
3.8
00 00 00 00
0
45 20 00 00
2560
44 52 00 00
840
42 A0 00 00
80
45 59 80 00
3480
42 A0 00 00
80
42 A0 00 00
80
00 00 00 00
0
43 20 00 00
160
45 20 00 00
2560
44 5C 00 00
880
42 F0 00 00
120
45 59 80 00
3480
3F 7E 76 C9
0.994
3F 6E 97 8D
0.932
3F 53 B6 46
0.827
3F 7F BE 77
0.999
42 47 F4 32
49.988472
44 9D 33 33
1257.6
43 5C 33 33
220.2
44 4C 80 00
818
00 00 00 00
0
43 5B 33 33
219.2
00 00 00 00
0
00 00 00 00
0
00 00 00 00
0
00 00 00 00
0
00 00 00 00
0
42 04 00 00
33
40 4C CC CD
3.2
41 CC CC CD
25.6
00 00 00 00
0
40 86 66 66
4.2
42 5E 66 66
55.6
41 40 00 00
12
41 B4 CC CD
22.6
00 00 00 00
0
41 A6 66 66
20.8
44 AC 0C CD
1376.4
43 8E E6 66
285.8
44 54 80 00
850
00 00 00 00
0
43 70 33 33
240.2
00 00 00 00
0
00 00 00 00
0
00 00 00 00
0
00 00 00 00
0
00 00 00 00
0
41 16 66 66
9.4
3E CC CC CD
0.4
40 D9 99 9A
6.8
00 00 00 00
0
3F E6 66 66
1.8
42 D5 33 33
106.6
41 BB 33 33
23.4
42 46 66 66
49.6
00 00 00 00
0
42 05 99 9A
33.4
44 EF 33 33
1913.6
43 86 66 66
268.8
44 9D 8C CD
1260.4
00 00 00 00
0
43 C0 19 9A
384.2
00 00 00 00
0
00 00 00 00
0
00 00 00 00
0
00 00 00 00
0
00 00 00 00
0
41 66 66 66
14.4
3F 19 99 9A
0.6
41 20 00 00
10
00 00 00 00
0
40 73 33 33
3.8
42 8D 99 9A
70.8
41 56 66 66
13.4
41 F6 66 66
30.8
00 00 00 00
0
41 D3 E9 D9
26.489183
00 03 E9 A9
256425
00 00 00 00
0
00 00 E7 72
59250
00 00 89 02
35074
234.868235.227234.822407.032407.032406.68510.883.80256084080348080800160256088012034800.9940.9320.8270.99949.9884721257.6220.28180219.200000333.225.604.255.61222.6020.81376.4285.88500240.2000009.40.46.801.8106.623.449.6033.41913.6268.81260.40384.20000014.40.61003.870.813.430.8026.4891832320171125104925256.425059.2535.074insert into tbl_power_info_v2(P_A_DIANYA,P_B_DIANYA,P_C_DIANYA,P_UAB_XIANDIANYA,P_UBC_XIANDIANYA,P_UCA_XIANDIANYA,P_A_DIANLIU,P_B_DIANLIU,P_C_DIANLIU,P_A_YGGL,P_B_YGGL,P_C_YGGL,P_HXYGGL,P_A_WGGL,P_B_WGGL,P_C_WGGL,P_HXWGGL,P_A_SZGL,P_B_SZGL,P_C_SZGL,P_HXSZGL,P_A_GLYS,P_B_GLYS,P_C_GLYS,P_HXGLYS,P_DWPL,P_BY_KwhZ,P_BY_KwhJ,P_BY_KwhF,P_BY_KwhP,P_BY_KwhG,P_BY_HKwhZ,P_BY_HKwhJ,P_BY_HKwhF,P_BY_HKwhP,P_BY_HKwhG, P_BY_KvarhZ,P_BY_KvarhJ,P_BY_KvarhF,P_BY_KvarhP,P_BY_KvarhG, P_BY_HKvarhZ,P_BY_HKvarhJ,P_BY_HKvarhF,P_BY_HKvarhP,P_BY_HKvarhG, P_SY_KwhZ,P_SY_KwhJ,P_SY_KwhF,P_SY_KwhP,P_SY_KwhG, P_SY_HKwhZ,P_SY_HKwhJ,P_SY_HKwhF,P_SY_HKwhP,P_SY_HKwhG, P_SY_KvarhZ,P_SY_KvarhJ,P_SY_KvarhF,P_SY_KvarhP,P_SY_KvarhG, P_SY_HKvarhZ,P_SY_HKvarhJ,P_SY_HKvarhF,P_SY_HKvarhP,P_SY_HKvarhG, P_SSY_KwhZ,P_SSY_KwhJ,P_SSY_KwhF,P_SSY_KwhP,P_SSY_KwhG, P_SSY_HKwhZ,P_SSY_HKwhJ,P_SSY_HKwhF,P_SSY_HKwhP,P_SSY_HKwhG, P_SSY_KvarhZ,P_SSY_KvarhJ,P_SSY_KvarhF,P_SSY_KvarhP,P_SSY_KvarhG, P_SSY_HKvarhZ,P_SSY_HKvarhJ,P_SSY_HKvarhF,P_SSY_HKvarhP,P_SSY_HKvarhG,P_CODE,P_TIME,P_ZXYGDN,P_FXYGDN,P_ZXWGDN,P_FXWGDN)values(234.868,235.227,234.822,407.032,407.032,406.685,10.88,3.8,0,2560,840,80,3480,80,80,0,160,2560,880,120,3480,0.994,0.932,0.827,0.999,49.988472,1257.6,220.2,818,0,219.2,0,0,0,0,0,33,3.2,25.6,0,4.2,55.6,12,22.6,0,20.8,1376.4,285.8,850,0,240.2,0,0,0,0,0,9.4,0.4,6.8,0,1.8,106.6,23.4,49.6,0,33.4,1913.6,268.8,1260.4,0,384.2,0,0,0,0,0,14.4,0.6,10,0,3.8,70.8,13.4,30.8,0,26.489183,23,20171125104925,256.425,0,59.25,35.074)
写入成功读取完毕一个
write:18 03 00 38 00 34 C7 D9
18 03 68
24totalsize 104
43 6B A0 42 43 6B A5 E3 43 6B DB E7 43 CC 09 17 43 CC 1F 3B 43 CC 1F 3B 3F D1 EB 85 3F 61 47 AE 40 28 F5 C3 43 70 00 00 42 F0 00 00 44 16 00 00 44 70 00 00 00 00 00 00 42 A0 00 00 00 00 00 00 00 00 00 00 43 C8 00 00 43 48 00 00 44 20 00 00 44 70 00 00 3F 25 1E B8 3F 00 83 12 3F 71 A9 FC 3F 80 00 00 42 47 1D 0D
write:18 03 07 CF 00 78 76 AA
18 03 F0
24totalsize 240
44 5F 80 00 43 54 33 33 43 F3 4C CD 00 00 00 00 43 42 CC CD 00 00 00 00 00 00 00 00 00 00 00 00 00 00 00 00 00 00 00 00 43 33 99 9A 41 DE 66 66 42 D4 00 00 00 00 00 00 42 36 66 66 41 D3 33 33 40 F3 33 33 41 73 33 33 00 00 00 00 40 66 66 66 44 19 99 9A 43 00 00 00 43 A7 CC CD 00 00 00 00 43 16 99 9A 00 00 00 00 00 00 00 00 00 00 00 00 00 00 00 00 00 00 00 00 42 45 99 9A 3F 80 00 00 42 09 99 9A 00 00 00 00 41 60 00 00 42 0A 66 66 41 00 00 00 41 AC CC CD 00 00 00 00 40 99 99 9A 44 3F E6 66 43 0C 33 33 43 D9 E6 66 00 00 00 00 43 3F 66 66 00 00 00 00 00 00 00 00 00 00 00 00 00 00 00 00 00 00 00 00 43 A3 99 9A 41 A8 00 00 43 6C 99 9A 00 00 00 00 42 8A CC CD 42 1B 33 33 41 23 33 33 41 A6 66 66 00 00 00 00 40 F9 E9 4D
write:18 03 01 0F 00 08 77 FA
18 03 10
2400 02 02 15 00 00 00 00 00 00 C6 23 00 00 89 CC
43 6B A0 42
235.626
43 6B A5 E3
235.648
43 6B DB E7
235.859
43 CC 09 17
408.071
43 CC 1F 3B
408.244
43 CC 1F 3B
408.244
3F D1 EB 85
1.64
3F 61 47 AE
0.88
40 28 F5 C3
2.64
43 70 00 00
240
42 F0 00 00
120
44 16 00 00
600
44 70 00 00
960
00 00 00 00
0
42 A0 00 00
80
00 00 00 00
0
00 00 00 00
0
43 C8 00 00
400
43 48 00 00
200
44 20 00 00
640
44 70 00 00
960
3F 25 1E B8
0.645
3F 00 83 12
0.502
3F 71 A9 FC
0.944
3F 80 00 00
1
42 47 1D 0D
49.77837
44 5F 80 00
894
43 54 33 33
212.2
43 F3 4C CD
486.6
00 00 00 00
0
43 42 CC CD
194.8
00 00 00 00
0
00 00 00 00
0
00 00 00 00
0
00 00 00 00
0
00 00 00 00
0
43 33 99 9A
179.6
41 DE 66 66
27.8
42 D4 00 00
106
00 00 00 00
0
42 36 66 66
45.6
41 D3 33 33
26.4
40 F3 33 33
7.6
41 73 33 33
15.2
00 00 00 00
0
40 66 66 66
3.6
44 19 99 9A
614.4
43 00 00 00
128
43 A7 CC CD
335.6
00 00 00 00
0
43 16 99 9A
150.6
00 00 00 00
0
00 00 00 00
0
00 00 00 00
0
00 00 00 00
0
00 00 00 00
0
42 45 99 9A
49.4
3F 80 00 00
1
42 09 99 9A
34.4
00 00 00 00
0
41 60 00 00
14
42 0A 66 66
34.6
41 00 00 00
8
41 AC CC CD
21.6
00 00 00 00
0
40 99 99 9A
4.8
44 3F E6 66
767.6
43 0C 33 33
140.2
43 D9 E6 66
435.8
00 00 00 00
0
43 3F 66 66
191.4
00 00 00 00
0
00 00 00 00
0
00 00 00 00
0
00 00 00 00
0
00 00 00 00
0
43 A3 99 9A
327.2
41 A8 00 00
21
43 6C 99 9A
236.6
00 00 00 00
0
42 8A CC CD
69.4
42 1B 33 33
38.8
41 23 33 33
10.2
41 A6 66 66
20.8
00 00 00 00
0
40 F9 E9 4D
7.809729
00 02 02 15
131605
00 00 00 00
0
00 00 C6 23
50723
00 00 89 CC
35276
235.626235.648235.859408.071408.244408.2441.640.882.64240120600960080004002006409600.6450.5020.944149.77837894212.2486.60194.800000179.627.8106045.626.47.615.203.6614.4128335.60150.60000049.4134.401434.6821.604.8767.6140.2435.80191.400000327.221236.6069.438.810.220.807.8097292420171125105030131.605050.72335.276insert into tbl_power_info_v2(P_A_DIANYA,P_B_DIANYA,P_C_DIANYA,P_UAB_XIANDIANYA,P_UBC_XIANDIANYA,P_UCA_XIANDIANYA,P_A_DIANLIU,P_B_DIANLIU,P_C_DIANLIU,P_A_YGGL,P_B_YGGL,P_C_YGGL,P_HXYGGL,P_A_WGGL,P_B_WGGL,P_C_WGGL,P_HXWGGL,P_A_SZGL,P_B_SZGL,P_C_SZGL,P_HXSZGL,P_A_GLYS,P_B_GLYS,P_C_GLYS,P_HXGLYS,P_DWPL,P_BY_KwhZ,P_BY_KwhJ,P_BY_KwhF,P_BY_KwhP,P_BY_KwhG,P_BY_HKwhZ,P_BY_HKwhJ,P_BY_HKwhF,P_BY_HKwhP,P_BY_HKwhG, P_BY_KvarhZ,P_BY_KvarhJ,P_BY_KvarhF,P_BY_KvarhP,P_BY_KvarhG, P_BY_HKvarhZ,P_BY_HKvarhJ,P_BY_HKvarhF,P_BY_HKvarhP,P_BY_HKvarhG, P_SY_KwhZ,P_SY_KwhJ,P_SY_KwhF,P_SY_KwhP,P_SY_KwhG, P_SY_HKwhZ,P_SY_HKwhJ,P_SY_HKwhF,P_SY_HKwhP,P_SY_HKwhG, P_SY_KvarhZ,P_SY_KvarhJ,P_SY_KvarhF,P_SY_KvarhP,P_SY_KvarhG, P_SY_HKvarhZ,P_SY_HKvarhJ,P_SY_HKvarhF,P_SY_HKvarhP,P_SY_HKvarhG, P_SSY_KwhZ,P_SSY_KwhJ,P_SSY_KwhF,P_SSY_KwhP,P_SSY_KwhG, P_SSY_HKwhZ,P_SSY_HKwhJ,P_SSY_HKwhF,P_SSY_HKwhP,P_SSY_HKwhG, P_SSY_KvarhZ,P_SSY_KvarhJ,P_SSY_KvarhF,P_SSY_KvarhP,P_SSY_KvarhG, P_SSY_HKvarhZ,P_SSY_HKvarhJ,P_SSY_HKvarhF,P_SSY_HKvarhP,P_SSY_HKvarhG,P_CODE,P_TIME,P_ZXYGDN,P_FXYGDN,P_ZXWGDN,P_FXWGDN)values(235.626,235.648,235.859,408.071,408.244,408.244,1.64,0.88,2.64,240,120,600,960,0,80,0,0,400,200,640,960,0.645,0.502,0.944,1,49.77837,894,212.2,486.6,0,194.8,0,0,0,0,0,179.6,27.8,106,0,45.6,26.4,7.6,15.2,0,3.6,614.4,128,335.6,0,150.6,0,0,0,0,0,49.4,1,34.4,0,14,34.6,8,21.6,0,4.8,767.6,140.2,435.8,0,191.4,0,0,0,0,0,327.2,21,236.6,0,69.4,38.8,10.2,20.8,0,7.809729,24,20171125105030,131.605,0,50.723,35.276)
写入成功读取完毕一个
write:19 03 00 38 00 34 C6 08
19 03 68
25totalsize 104
43 6B 44 5A 43 6B 41 CB 43 6B 64 5A 43 CB B0 62 43 CB BB 64 43 CB BB 64 00 00 00 00 3F 85 1E B8 3F AE 14 7B 42 A0 00 00 43 20 00 00 43 8C 00 00 44 02 00 00 00 00 00 00 42 A0 00 00 42 A0 00 00 00 00 00 00 42 A0 00 00 43 70 00 00 43 A0 00 00 44 02 00 00 3F 64 DD 2F 3F 1C 28 F6 3F 51 EB 85 3F 80 00 00 42 47 91 B2
write:19 03 07 CF 00 78 77 7B
19 03 F0
25totalsize 240
43 B8 33 33 42 26 66 66 43 51 33 33 00 00 00 00 42 EB 33 33 00 00 00 00 00 00 00 00 00 00 00 00 00 00 00 00 00 00 00 00 41 73 33 33 00 00 00 00 41 60 00 00 00 00 00 00 3F 80 00 00 42 1F 33 33 40 EC CC CD 41 79 99 9A 00 00 00 00 41 84 CC CD 43 B7 B3 33 42 3F 33 33 43 3E 00 00 00 00 00 00 43 01 66 66 00 00 00 00 00 00 00 00 00 00 00 00 00 00 00 00 00 00 00 00 41 10 00 00 00 00 00 00 40 C6 66 66 00 00 00 00 40 26 66 66 42 63 33 33 41 29 99 9A 41 BC CC CD 00 00 00 00 41 B3 33 33 43 A0 E6 66 42 0F 33 33 43 2B CC CD 00 00 00 00 42 E4 00 00 00 00 00 00 00 00 00 00 00 00 00 00 00 00 00 00 00 00 00 00 3E CC CC CD 00 00 00 00 3E 4C CC CD 00 00 00 00 00 00 00 00 42 21 99 9A 40 B9 99 9A 41 A3 33 33 00 00 00 00 41 60 C5 D1
write:19 03 01 0F 00 08 76 2B
19 03 10
2500 00 F3 80 00 00 00 00 00 00 06 98 00 00 AD 5B
43 6B 44 5A
235.267
43 6B 41 CB
235.257
43 6B 64 5A
235.392
43 CB B0 62
407.378
43 CB BB 64
407.464
43 CB BB 64
407.464
00 00 00 00
0
3F 85 1E B8
1.04
3F AE 14 7B
1.36
42 A0 00 00
80
43 20 00 00
160
43 8C 00 00
280
44 02 00 00
520
00 00 00 00
0
42 A0 00 00
80
42 A0 00 00
80
00 00 00 00
0
42 A0 00 00
80
43 70 00 00
240
43 A0 00 00
320
44 02 00 00
520
3F 64 DD 2F
0.894
3F 1C 28 F6
0.61
3F 51 EB 85
0.82
3F 80 00 00
1
42 47 91 B2
49.89228
43 B8 33 33
368.4
42 26 66 66
41.6
43 51 33 33
209.2
00 00 00 00
0
42 EB 33 33
117.6
00 00 00 00
0
00 00 00 00
0
00 00 00 00
0
00 00 00 00
0
00 00 00 00
0
41 73 33 33
15.2
00 00 00 00
0
41 60 00 00
14
00 00 00 00
0
3F 80 00 00
1
42 1F 33 33
39.8
40 EC CC CD
7.4
41 79 99 9A
15.6
00 00 00 00
0
41 84 CC CD
16.6
43 B7 B3 33
367.4
42 3F 33 33
47.8
43 3E 00 00
190
00 00 00 00
0
43 01 66 66
129.4
00 00 00 00
0
00 00 00 00
0
00 00 00 00
0
00 00 00 00
0
00 00 00 00
0
41 10 00 00
9
00 00 00 00
0
40 C6 66 66
6.2
00 00 00 00
0
40 26 66 66
2.6
42 63 33 33
56.8
41 29 99 9A
10.6
41 BC CC CD
23.6
00 00 00 00
0
41 B3 33 33
22.4
43 A0 E6 66
321.8
42 0F 33 33
35.8
43 2B CC CD
171.8
00 00 00 00
0
42 E4 00 00
114
00 00 00 00
0
00 00 00 00
0
00 00 00 00
0
00 00 00 00
0
00 00 00 00
0
3E CC CC CD
0.4
00 00 00 00
0
3E 4C CC CD
0.2
00 00 00 00
0
00 00 00 00
0
42 21 99 9A
40.4
40 B9 99 9A
5.8
41 A3 33 33
20.4
00 00 00 00
0
41 60 C5 D1
14.048295
00 00 F3 80
62336
00 00 00 00
0
00 00 06 98
1688
00 00 AD 5B
44379
235.267235.257235.392407.378407.464407.46401.041.3680160280520080800802403205200.8940.610.82149.89228368.441.6209.20117.60000015.20140139.87.415.6016.6367.447.81900129.400000906.202.656.810.623.6022.4321.835.8171.80114000000.400.20040.45.820.4014.048295252017112510512762.33601.68844.379insert into tbl_power_info_v2(P_A_DIANYA,P_B_DIANYA,P_C_DIANYA,P_UAB_XIANDIANYA,P_UBC_XIANDIANYA,P_UCA_XIANDIANYA,P_A_DIANLIU,P_B_DIANLIU,P_C_DIANLIU,P_A_YGGL,P_B_YGGL,P_C_YGGL,P_HXYGGL,P_A_WGGL,P_B_WGGL,P_C_WGGL,P_HXWGGL,P_A_SZGL,P_B_SZGL,P_C_SZGL,P_HXSZGL,P_A_GLYS,P_B_GLYS,P_C_GLYS,P_HXGLYS,P_DWPL,P_BY_KwhZ,P_BY_KwhJ,P_BY_KwhF,P_BY_KwhP,P_BY_KwhG,P_BY_HKwhZ,P_BY_HKwhJ,P_BY_HKwhF,P_BY_HKwhP,P_BY_HKwhG, P_BY_KvarhZ,P_BY_KvarhJ,P_BY_KvarhF,P_BY_KvarhP,P_BY_KvarhG, P_BY_HKvarhZ,P_BY_HKvarhJ,P_BY_HKvarhF,P_BY_HKvarhP,P_BY_HKvarhG, P_SY_KwhZ,P_SY_KwhJ,P_SY_KwhF,P_SY_KwhP,P_SY_KwhG, P_SY_HKwhZ,P_SY_HKwhJ,P_SY_HKwhF,P_SY_HKwhP,P_SY_HKwhG, P_SY_KvarhZ,P_SY_KvarhJ,P_SY_KvarhF,P_SY_KvarhP,P_SY_KvarhG, P_SY_HKvarhZ,P_SY_HKvarhJ,P_SY_HKvarhF,P_SY_HKvarhP,P_SY_HKvarhG, P_SSY_KwhZ,P_SSY_KwhJ,P_SSY_KwhF,P_SSY_KwhP,P_SSY_KwhG, P_SSY_HKwhZ,P_SSY_HKwhJ,P_SSY_HKwhF,P_SSY_HKwhP,P_SSY_HKwhG, P_SSY_KvarhZ,P_SSY_KvarhJ,P_SSY_KvarhF,P_SSY_KvarhP,P_SSY_KvarhG, P_SSY_HKvarhZ,P_SSY_HKvarhJ,P_SSY_HKvarhF,P_SSY_HKvarhP,P_SSY_HKvarhG,P_CODE,P_TIME,P_ZXYGDN,P_FXYGDN,P_ZXWGDN,P_FXWGDN)values(235.267,235.257,235.392,407.378,407.464,407.464,0,1.04,1.36,80,160,280,520,0,80,80,0,80,240,320,520,0.894,0.61,0.82,1,49.89228,368.4,41.6,209.2,0,117.6,0,0,0,0,0,15.2,0,14,0,1,39.8,7.4,15.6,0,16.6,367.4,47.8,190,0,129.4,0,0,0,0,0,9,0,6.2,0,2.6,56.8,10.6,23.6,0,22.4,321.8,35.8,171.8,0,114,0,0,0,0,0,0.4,0,0.2,0,0,40.4,5.8,20.4,0,14.048295,25,20171125105127,62.336,0,1.688,44.379)
写入成功读取完毕一个
write:1A 03 00 38 00 34 C6 3B
1A 03 68
26totalsize 104
43 6B 13 75 43 6B 53 F8 43 6B 54 7B 43 CB A5 3F 43 CB 83 F8 43 CB 78 F6 40 02 8F 5C 40 21 47 AE 40 5E B8 52 00 00 00 00 43 B4 00 00 43 F0 00 00 44 70 00 00 43 B4 00 00 43 F0 00 00 44 16 00 00 44 B4 00 00 43 F0 00 00 44 16 00 00 44 52 00 00 44 D2 00 00 3E C0 00 00 3F 16 87 2B 3F 08 31 27 3F 0D D2 F2 42 48 0F 67
write:1A 03 07 CF 00 78 77 48
1A 03 F0
26totalsize 240
44 DF 0C CD 43 39 66 66 44 7B 40 00 00 00 00 00 44 14 59 9A 00 00 00 00 00 00 00 00 00 00 00 00 00 00 00 00 00 00 00 00 42 97 33 33 40 99 99 9A 42 1C 00 00 00 00 00 00 41 F9 99 9A 44 54 D9 9A 43 07 99 9A 43 B6 B3 33 00 00 00 00 43 AE E6 66 44 AC E0 00 43 0E CC CD 44 4A 33 33 00 00 00 00 43 D7 19 9A 00 00 00 00 00 00 00 00 00 00 00 00 00 00 00 00 00 00 00 00 40 C0 00 00 3F E6 66 66 40 19 99 9A 00 00 00 00 3F 99 99 9A 44 70 00 00 43 11 33 33 43 D5 4C CD 00 00 00 00 43 C1 CC CD 44 E4 00 00 42 EE CC CD 44 94 20 00 00 00 00 00 44 01 E6 66 00 00 00 00 00 00 00 00 00 00 00 00 00 00 00 00 00 00 00 00 42 0B 33 33 00 00 00 00 41 D3 33 33 00 00 00 00 41 06 66 66 44 3E F3 33 42 F7 33 33 43 9F E6 66 00 00 00 00 43 9F C1 6D
write:1A 03 01 0F 00 08 76 18
1A 03 10
2600 02 87 A7 00 00 00 00 00 00 3D F8 00 00 E2 63
43 6B 13 75
235.076
43 6B 53 F8
235.328
43 6B 54 7B
235.33
43 CB A5 3F
407.291
43 CB 83 F8
407.031
43 CB 78 F6
406.945
40 02 8F 5C
2.04
40 21 47 AE
2.52
40 5E B8 52
3.48
00 00 00 00
0
43 B4 00 00
360
43 F0 00 00
480
44 70 00 00
960
43 B4 00 00
360
43 F0 00 00
480
44 16 00 00
600
44 B4 00 00
1440
43 F0 00 00
480
44 16 00 00
600
44 52 00 00
840
44 D2 00 00
1680
3E C0 00 00
0.375
3F 16 87 2B
0.588
3F 08 31 27
0.532
3F 0D D2 F2
0.554
42 48 0F 67
50.01504
44 DF 0C CD
1784.4
43 39 66 66
185.4
44 7B 40 00
1005
00 00 00 00
0
44 14 59 9A
593.4
00 00 00 00
0
00 00 00 00
0
00 00 00 00
0
00 00 00 00
0
00 00 00 00
0
42 97 33 33
75.6
40 99 99 9A
4.8
42 1C 00 00
39
00 00 00 00
0
41 F9 99 9A
31.2
44 54 D9 9A
851.4
43 07 99 9A
135.6
43 B6 B3 33
365.4
00 00 00 00
0
43 AE E6 66
349.8
44 AC E0 00
1383
43 0E CC CD
142.8
44 4A 33 33
808.8
00 00 00 00
0
43 D7 19 9A
430.2
00 00 00 00
0
00 00 00 00
0
00 00 00 00
0
00 00 00 00
0
00 00 00 00
0
40 C0 00 00
6
3F E6 66 66
1.8
40 19 99 9A
2.4
00 00 00 00
0
3F 99 99 9A
1.2
44 70 00 00
960
43 11 33 33
145.2
43 D5 4C CD
426.6
00 00 00 00
0
43 C1 CC CD
387.6
44 E4 00 00
1824
42 EE CC CD
119.4
44 94 20 00
1185
00 00 00 00
0
44 01 E6 66
519.6
00 00 00 00
0
00 00 00 00
0
00 00 00 00
0
00 00 00 00
0
00 00 00 00
0
42 0B 33 33
34.8
00 00 00 00
0
41 D3 33 33
26.4
00 00 00 00
0
41 06 66 66
8.4
44 3E F3 33
763.8
42 F7 33 33
123.6
43 9F E6 66
319.8
00 00 00 00
0
43 9F C1 6D
319.51114
00 02 87 A7
165799
00 00 00 00
0
00 00 3D F8
15864
00 00 E2 63
57955
235.076235.328235.33407.291407.031406.9452.042.523.480360480960360480600144048060084016800.3750.5880.5320.55450.015041784.4185.410050593.40000075.64.839031.2851.4135.6365.40349.81383142.8808.80430.20000061.82.401.2960145.2426.60387.61824119.411850519.60000034.8026.408.4763.8123.6319.80319.511142620171125105226165.799015.86457.955insert into tbl_power_info_v2(P_A_DIANYA,P_B_DIANYA,P_C_DIANYA,P_UAB_XIANDIANYA,P_UBC_XIANDIANYA,P_UCA_XIANDIANYA,P_A_DIANLIU,P_B_DIANLIU,P_C_DIANLIU,P_A_YGGL,P_B_YGGL,P_C_YGGL,P_HXYGGL,P_A_WGGL,P_B_WGGL,P_C_WGGL,P_HXWGGL,P_A_SZGL,P_B_SZGL,P_C_SZGL,P_HXSZGL,P_A_GLYS,P_B_GLYS,P_C_GLYS,P_HXGLYS,P_DWPL,P_BY_KwhZ,P_BY_KwhJ,P_BY_KwhF,P_BY_KwhP,P_BY_KwhG,P_BY_HKwhZ,P_BY_HKwhJ,P_BY_HKwhF,P_BY_HKwhP,P_BY_HKwhG, P_BY_KvarhZ,P_BY_KvarhJ,P_BY_KvarhF,P_BY_KvarhP,P_BY_KvarhG, P_BY_HKvarhZ,P_BY_HKvarhJ,P_BY_HKvarhF,P_BY_HKvarhP,P_BY_HKvarhG, P_SY_KwhZ,P_SY_KwhJ,P_SY_KwhF,P_SY_KwhP,P_SY_KwhG, P_SY_HKwhZ,P_SY_HKwhJ,P_SY_HKwhF,P_SY_HKwhP,P_SY_HKwhG, P_SY_KvarhZ,P_SY_KvarhJ,P_SY_KvarhF,P_SY_KvarhP,P_SY_KvarhG, P_SY_HKvarhZ,P_SY_HKvarhJ,P_SY_HKvarhF,P_SY_HKvarhP,P_SY_HKvarhG, P_SSY_KwhZ,P_SSY_KwhJ,P_SSY_KwhF,P_SSY_KwhP,P_SSY_KwhG, P_SSY_HKwhZ,P_SSY_HKwhJ,P_SSY_HKwhF,P_SSY_HKwhP,P_SSY_HKwhG, P_SSY_KvarhZ,P_SSY_KvarhJ,P_SSY_KvarhF,P_SSY_KvarhP,P_SSY_KvarhG, P_SSY_HKvarhZ,P_SSY_HKvarhJ,P_SSY_HKvarhF,P_SSY_HKvarhP,P_SSY_HKvarhG,P_CODE,P_TIME,P_ZXYGDN,P_FXYGDN,P_ZXWGDN,P_FXWGDN)values(235.076,235.328,235.33,407.291,407.031,406.945,2.04,2.52,3.48,0,360,480,960,360,480,600,1440,480,600,840,1680,0.375,0.588,0.532,0.554,50.01504,1784.4,185.4,1005,0,593.4,0,0,0,0,0,75.6,4.8,39,0,31.2,851.4,135.6,365.4,0,349.8,1383,142.8,808.8,0,430.2,0,0,0,0,0,6,1.8,2.4,0,1.2,960,145.2,426.6,0,387.6,1824,119.4,1185,0,519.6,0,0,0,0,0,34.8,0,26.4,0,8.4,763.8,123.6,319.8,0,319.51114,26,20171125105226,165.799,0,15.864,57.955)
写入成功读取完毕一个
write:1B 03 00 38 00 34 C7 EA
1B 03 68
27totalsize 104
43 6A 3A 1D 43 6A 6D D3 43 6A 81 CB 43 CA E8 D5 43 CB 0A 1D 43 CA F3 F8 41 C1 EB 85 42 1F D7 0A 41 CE 66 66 45 B0 40 00 46 10 60 00 45 B7 C0 00 46 A2 30 00 44 70 00 00 44 A5 00 00 44 96 00 00 45 59 80 00 45 B0 40 00 46 12 40 00 45 BB 80 00 46 A5 00 00 3F 7C 28 F6 3F 7D B2 2D 3F 7A 9F BE 3F 7C 6A 7F 42 47 39 5A
write:1B 03 07 CF 00 78 76 99
1B 03 F0
27totalsize 240
45 11 CC CD 41 CE 66 66 44 E2 A6 66 00 00 00 00 43 F6 99 9A 00 00 00 00 00 00 00 00 00 00 00 00 00 00 00 00 00 00 00 00 44 33 66 66 41 90 00 00 43 FC 00 00 00 00 00 00 43 43 00 00 00 00 00 00 00 00 00 00 00 00 00 00 00 00 00 00 00 00 00 00 45 10 D3 33 41 F9 99 9A 44 E5 33 33 00 00 00 00 43 E1 E6 66 00 00 00 00 00 00 00 00 00 00 00 00 00 00 00 00 00 00 00 00 44 24 40 00 41 86 66 66 43 E5 CC CD 00 00 00 00 43 34 99 9A 00 00 00 00 00 00 00 00 00 00 00 00 00 00 00 00 00 00 00 00 45 1D 76 66 42 4E 66 66 44 F5 19 9A 00 00 00 00 43 FD 33 33 00 00 00 00 00 00 00 00 00 00 00 00 00 00 00 00 00 00 00 00 44 73 99 9A 42 34 00 00 44 1E 8C CD 00 00 00 00 43 93 4C CD 00 00 00 00 00 00 00 00 00 00 00 00 00 00 00 00 00 00 79 0D
write:1B 03 01 0F 00 08 77 C9
1B 03 10
2700 02 30 BB 00 00 00 00 00 00 DA 08 00 00 35 7D
43 6A 3A 1D
234.227
43 6A 6D D3
234.429
43 6A 81 CB
234.507
43 CA E8 D5
405.819
43 CB 0A 1D
406.079
43 CA F3 F8
405.906
41 C1 EB 85
24.24
42 1F D7 0A
39.96
41 CE 66 66
25.8
45 B0 40 00
5640
46 10 60 00
9240
45 B7 C0 00
5880
46 A2 30 00
20760
44 70 00 00
960
44 A5 00 00
1320
44 96 00 00
1200
45 59 80 00
3480
45 B0 40 00
5640
46 12 40 00
9360
45 BB 80 00
6000
46 A5 00 00
21120
3F 7C 28 F6
0.985
3F 7D B2 2D
0.991
3F 7A 9F BE
0.979
3F 7C 6A 7F
0.986
42 47 39 5A
49.806007
45 11 CC CD
2332.8
41 CE 66 66
25.8
44 E2 A6 66
1813.2
00 00 00 00
0
43 F6 99 9A
493.2
00 00 00 00
0
00 00 00 00
0
00 00 00 00
0
00 00 00 00
0
00 00 00 00
0
44 33 66 66
717.6
41 90 00 00
18
43 FC 00 00
504
00 00 00 00
0
43 43 00 00
195
00 00 00 00
0
00 00 00 00
0
00 00 00 00
0
00 00 00 00
0
00 00 00 00
0
45 10 D3 33
2317.2
41 F9 99 9A
31.2
44 E5 33 33
1833.6
00 00 00 00
0
43 E1 E6 66
451.8
00 00 00 00
0
00 00 00 00
0
00 00 00 00
0
00 00 00 00
0
00 00 00 00
0
44 24 40 00
657
41 86 66 66
16.8
43 E5 CC CD
459.6
00 00 00 00
0
43 34 99 9A
180.6
00 00 00 00
0
00 00 00 00
0
00 00 00 00
0
00 00 00 00
0
00 00 00 00
0
45 1D 76 66
2519.4
42 4E 66 66
51.6
44 F5 19 9A
1960.8
00 00 00 00
0
43 FD 33 33
506.4
00 00 00 00
0
00 00 00 00
0
00 00 00 00
0
00 00 00 00
0
00 00 00 00
0
44 73 99 9A
974.4
42 34 00 00
45
44 1E 8C CD
634.2
00 00 00 00
0
43 93 4C CD
294.6
00 00 00 00
0
00 00 00 00
0
00 00 00 00
0
00 00 00 00
0
00 00 79 0D
4.3425e-41
00 02 30 BB
143547
00 00 00 00
0
00 00 DA 08
55816
00 00 35 7D
13693
234.227234.429234.507405.819406.079405.90624.2439.9625.856409240588020760960132012003480564093606000211200.9850.9910.9790.98649.8060072332.825.81813.20493.200000717.6185040195000002317.231.21833.60451.80000065716.8459.60180.6000002519.451.61960.80506.400000974.445634.20294.600004.3425e-412720171125105325143.547055.81613.693insert into tbl_power_info_v2(P_A_DIANYA,P_B_DIANYA,P_C_DIANYA,P_UAB_XIANDIANYA,P_UBC_XIANDIANYA,P_UCA_XIANDIANYA,P_A_DIANLIU,P_B_DIANLIU,P_C_DIANLIU,P_A_YGGL,P_B_YGGL,P_C_YGGL,P_HXYGGL,P_A_WGGL,P_B_WGGL,P_C_WGGL,P_HXWGGL,P_A_SZGL,P_B_SZGL,P_C_SZGL,P_HXSZGL,P_A_GLYS,P_B_GLYS,P_C_GLYS,P_HXGLYS,P_DWPL,P_BY_KwhZ,P_BY_KwhJ,P_BY_KwhF,P_BY_KwhP,P_BY_KwhG,P_BY_HKwhZ,P_BY_HKwhJ,P_BY_HKwhF,P_BY_HKwhP,P_BY_HKwhG, P_BY_KvarhZ,P_BY_KvarhJ,P_BY_KvarhF,P_BY_KvarhP,P_BY_KvarhG, P_BY_HKvarhZ,P_BY_HKvarhJ,P_BY_HKvarhF,P_BY_HKvarhP,P_BY_HKvarhG, P_SY_KwhZ,P_SY_KwhJ,P_SY_KwhF,P_SY_KwhP,P_SY_KwhG, P_SY_HKwhZ,P_SY_HKwhJ,P_SY_HKwhF,P_SY_HKwhP,P_SY_HKwhG, P_SY_KvarhZ,P_SY_KvarhJ,P_SY_KvarhF,P_SY_KvarhP,P_SY_KvarhG, P_SY_HKvarhZ,P_SY_HKvarhJ,P_SY_HKvarhF,P_SY_HKvarhP,P_SY_HKvarhG, P_SSY_KwhZ,P_SSY_KwhJ,P_SSY_KwhF,P_SSY_KwhP,P_SSY_KwhG, P_SSY_HKwhZ,P_SSY_HKwhJ,P_SSY_HKwhF,P_SSY_HKwhP,P_SSY_HKwhG, P_SSY_KvarhZ,P_SSY_KvarhJ,P_SSY_KvarhF,P_SSY_KvarhP,P_SSY_KvarhG, P_SSY_HKvarhZ,P_SSY_HKvarhJ,P_SSY_HKvarhF,P_SSY_HKvarhP,P_SSY_HKvarhG,P_CODE,P_TIME,P_ZXYGDN,P_FXYGDN,P_ZXWGDN,P_FXWGDN)values(234.227,234.429,234.507,405.819,406.079,405.906,24.24,39.96,25.8,5640,9240,5880,20760,960,1320,1200,3480,5640,9360,6000,21120,0.985,0.991,0.979,0.986,49.806007,2332.8,25.8,1813.2,0,493.2,0,0,0,0,0,717.6,18,504,0,195,0,0,0,0,0,2317.2,31.2,1833.6,0,451.8,0,0,0,0,0,657,16.8,459.6,0,180.6,0,0,0,0,0,2519.4,51.6,1960.8,0,506.4,0,0,0,0,0,974.4,45,634.2,0,294.6,0,0,0,0,4.3425e-41,27,20171125105325,143.547,0,55.816,13.693)
写入成功读取完毕一个
write:1C 03 00 38 00 34 C6 5D
77 77 77
heart:77 77 77 2E 75 73 72 2E 63 6E
write:1C 03 07 CF 00 78 77 2E
write:1C 03 01 0F 00 08 76 7E
77 77 77
heart:77 77 77 2E 75 73 72 2E 63 6E
write:1D 03 00 38 00 34 C7 8C
77 77 77
heart:77 77 77 2E 75 73 72 2E 63 6E
write:1D 03 07 CF 00 78 76 FF
write:1D 03 01 0F 00 08 77 AF
77 77 77
heart:77 77 77 2E 75 73 72 2E 63 6E
write:1E 03 00 38 00 34 C7 BF
77 77 77
heart:77 77 77 2E 75 73 72 2E 63 6E
write:1E 03 07 CF 00 78 76 CC
write:1E 03 01 0F 00 08 77 9C
77 77 77
heart:77 77 77 2E 75 73 72 2E 63 6E
write:1F 03 00 38 00 34 C6 6E
77 77 77
heart:77 77 77 2E 75 73 72 2E 63 6E
write:1F 03 07 CF 00 78 77 1D
write:1F 03 01 0F 00 08 76 4D
77 77 77
heart:77 77 77 2E 75 73 72 2E 63 6E
write:20 03 00 38 00 34 C3 61
77 77 77
heart:77 77 77 2E 75 73 72 2E 63 6E
write:20 03 07 CF 00 78 72 12
write:20 03 01 0F 00 08 73 42
77 77 77
heart:77 77 77 2E 75 73 72 2E 63 6E
write:12 03 00 38 00 34 C7 73
12 03 68
18totalsize 104
43 6C E7 F0 43 6D 00 00 43 6D 0D 91 43 CD 34 5A 43 CD 3F 7D 43 CD 34 5A 43 29 70 A4 43 3F 0A 3D 43 22 99 9A 47 0F E8 00 47 24 10 00 47 08 E0 00 47 DE 6C 00 46 03 40 00 45 F3 C0 00 45 F0 00 00 46 BB 80 00 47 1C 90 00 47 30 B8 00 47 16 78 00 47 E3 58 00 3F 6A C0 83 3F 6D D2 F2 3F 68 F5 C3 3F 7A 9F BE 42 48 12 A8
write:12 03 07 CF 00 78 76 00
12 03 F0
18totalsize 240
47 8C E4 66 46 30 3B 33 47 04 07 CD 00 00 00 00 46 D3 63 33 00 00 00 00 00 00 00 00 00 00 00 00 00 00 00 00 00 00 00 00 46 84 96 00 45 1E 19 9A 46 0A 39 9A 00 00 00 00 45 AE D3 33 00 00 00 00 00 00 00 00 00 00 00 00 00 00 00 00 00 00 00 00 47 A9 B7 80 46 5C 9F 33 47 22 D6 CD 00 00 00 00 46 F2 DF 9A 00 00 00 00 00 00 00 00 00 00 00 00 00 00 00 00 00 00 00 00 46 B2 70 66 45 65 B9 9A 46 3A EB 33 00 00 00 00 45 E1 09 9A 00 00 00 00 00 00 00 00 00 00 00 00 00 00 00 00 00 00 00 00 47 82 8D CD 46 41 63 33 46 D4 77 33 00 00 00 00 46 D5 0E 66 00 00 00 00 00 00 00 00 00 00 00 00 00 00 00 00 00 00 00 00 46 95 B4 66 45 65 46 66 45 FB B3 33 00 00 00 00 45 E8 7B 33 00 00 00 00 00 00 00 00 00 00 00 00 00 00 00 00 00 00 17 5D
write:12 03 01 0F 00 08 77 50
12 03 10
1800 40 AB 0A 00 00 00 00 00 13 E9 B1 00 00 3C 64
43 6C E7 F0
236.906
43 6D 00 00
237
43 6D 0D 91
237.053
43 CD 34 5A
410.409
43 CD 3F 7D
410.496
43 CD 34 5A
410.409
43 29 70 A4
169.44
43 3F 0A 3D
191.04
43 22 99 9A
162.6
47 0F E8 00
36840
47 24 10 00
42000
47 08 E0 00
35040
47 DE 6C 00
113880
46 03 40 00
8400
45 F3 C0 00
7800
45 F0 00 00
7680
46 BB 80 00
24000
47 1C 90 00
40080
47 30 B8 00
45240
47 16 78 00
38520
47 E3 58 00
116400
3F 6A C0 83
0.917
3F 6D D2 F2
0.929
3F 68 F5 C3
0.91
3F 7A 9F BE
0.979
42 48 12 A8
50.01822
47 8C E4 66
72136.8
46 30 3B 33
11278.8
47 04 07 CD
33799.8
00 00 00 00
0
46 D3 63 33
27057.6
00 00 00 00
0
00 00 00 00
0
00 00 00 00
0
00 00 00 00
0
00 00 00 00
0
46 84 96 00
16971
45 1E 19 9A
2529.6
46 0A 39 9A
8846.4
00 00 00 00
0
45 AE D3 33
5594.4
00 00 00 00
0
00 00 00 00
0
00 00 00 00
0
00 00 00 00
0
00 00 00 00
0
47 A9 B7 80
86895
46 5C 9F 33
14119.8
47 22 D6 CD
41686.8
00 00 00 00
0
46 F2 DF 9A
31087.8
00 00 00 00
0
00 00 00 00
0
00 00 00 00
0
00 00 00 00
0
00 00 00 00
0
46 B2 70 66
22840.2
45 65 B9 9A
3675.6
46 3A EB 33
11962.8
00 00 00 00
0
45 E1 09 9A
7201.2
00 00 00 00
0
00 00 00 00
0
00 00 00 00
0
00 00 00 00
0
00 00 00 00
0
47 82 8D CD
66843.6
46 41 63 33
12376.8
46 D4 77 33
27195.6
00 00 00 00
0
46 D5 0E 66
27271.2
00 00 00 00
0
00 00 00 00
0
00 00 00 00
0
00 00 00 00
0
00 00 00 00
0
46 95 B4 66
19162.2
45 65 46 66
3668.4
45 FB B3 33
8054.4
00 00 00 00
0
45 E8 7B 33
7439.4
00 00 00 00
0
00 00 00 00
0
00 00 00 00
0
00 00 00 00
0
00 00 17 5D
8.381e-42
00 40 AB 0A
4238090
00 00 00 00
0
00 13 E9 B1
1305009
00 00 3C 64
15460
236.906237237.053410.409410.496410.409169.44191.04162.6368404200035040113880840078007680240004008045240385201164000.9170.9290.910.97950.0182272136.811278.833799.8027057.600000169712529.68846.405594.4000008689514119.841686.8031087.80000022840.23675.611962.807201.20000066843.612376.827195.6027271.20000019162.23668.48054.407439.400008.381e-4218201711251059314238.0901305.00915.46insert into tbl_power_info_v2(P_A_DIANYA,P_B_DIANYA,P_C_DIANYA,P_UAB_XIANDIANYA,P_UBC_XIANDIANYA,P_UCA_XIANDIANYA,P_A_DIANLIU,P_B_DIANLIU,P_C_DIANLIU,P_A_YGGL,P_B_YGGL,P_C_YGGL,P_HXYGGL,P_A_WGGL,P_B_WGGL,P_C_WGGL,P_HXWGGL,P_A_SZGL,P_B_SZGL,P_C_SZGL,P_HXSZGL,P_A_GLYS,P_B_GLYS,P_C_GLYS,P_HXGLYS,P_DWPL,P_BY_KwhZ,P_BY_KwhJ,P_BY_KwhF,P_BY_KwhP,P_BY_KwhG,P_BY_HKwhZ,P_BY_HKwhJ,P_BY_HKwhF,P_BY_HKwhP,P_BY_HKwhG, P_BY_KvarhZ,P_BY_KvarhJ,P_BY_KvarhF,P_BY_KvarhP,P_BY_KvarhG, P_BY_HKvarhZ,P_BY_HKvarhJ,P_BY_HKvarhF,P_BY_HKvarhP,P_BY_HKvarhG, P_SY_KwhZ,P_SY_KwhJ,P_SY_KwhF,P_SY_KwhP,P_SY_KwhG, P_SY_HKwhZ,P_SY_HKwhJ,P_SY_HKwhF,P_SY_HKwhP,P_SY_HKwhG, P_SY_KvarhZ,P_SY_KvarhJ,P_SY_KvarhF,P_SY_KvarhP,P_SY_KvarhG, P_SY_HKvarhZ,P_SY_HKvarhJ,P_SY_HKvarhF,P_SY_HKvarhP,P_SY_HKvarhG, P_SSY_KwhZ,P_SSY_KwhJ,P_SSY_KwhF,P_SSY_KwhP,P_SSY_KwhG, P_SSY_HKwhZ,P_SSY_HKwhJ,P_SSY_HKwhF,P_SSY_HKwhP,P_SSY_HKwhG, P_SSY_KvarhZ,P_SSY_KvarhJ,P_SSY_KvarhF,P_SSY_KvarhP,P_SSY_KvarhG, P_SSY_HKvarhZ,P_SSY_HKvarhJ,P_SSY_HKvarhF,P_SSY_HKvarhP,P_SSY_HKvarhG,P_CODE,P_TIME,P_ZXYGDN,P_FXYGDN,P_ZXWGDN,P_FXWGDN)values(236.906,237,237.053,410.409,410.496,410.409,169.44,191.04,162.6,36840,42000,35040,113880,8400,7800,7680,24000,40080,45240,38520,116400,0.917,0.929,0.91,0.979,50.01822,72136.8,11278.8,33799.8,0,27057.6,0,0,0,0,0,16971,2529.6,8846.4,0,5594.4,0,0,0,0,0,86895,14119.8,41686.8,0,31087.8,0,0,0,0,0,22840.2,3675.6,11962.8,0,7201.2,0,0,0,0,0,66843.6,12376.8,27195.6,0,27271.2,0,0,0,0,0,19162.2,3668.4,8054.4,0,7439.4,0,0,0,0,8.381e-42,18,20171125105931,4238.09,0,1305.009,15.46)
写入成功读取完毕一个
write:13 03 00 38 00 34 C6 A2
13 03 68
19totalsize 104
43 6C DE 77 43 6C D1 27 43 6D 06 A8 43 CD 13 12 43 CD 29 37 43 CD 29 37 3F 99 99 9A 3F 99 99 9A 40 05 1E B8 00 00 00 00 00 00 00 00 43 C8 00 00 44 0C 00 00 43 70 00 00 43 70 00 00 43 70 00 00 44 34 00 00 43 70 00 00 43 A0 00 00 43 F0 00 00 44 70 00 00 3E BE 76 C9 3E 32 2D 0E 3F 5B 64 5A 3F 1D B2 2D 42 48 A1 08
write:13 03 07 CF 00 78 77 D1
13 03 F0
19totalsize 240
44 A0 0C CD 42 D1 99 9A 44 48 66 66 00 00 00 00 43 BA CC CD 00 00 00 00 00 00 00 00 00 00 00 00 00 00 00 00 00 00 00 00 43 0F 33 33 3E CC CC CD 43 00 00 00 00 00 00 00 41 66 66 66 43 CD CC CD 42 8F 33 33 43 1F 99 9A 00 00 00 00 43 34 00 00 44 5A CC CD 42 BC 00 00 43 F7 66 66 00 00 00 00 43 8F 00 00 00 00 00 00 00 00 00 00 00 00 00 00 00 00 00 00 00 00 00 00 40 80 00 00 00 00 00 00 40 4C CC CD 00 00 00 00 3F 4C CC CD 44 1A 99 9A 42 C4 00 00 43 85 66 66 00 00 00 00 43 7D 33 33 44 DC A6 66 42 DB 33 33 44 8E CC CD 00 00 00 00 44 00 4C CD 00 00 00 00 00 00 00 00 00 00 00 00 00 00 00 00 00 00 00 00 42 5E 66 66 3E CC CC CD 42 21 99 9A 00 00 00 00 41 60 00 00 43 FE 00 00 42 B6 66 66 43 3F 99 9A 00 00 00 00 43 60 A5 CD
write:13 03 01 0F 00 08 76 81
13 03 10
1900 02 93 70 00 00 00 00 00 00 35 3F 00 00 0C E4
43 6C DE 77
236.869
43 6C D1 27
236.817
43 6D 06 A8
237.026
43 CD 13 12
410.149
43 CD 29 37
410.322
43 CD 29 37
410.322
3F 99 99 9A
1.2
3F 99 99 9A
1.2
40 05 1E B8
2.08
00 00 00 00
0
00 00 00 00
0
43 C8 00 00
400
44 0C 00 00
560
43 70 00 00
240
43 70 00 00
240
43 70 00 00
240
44 34 00 00
720
43 70 00 00
240
43 A0 00 00
320
43 F0 00 00
480
44 70 00 00
960
3E BE 76 C9
0.372
3E 32 2D 0E
0.174
3F 5B 64 5A
0.857
3F 1D B2 2D
0.616
42 48 A1 08
50.157257
44 A0 0C CD
1280.4
42 D1 99 9A
104.8
44 48 66 66
801.6
00 00 00 00
0
43 BA CC CD
373.6
00 00 00 00
0
00 00 00 00
0
00 00 00 00
0
00 00 00 00
0
00 00 00 00
0
43 0F 33 33
143.2
3E CC CC CD
0.4
43 00 00 00
128
00 00 00 00
0
41 66 66 66
14.4
43 CD CC CD
411.6
42 8F 33 33
71.6
43 1F 99 9A
159.6
00 00 00 00
0
43 34 00 00
180
44 5A CC CD
875.2
42 BC 00 00
94
43 F7 66 66
494.8
00 00 00 00
0
43 8F 00 00
286
00 00 00 00
0
00 00 00 00
0
00 00 00 00
0
00 00 00 00
0
00 00 00 00
0
40 80 00 00
4
00 00 00 00
0
40 4C CC CD
3.2
00 00 00 00
0
3F 4C CC CD
0.8
44 1A 99 9A
618.4
42 C4 00 00
98
43 85 66 66
266.8
00 00 00 00
0
43 7D 33 33
253.2
44 DC A6 66
1765.2
42 DB 33 33
109.6
44 8E CC CD
1142.4
00 00 00 00
0
44 00 4C CD
513.2
00 00 00 00
0
00 00 00 00
0
00 00 00 00
0
00 00 00 00
0
00 00 00 00
0
42 5E 66 66
55.6
3E CC CC CD
0.4
42 21 99 9A
40.4
00 00 00 00
0
41 60 00 00
14
43 FE 00 00
508
42 B6 66 66
91.2
43 3F 99 9A
191.6
00 00 00 00
0
43 60 A5 CD
224.64766
00 02 93 70
168816
00 00 00 00
0
00 00 35 3F
13631
00 00 0C E4
3300
236.869236.817237.026410.149410.322410.3221.21.22.08004005602402402407202403204809600.3720.1740.8570.61650.1572571280.4104.8801.60373.600000143.20.4128014.4411.671.6159.60180875.294494.8028600000403.200.8618.498266.80253.21765.2109.61142.40513.20000055.60.440.401450891.2191.60224.647661920171125110030168.816013.6313.3insert into tbl_power_info_v2(P_A_DIANYA,P_B_DIANYA,P_C_DIANYA,P_UAB_XIANDIANYA,P_UBC_XIANDIANYA,P_UCA_XIANDIANYA,P_A_DIANLIU,P_B_DIANLIU,P_C_DIANLIU,P_A_YGGL,P_B_YGGL,P_C_YGGL,P_HXYGGL,P_A_WGGL,P_B_WGGL,P_C_WGGL,P_HXWGGL,P_A_SZGL,P_B_SZGL,P_C_SZGL,P_HXSZGL,P_A_GLYS,P_B_GLYS,P_C_GLYS,P_HXGLYS,P_DWPL,P_BY_KwhZ,P_BY_KwhJ,P_BY_KwhF,P_BY_KwhP,P_BY_KwhG,P_BY_HKwhZ,P_BY_HKwhJ,P_BY_HKwhF,P_BY_HKwhP,P_BY_HKwhG, P_BY_KvarhZ,P_BY_KvarhJ,P_BY_KvarhF,P_BY_KvarhP,P_BY_KvarhG, P_BY_HKvarhZ,P_BY_HKvarhJ,P_BY_HKvarhF,P_BY_HKvarhP,P_BY_HKvarhG, P_SY_KwhZ,P_SY_KwhJ,P_SY_KwhF,P_SY_KwhP,P_SY_KwhG, P_SY_HKwhZ,P_SY_HKwhJ,P_SY_HKwhF,P_SY_HKwhP,P_SY_HKwhG, P_SY_KvarhZ,P_SY_KvarhJ,P_SY_KvarhF,P_SY_KvarhP,P_SY_KvarhG, P_SY_HKvarhZ,P_SY_HKvarhJ,P_SY_HKvarhF,P_SY_HKvarhP,P_SY_HKvarhG, P_SSY_KwhZ,P_SSY_KwhJ,P_SSY_KwhF,P_SSY_KwhP,P_SSY_KwhG, P_SSY_HKwhZ,P_SSY_HKwhJ,P_SSY_HKwhF,P_SSY_HKwhP,P_SSY_HKwhG, P_SSY_KvarhZ,P_SSY_KvarhJ,P_SSY_KvarhF,P_SSY_KvarhP,P_SSY_KvarhG, P_SSY_HKvarhZ,P_SSY_HKvarhJ,P_SSY_HKvarhF,P_SSY_HKvarhP,P_SSY_HKvarhG,P_CODE,P_TIME,P_ZXYGDN,P_FXYGDN,P_ZXWGDN,P_FXWGDN)values(236.869,236.817,237.026,410.149,410.322,410.322,1.2,1.2,2.08,0,0,400,560,240,240,240,720,240,320,480,960,0.372,0.174,0.857,0.616,50.157257,1280.4,104.8,801.6,0,373.6,0,0,0,0,0,143.2,0.4,128,0,14.4,411.6,71.6,159.6,0,180,875.2,94,494.8,0,286,0,0,0,0,0,4,0,3.2,0,0.8,618.4,98,266.8,0,253.2,1765.2,109.6,1142.4,0,513.2,0,0,0,0,0,55.6,0.4,40.4,0,14,508,91.2,191.6,0,224.64766,19,20171125110030,168.816,0,13.631,3.3)
写入成功读取完毕一个
write:14 03 00 38 00 34 C7 15
14 03 68
20totalsize 104
43 6D 12 6F 43 6D 3B A6 43 6D 5A 1D 43 CD 55 A2 43 CD 76 E9 43 CD 60 A4 00 00 00 00 00 00 00 00 00 00 00 00 00 00 00 00 00 00 00 00 00 00 00 00 42 A0 00 00 00 00 00 00 00 00 00 00 00 00 00 00 00 00 00 00 00 00 00 00 00 00 00 00 42 A0 00 00 42 A0 00 00 00 00 00 00 00 00 00 00 3F 2B C6 A8 3F 6A C0 83 42 48 73 9D
write:14 03 07 CF 00 78 76 66
14 03 F0
20totalsize 240
44 A0 13 33 43 C7 99 9A 43 90 E6 66 00 00 00 00 44 13 D9 9A 00 00 00 00 00 00 00 00 00 00 00 00 00 00 00 00 00 00 00 00 40 0C CC CD 00 00 00 00 40 0C CC CD 00 00 00 00 00 00 00 00 43 94 4C CD 42 BE 66 66 42 7A 66 66 00 00 00 00 43 0A 99 9A 44 AC 73 33 43 E0 33 33 43 9A 66 66 00 00 00 00 44 1B 8C CD 00 00 00 00 00 00 00 00 00 00 00 00 00 00 00 00 00 00 00 00 40 99 99 9A 00 00 00 00 40 93 33 33 00 00 00 00 00 00 00 00 43 9B 80 00 42 D2 66 66 42 76 66 66 00 00 00 00 43 10 00 00 44 A4 D9 9A 43 ED 99 9A 43 78 66 66 00 00 00 00 44 14 C0 00 00 00 00 00 00 00 00 00 00 00 00 00 00 00 00 00 00 00 00 00 3F 4C CC CD 00 00 00 00 3F 4C CC CD 00 00 00 00 00 00 00 00 43 8C 66 66 42 D1 33 33 42 3B 33 33 00 00 00 00 43 01 F1 62
write:14 03 01 0F 00 08 77 36
14 03 10
2000 04 1A 66 00 00 00 00 00 00 13 51 00 00 8E E9
43 6D 12 6F
237.072
43 6D 3B A6
237.233
43 6D 5A 1D
237.352
43 CD 55 A2
410.669
43 CD 76 E9
410.929
43 CD 60 A4
410.755
00 00 00 00
0
00 00 00 00
0
00 00 00 00
0
00 00 00 00
0
00 00 00 00
0
00 00 00 00
0
42 A0 00 00
80
00 00 00 00
0
00 00 00 00
0
00 00 00 00
0
00 00 00 00
0
00 00 00 00
0
00 00 00 00
0
42 A0 00 00
80
42 A0 00 00
80
00 00 00 00
0
00 00 00 00
0
3F 2B C6 A8
0.671
3F 6A C0 83
0.917
42 48 73 9D
50.112904
44 A0 13 33
1280.6
43 C7 99 9A
399.2
43 90 E6 66
289.8
00 00 00 00
0
44 13 D9 9A
591.4
00 00 00 00
0
00 00 00 00
0
00 00 00 00
0
00 00 00 00
0
00 00 00 00
0
40 0C CC CD
2.2
00 00 00 00
0
40 0C CC CD
2.2
00 00 00 00
0
00 00 00 00
0
43 94 4C CD
296.6
42 BE 66 66
95.2
42 7A 66 66
62.6
00 00 00 00
0
43 0A 99 9A
138.6
44 AC 73 33
1379.6
43 E0 33 33
448.4
43 9A 66 66
308.8
00 00 00 00
0
44 1B 8C CD
622.2
00 00 00 00
0
00 00 00 00
0
00 00 00 00
0
00 00 00 00
0
00 00 00 00
0
40 99 99 9A
4.8
00 00 00 00
0
40 93 33 33
4.6
00 00 00 00
0
00 00 00 00
0
43 9B 80 00
311
42 D2 66 66
105.2
42 76 66 66
61.6
00 00 00 00
0
43 10 00 00
144
44 A4 D9 9A
1318.8
43 ED 99 9A
475.2
43 78 66 66
248.4
00 00 00 00
0
44 14 C0 00
595
00 00 00 00
0
00 00 00 00
0
00 00 00 00
0
00 00 00 00
0
00 00 00 00
0
3F 4C CC CD
0.8
00 00 00 00
0
3F 4C CC CD
0.8
00 00 00 00
0
00 00 00 00
0
43 8C 66 66
280.8
42 D1 33 33
104.6
42 3B 33 33
46.8
00 00 00 00
0
43 01 F1 62
129.9429
00 04 1A 66
268902
00 00 00 00
0
00 00 13 51
4945
00 00 8E E9
36585
237.072237.233237.352410.669410.929410.755000000800000008080000.6710.91750.1129041280.6399.2289.80591.4000002.202.200296.695.262.60138.61379.6448.4308.80622.2000004.804.600311105.261.601441318.8475.2248.40595000000.800.800280.8104.646.80129.94292020171125110130268.90204.94536.585insert into tbl_power_info_v2(P_A_DIANYA,P_B_DIANYA,P_C_DIANYA,P_UAB_XIANDIANYA,P_UBC_XIANDIANYA,P_UCA_XIANDIANYA,P_A_DIANLIU,P_B_DIANLIU,P_C_DIANLIU,P_A_YGGL,P_B_YGGL,P_C_YGGL,P_HXYGGL,P_A_WGGL,P_B_WGGL,P_C_WGGL,P_HXWGGL,P_A_SZGL,P_B_SZGL,P_C_SZGL,P_HXSZGL,P_A_GLYS,P_B_GLYS,P_C_GLYS,P_HXGLYS,P_DWPL,P_BY_KwhZ,P_BY_KwhJ,P_BY_KwhF,P_BY_KwhP,P_BY_KwhG,P_BY_HKwhZ,P_BY_HKwhJ,P_BY_HKwhF,P_BY_HKwhP,P_BY_HKwhG, P_BY_KvarhZ,P_BY_KvarhJ,P_BY_KvarhF,P_BY_KvarhP,P_BY_KvarhG, P_BY_HKvarhZ,P_BY_HKvarhJ,P_BY_HKvarhF,P_BY_HKvarhP,P_BY_HKvarhG, P_SY_KwhZ,P_SY_KwhJ,P_SY_KwhF,P_SY_KwhP,P_SY_KwhG, P_SY_HKwhZ,P_SY_HKwhJ,P_SY_HKwhF,P_SY_HKwhP,P_SY_HKwhG, P_SY_KvarhZ,P_SY_KvarhJ,P_SY_KvarhF,P_SY_KvarhP,P_SY_KvarhG, P_SY_HKvarhZ,P_SY_HKvarhJ,P_SY_HKvarhF,P_SY_HKvarhP,P_SY_HKvarhG, P_SSY_KwhZ,P_SSY_KwhJ,P_SSY_KwhF,P_SSY_KwhP,P_SSY_KwhG, P_SSY_HKwhZ,P_SSY_HKwhJ,P_SSY_HKwhF,P_SSY_HKwhP,P_SSY_HKwhG, P_SSY_KvarhZ,P_SSY_KvarhJ,P_SSY_KvarhF,P_SSY_KvarhP,P_SSY_KvarhG, P_SSY_HKvarhZ,P_SSY_HKvarhJ,P_SSY_HKvarhF,P_SSY_HKvarhP,P_SSY_HKvarhG,P_CODE,P_TIME,P_ZXYGDN,P_FXYGDN,P_ZXWGDN,P_FXWGDN)values(237.072,237.233,237.352,410.669,410.929,410.755,0,0,0,0,0,0,80,0,0,0,0,0,0,80,80,0,0,0.671,0.917,50.112904,1280.6,399.2,289.8,0,591.4,0,0,0,0,0,2.2,0,2.2,0,0,296.6,95.2,62.6,0,138.6,1379.6,448.4,308.8,0,622.2,0,0,0,0,0,4.8,0,4.6,0,0,311,105.2,61.6,0,144,1318.8,475.2,248.4,0,595,0,0,0,0,0,0.8,0,0.8,0,0,280.8,104.6,46.8,0,129.9429,20,20171125110130,268.902,0,4.945,36.585)
写入成功读取完毕一个
write:15 03 00 38 00 34 C6 C4
15 03 68
21totalsize 104
43 6D 4A 7F 43 6D 49 BA 43 6D 66 A8 43 CD 6B C7 43 CD 81 EC 43 CD 81 EC 00 00 00 00 00 00 00 00 00 00 00 00 00 00 00 00 00 00 00 00 00 00 00 00 00 00 00 00 00 00 00 00 00 00 00 00 00 00 00 00 00 00 00 00 00 00 00 00 00 00 00 00 00 00 00 00 00 00 00 00 00 00 00 00 00 00 00 00 00 00 00 00 00 00 00 00 42 48 18 1F
write:15 03 07 CF 00 78 77 B7
15 03 F0
21totalsize 240
40 CC CC CD 00 00 00 00 40 A6 66 66 00 00 00 00 3F 99 99 9A 00 00 00 00 00 00 00 00 00 00 00 00 00 00 00 00 00 00 00 00 3E CC CC CD 00 00 00 00 3E CC CC CD 00 00 00 00 00 00 00 00 00 00 00 00 00 00 00 00 00 00 00 00 00 00 00 00 00 00 00 00 40 8C CC CD 00 00 00 00 40 66 66 66 00 00 00 00 3F 4C CC CD 00 00 00 00 00 00 00 00 00 00 00 00 00 00 00 00 00 00 00 00 00 00 00 00 00 00 00 00 00 00 00 00 00 00 00 00 00 00 00 00 00 00 00 00 00 00 00 00 00 00 00 00 00 00 00 00 00 00 00 00 42 1E 66 66 00 00 00 00 41 F3 33 33 00 00 00 00 41 13 33 33 00 00 00 00 00 00 00 00 00 00 00 00 00 00 00 00 00 00 00 00 42 D8 00 00 00 00 00 00 42 A3 33 33 00 00 00 00 41 D0 00 00 00 00 00 00 00 00 00 00 00 00 00 00 00 00 00 00 00 00 7F 8C
write:15 03 01 0F 00 08 76 E7
15 03 10
2100 00 18 95 00 00 00 00 00 00 1D 3D 00 00 8A E4
43 6D 4A 7F
237.291
43 6D 49 BA
237.288
43 6D 66 A8
237.401
43 CD 6B C7
410.842
43 CD 81 EC
411.015
43 CD 81 EC
411.015
00 00 00 00
0
00 00 00 00
0
00 00 00 00
0
00 00 00 00
0
00 00 00 00
0
00 00 00 00
0
00 00 00 00
0
00 00 00 00
0
00 00 00 00
0
00 00 00 00
0
00 00 00 00
0
00 00 00 00
0
00 00 00 00
0
00 00 00 00
0
00 00 00 00
0
00 00 00 00
0
00 00 00 00
0
00 00 00 00
0
00 00 00 00
0
42 48 18 1F
50.023556
40 CC CC CD
6.4
00 00 00 00
0
40 A6 66 66
5.2
00 00 00 00
0
3F 99 99 9A
1.2
00 00 00 00
0
00 00 00 00
0
00 00 00 00
0
00 00 00 00
0
00 00 00 00
0
3E CC CC CD
0.4
00 00 00 00
0
3E CC CC CD
0.4
00 00 00 00
0
00 00 00 00
0
00 00 00 00
0
00 00 00 00
0
00 00 00 00
0
00 00 00 00
0
00 00 00 00
0
40 8C CC CD
4.4
00 00 00 00
0
40 66 66 66
3.6
00 00 00 00
0
3F 4C CC CD
0.8
00 00 00 00
0
00 00 00 00
0
00 00 00 00
0
00 00 00 00
0
00 00 00 00
0
00 00 00 00
0
00 00 00 00
0
00 00 00 00
0
00 00 00 00
0
00 00 00 00
0
00 00 00 00
0
00 00 00 00
0
00 00 00 00
0
00 00 00 00
0
00 00 00 00
0
42 1E 66 66
39.6
00 00 00 00
0
41 F3 33 33
30.4
00 00 00 00
0
41 13 33 33
9.2
00 00 00 00
0
00 00 00 00
0
00 00 00 00
0
00 00 00 00
0
00 00 00 00
0
42 D8 00 00
108
00 00 00 00
0
42 A3 33 33
81.6
00 00 00 00
0
41 D0 00 00
26
00 00 00 00
0
00 00 00 00
0
00 00 00 00
0
00 00 00 00
0
00 00 7F 8C
4.5755e-41
00 00 18 95
6293
00 00 00 00
0
00 00 1D 3D
7485
00 00 8A E4
35556
