nohup: ignoring input
Listening on :6002
received messag ?->? 
 124.160.213.149:43926 172.16.246.153:6002
write:12 03 00 38 00 34 C7 73
77 77 77
heart:77 77 77 2E 75 73 72 2E 63 6E
write:12 03 07 CF 00 78 76 00
77 77 77
heart:77 77 77 2E 75 73 72 2E 63 6E
12 03 68
1843 6E CA C1 43 6E A9 BA 43 6F 02 0C 43 CE AD 2F 43 CE CE 77 43 CE D9 9A 43 1F B8 52 43 4D EB 85 43 3A 00 00 47 08 68 00 47 34 F0 00 47 23 20 00 47 F0 3C 00 45 E1 00 00 45 C6 C0 00 45 BB 80 00 46 99 C0 00 47 15 10 00 47 40 30 00 47 2D 70 00 47 F3 48 00 3F 6A 3D 71 3F 71 68 73 3F 70 62 4E 3F 7C ED 91 42 47 63 84
12 03 F0
18totalsize 240
47 8A E1 E6 46 30 3B 33 47 02 8B 66 00 00 00 00 46 CE 52 00 00 00 00 00 00 00 00 00 00 00 00 00 00 00 00 00 00 00 00 00 46 82 F2 00 45 1E 19 9A 46 08 CC CD 00 00 00 00 45 AB 1C CD 00 00 00 00 00 00 00 00 00 00 00 00 00 00 00 00 00 00 00 00 47 A9 B7 80 46 5C 9F 33 47 22 D6 CD 00 00 00 00 46 F2 DF 9A 00 00 00 00 00 00 00 00 00 00 00 00 00 00 00 00 00 00 00 00 46 B2 70 66 45 65 B9 9A 46 3A EB 33 00 00 00 00 45 E1 09 9A 00 00 00 00 00 00 00 00 00 00 00 00 00 00 00 00 00 00 00 00 47 82 8D CD 46 41 63 33 46 D4 77 33 00 00 00 00 46 D5 0E 66 00 00 00 00 00 00 00 00 00 00 00 00 00 00 00 00 00 00 00 00 46 95 B4 66 45 65 46 66 45 FB B3 33 00 00 00 00 45 E8 7B 33 00 00 00 00 00 00 00 00 00 00 00 00 00 00 00 00 00 00 E6 8D
write:12 03 01 0F 00 08 77 50
12 03 10
1800 40 89 8F 00 00 00 00 00 13 E2 DE 00 00 CE 2B
43 6E CA C1
238.792
43 6E A9 BA
238.663
43 6F 02 0C
239.008
43 CE AD 2F
413.353
43 CE CE 77
413.613
43 CE D9 9A
413.7
43 1F B8 52
159.72
43 4D EB 85
205.92
43 3A 00 00
186
47 08 68 00
34920
47 34 F0 00
46320
47 23 20 00
41760
47 F0 3C 00
123000
45 E1 00 00
7200
45 C6 C0 00
6360
45 BB 80 00
6000
46 99 C0 00
19680
47 15 10 00
38160
47 40 30 00
49200
47 2D 70 00
44400
47 F3 48 00
124560
3F 6A 3D 71
0.915
3F 71 68 73
0.943
3F 70 62 4E
0.939
3F 7C ED 91
0.988
42 47 63 84
49.847183
47 8A E1 E6
71107.8
46 30 3B 33
11278.8
47 02 8B 66
33419.4
00 00 00 00
0
46 CE 52 00
26409
00 00 00 00
0
00 00 00 00
0
00 00 00 00
0
00 00 00 00
0
00 00 00 00
0
46 82 F2 00
16761
45 1E 19 9A
2529.6
46 08 CC CD
8755.2
00 00 00 00
0
45 AB 1C CD
5475.6
00 00 00 00
0
00 00 00 00
0
00 00 00 00
0
00 00 00 00
0
00 00 00 00
0
47 A9 B7 80
86895
46 5C 9F 33
14119.8
47 22 D6 CD
41686.8
00 00 00 00
0
46 F2 DF 9A
31087.8
00 00 00 00
0
00 00 00 00
0
00 00 00 00
0
00 00 00 00
0
00 00 00 00
0
46 B2 70 66
22840.2
45 65 B9 9A
3675.6
46 3A EB 33
11962.8
00 00 00 00
0
45 E1 09 9A
7201.2
00 00 00 00
0
00 00 00 00
0
00 00 00 00
0
00 00 00 00
0
00 00 00 00
0
47 82 8D CD
66843.6
46 41 63 33
12376.8
46 D4 77 33
27195.6
00 00 00 00
0
46 D5 0E 66
27271.2
00 00 00 00
0
00 00 00 00
0
00 00 00 00
0
00 00 00 00
0
00 00 00 00
0
46 95 B4 66
19162.2
45 65 46 66
3668.4
45 FB B3 33
8054.4
00 00 00 00
0
45 E8 7B 33
7439.4
00 00 00 00
0
00 00 00 00
0
00 00 00 00
0
00 00 00 00
0
00 00 E6 8D
8.2706e-41
00 40 89 8F
4229519
00 00 00 00
0
00 13 E2 DE
1303262
00 00 CE 2B
52779
238.792238.663239.008413.353413.613413.7159.72205.92186349204632041760123000720063606000196803816049200444001245600.9150.9430.9390.98849.84718371107.811278.833419.402640900000167612529.68755.205475.6000008689514119.841686.8031087.80000022840.23675.611962.807201.20000066843.612376.827195.6027271.20000019162.23668.48054.407439.400008.2706e-4118201711250041564229.51901303.26252.779insert into tbl_power_info_v2(P_A_DIANYA,P_B_DIANYA,P_C_DIANYA,P_UAB_XIANDIANYA,P_UBC_XIANDIANYA,P_UCA_XIANDIANYA,P_A_DIANLIU,P_B_DIANLIU,P_C_DIANLIU,P_A_YGGL,P_B_YGGL,P_C_YGGL,P_HXYGGL,P_A_WGGL,P_B_WGGL,P_C_WGGL,P_HXWGGL,P_A_SZGL,P_B_SZGL,P_C_SZGL,P_HXSZGL,P_A_GLYS,P_B_GLYS,P_C_GLYS,P_HXGLYS,P_DWPL,P_BY_KwhZ,P_BY_KwhJ,P_BY_KwhF,P_BY_KwhP,P_BY_KwhG,P_BY_HKwhZ,P_BY_HKwhJ,P_BY_HKwhF,P_BY_HKwhP,P_BY_HKwhG, P_BY_KvarhZ,P_BY_KvarhJ,P_BY_KvarhF,P_BY_KvarhP,P_BY_KvarhG, P_BY_HKvarhZ,P_BY_HKvarhJ,P_BY_HKvarhF,P_BY_HKvarhP,P_BY_HKvarhG, P_SY_KwhZ,P_SY_KwhJ,P_SY_KwhF,P_SY_KwhP,P_SY_KwhG, P_SY_HKwhZ,P_SY_HKwhJ,P_SY_HKwhF,P_SY_HKwhP,P_SY_HKwhG, P_SY_KvarhZ,P_SY_KvarhJ,P_SY_KvarhF,P_SY_KvarhP,P_SY_KvarhG, P_SY_HKvarhZ,P_SY_HKvarhJ,P_SY_HKvarhF,P_SY_HKvarhP,P_SY_HKvarhG, P_SSY_KwhZ,P_SSY_KwhJ,P_SSY_KwhF,P_SSY_KwhP,P_SSY_KwhG, P_SSY_HKwhZ,P_SSY_HKwhJ,P_SSY_HKwhF,P_SSY_HKwhP,P_SSY_HKwhG, P_SSY_KvarhZ,P_SSY_KvarhJ,P_SSY_KvarhF,P_SSY_KvarhP,P_SSY_KvarhG, P_SSY_HKvarhZ,P_SSY_HKvarhJ,P_SSY_HKvarhF,P_SSY_HKvarhP,P_SSY_HKvarhG,P_CODE,P_TIME,P_ZXYGDN,P_FXYGDN,P_ZXWGDN,P_FXWGDN)values(238.792,238.663,239.008,413.353,413.613,413.7,159.72,205.92,186,34920,46320,41760,123000,7200,6360,6000,19680,38160,49200,44400,124560,0.915,0.943,0.939,0.988,49.847183,71107.8,11278.8,33419.4,0,26409,0,0,0,0,0,16761,2529.6,8755.2,0,5475.6,0,0,0,0,0,86895,14119.8,41686.8,0,31087.8,0,0,0,0,0,22840.2,3675.6,11962.8,0,7201.2,0,0,0,0,0,66843.6,12376.8,27195.6,0,27271.2,0,0,0,0,0,19162.2,3668.4,8054.4,0,7439.4,0,0,0,0,8.2706e-41,18,20171125004156,4229.519,0,1303.262,52.779)
写入成功读取完毕一个
write:13 03 00 38 00 34 C6 A2
13 03 68
1943 6E 73 B6 43 6E A7 AE 43 6F 14 BC 43 CE 8C 08 43 CE CE 77 43 CE B8 52 3F C2 8F 5C 3F A3 D7 0A 40 0A 3D 71 43 70 00 00 00 00 00 00 43 C8 00 00 44 34 00 00 43 70 00 00 43 70 00 00 43 70 00 00 44 48 00 00 43 C8 00 00 43 A0 00 00 43 F0 00 00 44 82 00 00 3F 27 2B 02 3E 58 10 62 3F 5B 64 5A 3F 30 E5 60 42 48 59 D9
write:13 03 07 CF 00 78 77 D1
13 03 F0
19totalsize 240
44 9F 19 9A 42 D1 99 9A 44 47 E6 66 00 00 00 00 43 B7 CC CD 00 00 00 00 00 00 00 00 00 00 00 00 00 00 00 00 00 00 00 00 43 0F 33 33 3E CC CC CD 43 00 00 00 00 00 00 00 41 66 66 66 43 CA 00 00 42 8F 33 33 43 1D 99 9A 00 00 00 00 43 2E 66 66 44 5A CC CD 42 BC 00 00 43 F7 66 66 00 00 00 00 43 8F 00 00 00 00 00 00 00 00 00 00 00 00 00 00 00 00 00 00 00 00 00 00 40 80 00 00 00 00 00 00 40 4C CC CD 00 00 00 00 3F 4C CC CD 44 1A 99 9A 42 C4 00 00 43 85 66 66 00 00 00 00 43 7D 33 33 44 DC A6 66 42 DB 33 33 44 8E CC CD 00 00 00 00 44 00 4C CD 00 00 00 00 00 00 00 00 00 00 00 00 00 00 00 00 00 00 00 00 42 5E 66 66 3E CC CC CD 42 21 99 9A 00 00 00 00 41 60 00 00 43 FE 00 00 42 B6 66 66 43 3F 99 9A 00 00 00 00 43 60 A9 34
write:13 03 01 0F 00 08 76 81
13 03 10
1900 02 93 10 00 00 00 00 00 00 35 3F 00 00 F2 E5
43 6E 73 B6
238.452
43 6E A7 AE
238.655
43 6F 14 BC
239.081
43 CE 8C 08
413.094
43 CE CE 77
413.613
43 CE B8 52
413.44
3F C2 8F 5C
1.52
3F A3 D7 0A
1.28
40 0A 3D 71
2.16
43 70 00 00
240
00 00 00 00
0
43 C8 00 00
400
44 34 00 00
720
43 70 00 00
240
43 70 00 00
240
43 70 00 00
240
44 48 00 00
800
43 C8 00 00
400
43 A0 00 00
320
43 F0 00 00
480
44 82 00 00
1040
3F 27 2B 02
0.653
3E 58 10 62
0.211
3F 5B 64 5A
0.857
3F 30 E5 60
0.691
42 48 59 D9
50.08774
44 9F 19 9A
1272.8
42 D1 99 9A
104.8
44 47 E6 66
799.6
00 00 00 00
0
43 B7 CC CD
367.6
00 00 00 00
0
00 00 00 00
0
00 00 00 00
0
00 00 00 00
0
00 00 00 00
0
43 0F 33 33
143.2
3E CC CC CD
0.4
43 00 00 00
128
00 00 00 00
0
41 66 66 66
14.4
43 CA 00 00
404
42 8F 33 33
71.6
43 1D 99 9A
157.6
00 00 00 00
0
43 2E 66 66
174.4
44 5A CC CD
875.2
42 BC 00 00
94
43 F7 66 66
494.8
00 00 00 00
0
43 8F 00 00
286
00 00 00 00
0
00 00 00 00
0
00 00 00 00
0
00 00 00 00
0
00 00 00 00
0
40 80 00 00
4
00 00 00 00
0
40 4C CC CD
3.2
00 00 00 00
0
3F 4C CC CD
0.8
44 1A 99 9A
618.4
42 C4 00 00
98
43 85 66 66
266.8
00 00 00 00
0
43 7D 33 33
253.2
44 DC A6 66
1765.2
42 DB 33 33
109.6
44 8E CC CD
1142.4
00 00 00 00
0
44 00 4C CD
513.2
00 00 00 00
0
00 00 00 00
0
00 00 00 00
0
00 00 00 00
0
00 00 00 00
0
42 5E 66 66
55.6
3E CC CC CD
0.4
42 21 99 9A
40.4
00 00 00 00
0
41 60 00 00
14
43 FE 00 00
508
42 B6 66 66
91.2
43 3F 99 9A
191.6
00 00 00 00
0
43 60 A9 34
224.66095
00 02 93 10
168720
00 00 00 00
0
00 00 35 3F
13631
00 00 F2 E5
62181
238.452238.655239.081413.094413.613413.441.521.282.16240040072024024024080040032048010400.6530.2110.8570.69150.087741272.8104.8799.60367.600000143.20.4128014.440471.6157.60174.4875.294494.8028600000403.200.8618.498266.80253.21765.2109.61142.40513.20000055.60.440.401450891.2191.60224.660951920171125004242168.72013.63162.181insert into tbl_power_info_v2(P_A_DIANYA,P_B_DIANYA,P_C_DIANYA,P_UAB_XIANDIANYA,P_UBC_XIANDIANYA,P_UCA_XIANDIANYA,P_A_DIANLIU,P_B_DIANLIU,P_C_DIANLIU,P_A_YGGL,P_B_YGGL,P_C_YGGL,P_HXYGGL,P_A_WGGL,P_B_WGGL,P_C_WGGL,P_HXWGGL,P_A_SZGL,P_B_SZGL,P_C_SZGL,P_HXSZGL,P_A_GLYS,P_B_GLYS,P_C_GLYS,P_HXGLYS,P_DWPL,P_BY_KwhZ,P_BY_KwhJ,P_BY_KwhF,P_BY_KwhP,P_BY_KwhG,P_BY_HKwhZ,P_BY_HKwhJ,P_BY_HKwhF,P_BY_HKwhP,P_BY_HKwhG, P_BY_KvarhZ,P_BY_KvarhJ,P_BY_KvarhF,P_BY_KvarhP,P_BY_KvarhG, P_BY_HKvarhZ,P_BY_HKvarhJ,P_BY_HKvarhF,P_BY_HKvarhP,P_BY_HKvarhG, P_SY_KwhZ,P_SY_KwhJ,P_SY_KwhF,P_SY_KwhP,P_SY_KwhG, P_SY_HKwhZ,P_SY_HKwhJ,P_SY_HKwhF,P_SY_HKwhP,P_SY_HKwhG, P_SY_KvarhZ,P_SY_KvarhJ,P_SY_KvarhF,P_SY_KvarhP,P_SY_KvarhG, P_SY_HKvarhZ,P_SY_HKvarhJ,P_SY_HKvarhF,P_SY_HKvarhP,P_SY_HKvarhG, P_SSY_KwhZ,P_SSY_KwhJ,P_SSY_KwhF,P_SSY_KwhP,P_SSY_KwhG, P_SSY_HKwhZ,P_SSY_HKwhJ,P_SSY_HKwhF,P_SSY_HKwhP,P_SSY_HKwhG, P_SSY_KvarhZ,P_SSY_KvarhJ,P_SSY_KvarhF,P_SSY_KvarhP,P_SSY_KvarhG, P_SSY_HKvarhZ,P_SSY_HKvarhJ,P_SSY_HKvarhF,P_SSY_HKvarhP,P_SSY_HKvarhG,P_CODE,P_TIME,P_ZXYGDN,P_FXYGDN,P_ZXWGDN,P_FXWGDN)values(238.452,238.655,239.081,413.094,413.613,413.44,1.52,1.28,2.16,240,0,400,720,240,240,240,800,400,320,480,1040,0.653,0.211,0.857,0.691,50.08774,1272.8,104.8,799.6,0,367.6,0,0,0,0,0,143.2,0.4,128,0,14.4,404,71.6,157.6,0,174.4,875.2,94,494.8,0,286,0,0,0,0,0,4,0,3.2,0,0.8,618.4,98,266.8,0,253.2,1765.2,109.6,1142.4,0,513.2,0,0,0,0,0,55.6,0.4,40.4,0,14,508,91.2,191.6,0,224.66095,19,20171125004242,168.72,0,13.631,62.181)
写入成功读取完毕一个
write:14 03 00 38 00 34 C7 15
14 03 68
2043 6E 37 8D 43 6E 2D 50 43 6E 89 BA 43 CE 3E 56 43 CE 5F 9E 43 CE 6A C1 41 0C 28 F6 40 DA E1 48 41 11 EB 85 44 AA 00 00 44 70 00 00 44 AA 00 00 45 66 00 00 43 A0 00 00 43 8C 00 00 43 8C 00 00 44 5C 00 00 45 02 00 00 44 CD 00 00 45 07 00 00 45 6D 80 00 3F 24 5A 1D 3F 19 16 87 3F 20 41 89 3F 78 D4 FE 42 48 D1 8B
write:14 03 07 CF 00 78 76 66
14 03 F0
20totalsize 240
44 9D C6 66 43 C7 99 9A 43 90 CC CD 00 00 00 00 44 0F 4C CD 00 00 00 00 00 00 00 00 00 00 00 00 00 00 00 00 00 00 00 00 40 0C CC CD 00 00 00 00 40 0C CC CD 00 00 00 00 00 00 00 00 43 92 19 9A 42 BE 66 66 42 7A 66 66 00 00 00 00 43 06 33 33 44 AC 73 33 43 E0 33 33 43 9A 66 66 00 00 00 00 44 1B 8C CD 00 00 00 00 00 00 00 00 00 00 00 00 00 00 00 00 00 00 00 00 40 99 99 9A 00 00 00 00 40 93 33 33 00 00 00 00 00 00 00 00 43 9B 80 00 42 D2 66 66 42 76 66 66 00 00 00 00 43 10 00 00 44 A4 D9 9A 43 ED 99 9A 43 78 66 66 00 00 00 00 44 14 C0 00 00 00 00 00 00 00 00 00 00 00 00 00 00 00 00 00 00 00 00 00 3F 4C CC CD 00 00 00 00 3F 4C CC CD 00 00 00 00 00 00 00 00 43 8C 66 66 42 D1 33 33 42 3B 33 33 00 00 00 00 43 01 A8 3F
write:14 03 01 0F 00 08 77 36
14 03 10
2000 04 18 9B 00 00 00 00 00 00 13 51 00 00 4F 81
43 6E 37 8D
238.217
43 6E 2D 50
238.177
43 6E 89 BA
238.538
43 CE 3E 56
412.487
43 CE 5F 9E
412.747
43 CE 6A C1
412.834
41 0C 28 F6
8.76
40 DA E1 48
6.84
41 11 EB 85
9.12
44 AA 00 00
1360
44 70 00 00
960
44 AA 00 00
1360
45 66 00 00
3680
43 A0 00 00
320
43 8C 00 00
280
43 8C 00 00
280
44 5C 00 00
880
45 02 00 00
2080
44 CD 00 00
1640
45 07 00 00
2160
45 6D 80 00
3800
3F 24 5A 1D
0.642
3F 19 16 87
0.598
3F 20 41 89
0.626
3F 78 D4 FE
0.972
42 48 D1 8B
50.20463
44 9D C6 66
1262.2
43 C7 99 9A
399.2
43 90 CC CD
289.6
00 00 00 00
0
44 0F 4C CD
573.2
00 00 00 00
0
00 00 00 00
0
00 00 00 00
0
00 00 00 00
0
00 00 00 00
0
40 0C CC CD
2.2
00 00 00 00
0
40 0C CC CD
2.2
00 00 00 00
0
00 00 00 00
0
43 92 19 9A
292.2
42 BE 66 66
95.2
42 7A 66 66
62.6
00 00 00 00
0
43 06 33 33
134.2
44 AC 73 33
1379.6
43 E0 33 33
448.4
43 9A 66 66
308.8
00 00 00 00
0
44 1B 8C CD
622.2
00 00 00 00
0
00 00 00 00
0
00 00 00 00
0
00 00 00 00
0
00 00 00 00
0
40 99 99 9A
4.8
00 00 00 00
0
40 93 33 33
4.6
00 00 00 00
0
00 00 00 00
0
43 9B 80 00
311
42 D2 66 66
105.2
42 76 66 66
61.6
00 00 00 00
0
43 10 00 00
144
44 A4 D9 9A
1318.8
43 ED 99 9A
475.2
43 78 66 66
248.4
00 00 00 00
0
44 14 C0 00
595
00 00 00 00
0
00 00 00 00
0
00 00 00 00
0
00 00 00 00
0
00 00 00 00
0
3F 4C CC CD
0.8
00 00 00 00
0
3F 4C CC CD
0.8
00 00 00 00
0
00 00 00 00
0
43 8C 66 66
280.8
42 D1 33 33
104.6
42 3B 33 33
46.8
00 00 00 00
0
43 01 A8 3F
129.65721
00 04 18 9B
268443
00 00 00 00
0
00 00 13 51
4945
00 00 4F 81
20353
238.217238.177238.538412.487412.747412.8348.766.849.1213609601360368032028028088020801640216038000.6420.5980.6260.97250.204631262.2399.2289.60573.2000002.202.200292.295.262.60134.21379.6448.4308.80622.2000004.804.600311105.261.601441318.8475.2248.40595000000.800.800280.8104.646.80129.657212020171125004355268.44304.94520.353insert into tbl_power_info_v2(P_A_DIANYA,P_B_DIANYA,P_C_DIANYA,P_UAB_XIANDIANYA,P_UBC_XIANDIANYA,P_UCA_XIANDIANYA,P_A_DIANLIU,P_B_DIANLIU,P_C_DIANLIU,P_A_YGGL,P_B_YGGL,P_C_YGGL,P_HXYGGL,P_A_WGGL,P_B_WGGL,P_C_WGGL,P_HXWGGL,P_A_SZGL,P_B_SZGL,P_C_SZGL,P_HXSZGL,P_A_GLYS,P_B_GLYS,P_C_GLYS,P_HXGLYS,P_DWPL,P_BY_KwhZ,P_BY_KwhJ,P_BY_KwhF,P_BY_KwhP,P_BY_KwhG,P_BY_HKwhZ,P_BY_HKwhJ,P_BY_HKwhF,P_BY_HKwhP,P_BY_HKwhG, P_BY_KvarhZ,P_BY_KvarhJ,P_BY_KvarhF,P_BY_KvarhP,P_BY_KvarhG, P_BY_HKvarhZ,P_BY_HKvarhJ,P_BY_HKvarhF,P_BY_HKvarhP,P_BY_HKvarhG, P_SY_KwhZ,P_SY_KwhJ,P_SY_KwhF,P_SY_KwhP,P_SY_KwhG, P_SY_HKwhZ,P_SY_HKwhJ,P_SY_HKwhF,P_SY_HKwhP,P_SY_HKwhG, P_SY_KvarhZ,P_SY_KvarhJ,P_SY_KvarhF,P_SY_KvarhP,P_SY_KvarhG, P_SY_HKvarhZ,P_SY_HKvarhJ,P_SY_HKvarhF,P_SY_HKvarhP,P_SY_HKvarhG, P_SSY_KwhZ,P_SSY_KwhJ,P_SSY_KwhF,P_SSY_KwhP,P_SSY_KwhG, P_SSY_HKwhZ,P_SSY_HKwhJ,P_SSY_HKwhF,P_SSY_HKwhP,P_SSY_HKwhG, P_SSY_KvarhZ,P_SSY_KvarhJ,P_SSY_KvarhF,P_SSY_KvarhP,P_SSY_KvarhG, P_SSY_HKvarhZ,P_SSY_HKvarhJ,P_SSY_HKvarhF,P_SSY_HKvarhP,P_SSY_HKvarhG,P_CODE,P_TIME,P_ZXYGDN,P_FXYGDN,P_ZXWGDN,P_FXWGDN)values(238.217,238.177,238.538,412.487,412.747,412.834,8.76,6.84,9.12,1360,960,1360,3680,320,280,280,880,2080,1640,2160,3800,0.642,0.598,0.626,0.972,50.20463,1262.2,399.2,289.6,0,573.2,0,0,0,0,0,2.2,0,2.2,0,0,292.2,95.2,62.6,0,134.2,1379.6,448.4,308.8,0,622.2,0,0,0,0,0,4.8,0,4.6,0,0,311,105.2,61.6,0,144,1318.8,475.2,248.4,0,595,0,0,0,0,0,0.8,0,0.8,0,0,280.8,104.6,46.8,0,129.65721,20,20171125004355,268.443,0,4.945,20.353)
写入成功读取完毕一个
write:15 03 00 38 00 34 C6 C4
15 03 68
2143 6E 00 00 00 00 00 00 00 00 00 00 00 00 00 00 00 00 00 00 00 00 00 00 00 00 00 00 00 00 00 00 00 00 00 00 00 00 00 00 00 00 00 00 00 00 00 00 00 00 00 00 00 00 00 00 00 00 00 00 00 00 00 00 00 00 00 00 00 00 00 00 00 00 00 00 00 00 00 00 00 00 00 00 00 00 00 00 00 00 00 00 00 00 00 00 00 00 00 00 00 00 00 00
5E 77 43
heart:5E 77 43 6E 76 46 43 6E C6 25 43 CE 6A C1 43 CE 97 0A 43 CE 8C 08 00 00 00 00 00 00 00 00 00 00 00 00 00 00 00 00 00 00 00 00 00 00 00 00 00 00 00 00 00 00 00 00 00 00 00 00 00 00 00 00 00 00 00 00 00 00 00 00 00 00 00 00 00 00 00 00 00 00 00 00 00 00 00 00 00 00 00 00 00 00 00 00 00 00 00 00 42 48 60 A6
write:15 03 07 CF 00 78 77 B7
15 03 F0
21totalsize 240
40 CC CC CD 00 00 00 00 40 A6 66 66 00 00 00 00 3F 99 99 9A 00 00 00 00 00 00 00 00 00 00 00 00 00 00 00 00 00 00 00 00 3E CC CC CD 00 00 00 00 3E CC CC CD 00 00 00 00 00 00 00 00 00 00 00 00 00 00 00 00 00 00 00 00 00 00 00 00 00 00 00 00 40 8C CC CD 00 00 00 00 40 66 66 66 00 00 00 00 3F 4C CC CD 00 00 00 00 00 00 00 00 00 00 00 00 00 00 00 00 00 00 00 00 00 00 00 00 00 00 00 00 00 00 00 00 00 00 00 00 00 00 00 00 00 00 00 00 00 00 00 00 00 00 00 00 00 00 00 00 00 00 00 00 42 1E 66 66 00 00 00 00 41 F3 33 33 00 00 00 00 41 13 33 33 00 00 00 00 00 00 00 00 00 00 00 00 00 00 00 00 00 00 00 00 42 D8 00 00 00 00 00 00 42 A3 33 33 00 00 00 00 41 D0 00 00 00 00 00 00 00 00 00 00 00 00 00 00 00 00 00 00 00 00 7F 8C
write:15 03 01 0F 00 08 76 E7
write:16 03 00 38 00 34 C6 F7
write:16 03 07 CF 00 78 77 84
77 77 77
heart:77 77 77 2E 75 73 72 2E 63 6E 15 03 10 00 00 00 00 18 94 00 00 00 00 00 00 1D 3D 00 00 8E 18
77 77 77
heart:77 77 77 2E 75 73 72 2E 63 6E
write:16 03 01 0F 00 08 76 D4
77 77 77
heart:77 77 77 2E 75 73 72 2E 63 6E
write:17 03 00 38 00 34 C7 26
17 03 68
2343 6E 40 00 43 6E 5E B8 43 6E DE 35 43 CE 54 9C 43 CE 97 0A 43 CE 8C 08 3F 61 47 AE 3F 57 0A 3D 00 00 00 00 42 F0 00 00 42 F0 00 00 00 00 00 00 43 70 00 00 42 A0 00 00 42 A0 00 00 00 00 00 00 42 F0 00 00 43 48 00 00 43 48 00 00 00 00 00 00 43 8C 00 00 3E FE 76 C9 3F 36 04 19 00 00 00 00 3F 63 12 6F 42 47 ED 99
write:17 03 07 CF 00 78 76 55
17 03 F0
23totalsize 240
44 9A E6 66 43 5C 33 33 44 4A 4C CD 00 00 00 00 43 51 99 9A 00 00 00 00 00 00 00 00 00 00 00 00 00 00 00 00 00 00 00 00 42 02 66 66 40 4C CC CD 41 C8 00 00 00 00 00 00 40 86 66 66 42 59 99 9A 41 40 00 00 41 B3 33 33 00 00 00 00 41 9E 66 66 44 AC 0C CD 43 8E E6 66 44 54 80 00 00 00 00 00 43 70 33 33 00 00 00 00 00 00 00 00 00 00 00 00 00 00 00 00 00 00 00 00 41 16 66 66 3E CC CC CD 40 D9 99 9A 00 00 00 00 3F E6 66 66 42 D5 33 33 41 BB 33 33 42 46 66 66 00 00 00 00 42 05 99 9A 44 EF 33 33 43 86 66 66 44 9D 8C CD 00 00 00 00 43 C0 19 9A 00 00 00 00 00 00 00 00 00 00 00 00 00 00 00 00 00 00 00 00 41 66 66 66 3F 19 99 9A 41 20 00 00 00 00 00 00 40 73 33 33 42 8D 99 9A 41 56 66 66 41 F6 66 66 00 00 00 00 41 D3 9E 44
write:17 03 01 0F 00 08 77 05
write:18 03 00 38 00 34 C7 D9
77 77 77
heart:77 77 77 2E 75 73 72 2E 63 6E
17 03 10
2300 03 E7 DB 00 AE FF FF F1 00 E7 64 00 00 20 68
43 6E 40 00
238.25
43 6E 5E B8
238.37
43 6E DE 35
238.868
43 CE 54 9C
412.661
43 CE 97 0A
413.18
43 CE 8C 08
413.094
3F 61 47 AE
0.88
3F 57 0A 3D
0.84
00 00 00 00
0
42 F0 00 00
120
42 F0 00 00
120
00 00 00 00
0
43 70 00 00
240
42 A0 00 00
80
42 A0 00 00
80
00 00 00 00
0
42 F0 00 00
120
43 48 00 00
200
43 48 00 00
200
00 00 00 00
0
43 8C 00 00
280
3E FE 76 C9
0.497
3F 36 04 19
0.711
00 00 00 00
0
3F 63 12 6F
0.887
42 47 ED 99
49.98203
44 9A E6 66
1239.2
43 5C 33 33
220.2
44 4A 4C CD
809.2
00 00 00 00
0
43 51 99 9A
209.6
00 00 00 00
0
00 00 00 00
0
00 00 00 00
0
00 00 00 00
0
00 00 00 00
0
42 02 66 66
32.6
40 4C CC CD
3.2
41 C8 00 00
25
00 00 00 00
0
40 86 66 66
4.2
42 59 99 9A
54.4
41 40 00 00
12
41 B3 33 33
22.4
00 00 00 00
0
41 9E 66 66
19.8
44 AC 0C CD
1376.4
43 8E E6 66
285.8
44 54 80 00
850
00 00 00 00
0
43 70 33 33
240.2
00 00 00 00
0
00 00 00 00
0
00 00 00 00
0
00 00 00 00
0
00 00 00 00
0
41 16 66 66
9.4
3E CC CC CD
0.4
40 D9 99 9A
6.8
00 00 00 00
0
3F E6 66 66
1.8
42 D5 33 33
106.6
41 BB 33 33
23.4
42 46 66 66
49.6
00 00 00 00
0
42 05 99 9A
33.4
44 EF 33 33
1913.6
43 86 66 66
268.8
44 9D 8C CD
1260.4
00 00 00 00
0
43 C0 19 9A
384.2
00 00 00 00
0
00 00 00 00
0
00 00 00 00
0
00 00 00 00
0
00 00 00 00
0
41 66 66 66
14.4
3F 19 99 9A
0.6
41 20 00 00
10
00 00 00 00
0
40 73 33 33
3.8
42 8D 99 9A
70.8
41 56 66 66
13.4
41 F6 66 66
30.8
00 00 00 00
0
41 D3 9E 44
26.452278
00 03 E7 DB
255963
00 AE FF FF
11468799
F1 00 E7 64
4043368292
00 00 20 68
8296
238.25238.37238.868412.661413.18413.0940.880.84012012002408080012020020002800.4970.71100.88749.982031239.2220.2809.20209.60000032.63.22504.254.41222.4019.81376.4285.88500240.2000009.40.46.801.8106.623.449.6033.41913.6268.81260.40384.20000014.40.61003.870.813.430.8026.4522782320171125004700255.96311468.7994.0433682e+068.296insert into tbl_power_info_v2(P_A_DIANYA,P_B_DIANYA,P_C_DIANYA,P_UAB_XIANDIANYA,P_UBC_XIANDIANYA,P_UCA_XIANDIANYA,P_A_DIANLIU,P_B_DIANLIU,P_C_DIANLIU,P_A_YGGL,P_B_YGGL,P_C_YGGL,P_HXYGGL,P_A_WGGL,P_B_WGGL,P_C_WGGL,P_HXWGGL,P_A_SZGL,P_B_SZGL,P_C_SZGL,P_HXSZGL,P_A_GLYS,P_B_GLYS,P_C_GLYS,P_HXGLYS,P_DWPL,P_BY_KwhZ,P_BY_KwhJ,P_BY_KwhF,P_BY_KwhP,P_BY_KwhG,P_BY_HKwhZ,P_BY_HKwhJ,P_BY_HKwhF,P_BY_HKwhP,P_BY_HKwhG, P_BY_KvarhZ,P_BY_KvarhJ,P_BY_KvarhF,P_BY_KvarhP,P_BY_KvarhG, P_BY_HKvarhZ,P_BY_HKvarhJ,P_BY_HKvarhF,P_BY_HKvarhP,P_BY_HKvarhG, P_SY_KwhZ,P_SY_KwhJ,P_SY_KwhF,P_SY_KwhP,P_SY_KwhG, P_SY_HKwhZ,P_SY_HKwhJ,P_SY_HKwhF,P_SY_HKwhP,P_SY_HKwhG, P_SY_KvarhZ,P_SY_KvarhJ,P_SY_KvarhF,P_SY_KvarhP,P_SY_KvarhG, P_SY_HKvarhZ,P_SY_HKvarhJ,P_SY_HKvarhF,P_SY_HKvarhP,P_SY_HKvarhG, P_SSY_KwhZ,P_SSY_KwhJ,P_SSY_KwhF,P_SSY_KwhP,P_SSY_KwhG, P_SSY_HKwhZ,P_SSY_HKwhJ,P_SSY_HKwhF,P_SSY_HKwhP,P_SSY_HKwhG, P_SSY_KvarhZ,P_SSY_KvarhJ,P_SSY_KvarhF,P_SSY_KvarhP,P_SSY_KvarhG, P_SSY_HKvarhZ,P_SSY_HKvarhJ,P_SSY_HKvarhF,P_SSY_HKvarhP,P_SSY_HKvarhG,P_CODE,P_TIME,P_ZXYGDN,P_FXYGDN,P_ZXWGDN,P_FXWGDN)values(238.25,238.37,238.868,412.661,413.18,413.094,0.88,0.84,0,120,120,0,240,80,80,0,120,200,200,0,280,0.497,0.711,0,0.887,49.98203,1239.2,220.2,809.2,0,209.6,0,0,0,0,0,32.6,3.2,25,0,4.2,54.4,12,22.4,0,19.8,1376.4,285.8,850,0,240.2,0,0,0,0,0,9.4,0.4,6.8,0,1.8,106.6,23.4,49.6,0,33.4,1913.6,268.8,1260.4,0,384.2,0,0,0,0,0,14.4,0.6,10,0,3.8,70.8,13.4,30.8,0,26.452278,23,20171125004700,255.963,11468.799,4.0433682e+06,8.296)
写入成功读取完毕一个
write:18 03 07 CF 00 78 76 AA
18 03 F0
24totalsize 240
44 5E 59 9A 43 54 33 33 43 F2 99 9A 00 00 00 00 43 3F CC CD 00 00 00 00 00 00 00 00 00 00 00 00 00 00 00 00 00 00 00 00 43 33 00 00 41 DE 66 66 42 D4 00 00 00 00 00 00 42 34 00 00 41 D3 33 33 40 F3 33 33 41 73 33 33 00 00 00 00 40 66 66 66 44 19 99 9A 43 00 00 00 43 A7 CC CD 00 00 00 00 43 16 99 9A 00 00 00 00 00 00 00 00 00 00 00 00 00 00 00 00 00 00 00 00 42 45 99 9A 3F 80 00 00 42 09 99 9A 00 00 00 00 41 60 00 00 42 0A 66 66 41 00 00 00 41 AC CC CD 00 00 00 00 40 99 99 9A 44 3F E6 66 43 0C 33 33 43 D9 E6 66 00 00 00 00 43 3F 66 66 00 00 00 00 00 00 00 00 00 00 00 00 00 00 00 00 00 00 00 00 43 A3 99 9A 41 A8 00 00 43 6C 99 9A 00 00 00 00 42 8A CC CD 42 1B 33 33 41 23 33 33 41 A6 66 66 00 00 00 00 40 F9 A9 6B
write:18 03 01 0F 00 08 77 FA
18 03 10
2400 02 01 A4 00 00 00 00 00 00 C6 15 00 00 3F F8
write:19 03 00 38 00 34 C6 08
write:19 03 07 CF 00 78 77 7B
write:19 03 01 0F 00 08 76 2B
19 03 68
2543 6E 5C 6A 43 6E 85 60 43 6E E1 48 43 CE 75 C3 43 CE AD 2F 43 CE 97 0A 00 00 00 00 3F 61 47 AE 00 00 00 00 42 A0 00 00 42 F0 00 00 42 A0 00 00 43 8C 00 00 00 00 00 00 42 F0 00 00 00 00 00 00 42 F0 00 00 42 A0 00 00 43 48 00 00 42 A0 00 00 43 A0 00 00 3F 6E 14 7B 3F 28 31 27 3F 3C AC 08 3F 72 2D 0E 42 48 A1 8B
77 77 77
heart:77 77 77 2E 75 73 72 2E 63 6E
received messag ?->? 
 124.160.213.149:43927 172.16.246.153:6002
write:12 03 00 38 00 34 C7 73
write:1A 03 00 38 00 34 C6 3B
19 03 F0
25totalsize 240
43 B6 19 9A 42 26 66 66 43 4F 66 66 00 00 00 00 42 E6 00 00 00 00 00 00 00 00 00 00 00 00 00 00 00 00 00 00 00 00 00 00 41 6C CC CD 00 00 00 00 41 5C CC CD 00 00 00 00 3F 80 00 00 42 1D 99 9A 40 EC CC CD 41 79 99 9A 00 00 00 00 41 81 99 9A 43 B7 B3 33 42 3F 33 33 43 3E 00 00 00 00 00 00 43 01 66 66 00 00 00 00 00 00 00 00 00 00 00 00 00 00 00 00 00 00 00 00 41 10 00 00 00 00 00 00 40 C6 66 66 00 00 00 00 40 26 66 66 42 63 33 33 41 29 99 9A 41 BC CC CD 00 00 00 00 41 B3 33 33 43 A0 E6 66 42 0F 33 33 43 2B CC CD 00 00 00 A0 FD F7 F3 01 00 00 00 00 00 00 00 00 00 00 00 00 00 00 00 00 00 00 00 00 3E CC CC CD 00 00 00 00 3E 4C CC CD 00 00 00 00 00 00 00 00 42 21 99 9A 40 B9 99 9A 41 A3 33 33 00 00 00 00 41 60 3E 31
12 03 68
1843 6E 23 96 43 6E 6C 8B 43 6E C7 2B 43 CE 54 9C 43 CE 97 0A 43 CE 75 E3 43 3F 28 F6 43 1B 0A 3D 43 19 F5 C3 47 25 00 00 47 0A 48 00 47 05 20 00 47 D7 A0 00 45 FB 40 00 45 99 C0 00 45 87 00 00 46 87 00 00 47 31 A8 00 47 10 60 00 47 0F 70 00 47 DA 34 00 3F 71 26 E9 3F 67 2B 02 3F 6D 91 68 3F 7C ED 91 42 48 52 72
write:12 03 07 CF 00 78 76 00
write:1A 03 07 CF 00 78 77 48
write:12 03 01 0F 00 08 77 50
write:1A 03 01 0F 00 08 76 18
write:13 03 00 38 00 34 C6 A2
write:1B 03 00 38 00 34 C7 EA
write:13 03 07 CF 00 78 77 D1
write:1B 03 07 CF 00 78 76 99
write:13 03 01 0F 00 08 76 81
write:1B 03 01 0F 00 08 77 C9
write:14 03 00 38 00 34 C7 15
write:1C 03 00 38 00 34 C6 5D
write:14 03 07 CF 00 78 76 66
write:1C 03 07 CF 00 78 77 2E
write:14 03 01 0F 00 08 77 36
write:1C 03 01 0F 00 08 76 7E
write:15 03 00 38 00 34 C6 C4
write:1D 03 00 38 00 34 C7 8C
write:15 03 07 CF 00 78 77 B7
write:1D 03 07 CF 00 78 76 FF
1A 03 68
2643 6E 5E 77 43 6E 6E 98 43 6E BE B8 43 CE 6A C1 43 CE 97 0A 43 CE 8C 08 00 00 00 00 40 21 47 AE 40 5E B8 52 00 00 00 00 43 B4 00 00 43 F0 00 00 44 52 00 00 43 B4 00 00 00 00 00 00 00 00 00 00 00 00 00 00 00 00 00 00 00 00 00 00 00 00 00 00 00 00 00 00 00 00 00 00 00 00 00 00 00 00 00 00 00 00 00 00 00 00 00 00
write:15 03 01 0F 00 08 76 E7
write:1D 03 01 0F 00 08 77 AF
00 43 F0
heart:00 43 F0 00 00 44 16 00 00 44 B4 00 00 43 B4 00 00 44 16 00 00 44 52 00 00 44 D2 00 00 3E 28 F5 C3 3F 14 39 58 3F 05 1E B8 3F 00 C4 9C 42 48 4A D5 12 03 F0 00 00 47 8A E9 66 46 30 3B 33 47 02 8B 66 00 00 00 00 46 CE 70 00 00 00 00 00 00 00 00 00 00 00 00 00 00 00 00 00 00 00 00 00 46 82 F8 00 45 1E 19 9A 46 08 CC CD 00 00 00 00 45 AB 34 CD 00 00 00 00 00 00 00 00 00 00 00 00 00 00 00 00 00 00 00 00 47 A9 B7 80 46 5C 9F 33 47 22 D6 CD 00 00 00 00 46 F2 DF 9A 00 00 00 00 00 00 00 00 00 00 00 00 00 00 00 00 00 00 00 00 46 B2 70 66 45 65 B9 9A 46 3A EB 33 00 00 00 00 45 E1 09 9A 00 00 00 00 00 00 00 00 00 00 00 00 00 00 00 00 00 00 00 00 47 82 8D CD 46 41 63 33 46 D4 77 33 00 00 00 00 46 D5 0E 66 00 00 00 00 00 00 00 00 00 00 00 00 00 00 00 00 00 00 00 00 46 95 B4 66 45 65 46 66 45 FB B3 33 00 00 00 00 45 E8 7B 33 00 00 00 00 00 00 00 00 00 00 00 00 00 00 00 00 00 00 AF 3E
1A 03 F0
26totalsize 240
44 DD B3 33 43 39 66 66 44 7A 33 33 00 00 00 00 44 12 B3 33 00 00 00 00 00 00 00 00 00 00 00 00 00 00 00 00 00 00 00 00 42 97 33 33 40 99 99 9A 42 1C 00 00 00 00 00 00 41 F9 99 9A 44 51 40 00 43 07 99 9A 43 B4 99 9A 00 00 00 00 43 A9 CC CD 44 AC E0 00 43 0E CC CD 44 4A 33 33 00 00 00 00 43 D7 19 9A 00 00 00 00 00 00 00 00 00 00 00 00 00 00 00 00 00 00 00 00 40 C0 00 00 3F E6 66 66 40 19 99 9A 00 00 00 00 3F 99 99 9A 44 70 00 00 43 11 33 33 43 D5 4C CD 00 00 00 00 43 C1 CC CD 44 E4 00 00 42 EE CC CD 44 94 20 00 00 00 00 00 44 01 E6 66 00 00 00 00 00 00 00 00 00 00 00 00 00 00 00 00 00 00 00 00 42 0B 33 33 00 00 00 00 41 D3 33 33 00 00 00 00 41 06 66 66 44 3E F3 33 42 F7 33 33 43 9F E6 66 00 00 00 00 43 9F 3E 71
77 77 77
heart:77 77 77 2E 75 73 72 2E 63 6E 12 03 10 00 00 00 40 8A 0D 00 00 00 00 00 13 E2 F6 00 00 E8 5D 77 77 77 2E 75 73 72 2E 63 6E
received messag ?->? 
 124.160.213.149:44582 172.16.246.153:6002
write:12 03 00 38 00 34 C7 73
77 77 77
heart:77 77 77 2E 75 73 72 2E 63 6E
FF FF FE
heart:FF FF FE D7 AC 00 02 87 4D 00 00 00 00 00 00 3D F8 00 00 94 78
FB F1 ED
heart:FB F1 ED FF C4 B1 FF FF F3 7F FF EC 9E EB FF F8 FD 77 FE E1 FF E3 DF FF DF FF F7 FE 7F FF C2 8F 5C 3F A3 D7 0A 40 0A 3D 71 43 70 00 00 00 00 00 00 43 C8 00 00 44 34 00 00 43 70 00 00 43 70 00 00 43 70 00 00 44 48 00 00 43 A0 00 00 43 A0 00 00 43 F0 00 00 44 82 00 00 3F 25 A1 CB 3E 5A 1C AC 3F 5B 64 5A 3F 30 62 4E 42 47 E0 11 15 03 10 00 00 00 00 18 94 00 00 00 00 00 00 1D 3D 00 00 8E 18 1B 12 03 68 00 00 43 6E B6 46 43 6E 9F 7D 43 6F 0D 0E 43 CE AD 2F 43 CE CE 77 43 CE D9 9A 43 2B F5 C3 43 27 E1 48 43 1B 28 F6 47 16 00 00 47 0F 70 00 47 05 98 00 47 D5 C0 00 45 DD 40 00 45 B7 C0 00 45 A1 40 00 46 8C A0 00 47 20 50 00 47 1C 90 00 47 10 D8 00 47 D8 90 00 3F 6F 9D B2 3F 6A C0 83 3F 6C 49 BA 3F 7C AC 08 42 48 1C 64
write:16 03 00 38 00 34 C6 F7
write:1E 03 00 38 00 34 C7 BF
write:12 03 07 CF 00 78 76 00
12 03 F0
18totalsize 240
47 8A ED 00 46 30 3B 33 47 02 8B 66 00 00 00 00 46 CE 7E 66 00 00 00 00 00 00 00 00 00 00 00 00 00 00 00 00 00 00 00 00 46 82 FA 66 45 1E 19 9A 46 08 CC CD 00 00 00 00 45 AB 3E 66 00 00 00 00 00 00 00 00 00 00 00 00 00 00 00 00 00 00 00 00 47 A9 B7 80 46 5C 9F 33 47 22 D6 CD 00 00 00 00 46 F2 DF 9A 00 00 00 00 00 00 00 00 00 00 00 00 00 00 00 00 00 00 00 00 46 B2 70 66 45 65 B9 9A 46 3A EB 33 00 00 00 00 45 E1 09 9A 00 00 00 00 00 00 00 00 00 00 00 00 00 00 00 00 00 00 00 00 47 82 8D CD 46 41 63 33 46 D4 77 33 00 00 00 00 46 D5 0E 66 00 00 00 00 00 00 00 00 00 00 00 00 00 00 00 00 00 00 00 00 46 95 B4 66 45 65 46 66 45 FB B3 33 00 00 00 00 45 E8 7B 33 00 00 00 00 00 00 00 00 00 00 00 00 00 00 00 00 00 00 AB 9F
write:16 03 07 CF 00 78 77 84
write:1E 03 07 CF 00 78 76 CC
write:12 03 01 0F 00 08 77 50
write:16 03 01 0F 00 08 76 D4
write:1E 03 01 0F 00 08 77 9C
write:13 03 00 38 00 34 C6 A2
77 77 77
heart:77 77 77 2E 75 73 72 2E 63 6E
write:17 03 00 38 00 34 C7 26
write:1F 03 00 38 00 34 C6 6E
write:13 03 07 CF 00 78 77 D1
write:17 03 07 CF 00 78 76 55
write:1F 03 07 CF 00 78 77 1D
77 77 77
heart:77 77 77 2E 75 73 72 2E 63 6E
12 03 10
1800 40 8A 50 00 00 00 00 00 13 E3 03 00 00 C3 3E
43 6E 23 96
238.139
43 6E 6C 8B
238.424
43 6E C7 2B
238.778
43 CE 54 9C
412.661
43 CE 97 0A
413.18
43 CE 75 E3
412.921
43 3F 28 F6
191.16
43 1B 0A 3D
155.04
43 19 F5 C3
153.96
47 25 00 00
42240
47 0A 48 00
35400
47 05 20 00
34080
47 D7 A0 00
110400
45 FB 40 00
8040
45 99 C0 00
4920
45 87 00 00
4320
46 87 00 00
17280
47 31 A8 00
45480
47 10 60 00
36960
47 0F 70 00
36720
47 DA 34 00
111720
3F 71 26 E9
0.942
3F 67 2B 02
0.903
3F 6D 91 68
0.928
3F 7C ED 91
0.988
42 48 52 72
50.080513
47 8A ED 00
71130
46 30 3B 33
11278.8
47 02 8B 66
33419.4
00 00 00 00
0
46 CE 7E 66
26431.2
00 00 00 00
0
00 00 00 00
0
00 00 00 00
0
00 00 00 00
0
00 00 00 00
0
46 82 FA 66
16765.2
45 1E 19 9A
2529.6
46 08 CC CD
8755.2
00 00 00 00
0
45 AB 3E 66
5479.8
00 00 00 00
0
00 00 00 00
0
00 00 00 00
0
00 00 00 00
0
00 00 00 00
0
47 A9 B7 80
86895
46 5C 9F 33
14119.8
47 22 D6 CD
41686.8
00 00 00 00
0
46 F2 DF 9A
31087.8
00 00 00 00
0
00 00 00 00
0
00 00 00 00
0
00 00 00 00
0
00 00 00 00
0
46 B2 70 66
22840.2
45 65 B9 9A
3675.6
46 3A EB 33
11962.8
00 00 00 00
0
45 E1 09 9A
7201.2
00 00 00 00
0
00 00 00 00
0
00 00 00 00
0
00 00 00 00
0
00 00 00 00
0
47 82 8D CD
66843.6
46 41 63 33
12376.8
46 D4 77 33
27195.6
00 00 00 00
0
46 D5 0E 66
27271.2
00 00 00 00
0
00 00 00 00
0
00 00 00 00
0
00 00 00 00
0
00 00 00 00
0
46 95 B4 66
19162.2
45 65 46 66
3668.4
45 FB B3 33
8054.4
00 00 00 00
0
45 E8 7B 33
7439.4
00 00 00 00
0
00 00 00 00
0
00 00 00 00
0
00 00 00 00
0
00 00 AB 9F
6.1566e-41
00 40 8A 50
4229712
00 00 00 00
0
00 13 E3 03
1303299
00 00 C3 3E
49982
238.139238.424238.778412.661413.18412.921191.16155.04153.96422403540034080110400804049204320172804548036960367201117200.9420.9030.9280.98850.0805137113011278.833419.4026431.20000016765.22529.68755.205479.8000008689514119.841686.8031087.80000022840.23675.611962.807201.20000066843.612376.827195.6027271.20000019162.23668.48054.407439.400006.1566e-4118201711250054254229.71201303.29949.982insert into tbl_power_info_v2(P_A_DIANYA,P_B_DIANYA,P_C_DIANYA,P_UAB_XIANDIANYA,P_UBC_XIANDIANYA,P_UCA_XIANDIANYA,P_A_DIANLIU,P_B_DIANLIU,P_C_DIANLIU,P_A_YGGL,P_B_YGGL,P_C_YGGL,P_HXYGGL,P_A_WGGL,P_B_WGGL,P_C_WGGL,P_HXWGGL,P_A_SZGL,P_B_SZGL,P_C_SZGL,P_HXSZGL,P_A_GLYS,P_B_GLYS,P_C_GLYS,P_HXGLYS,P_DWPL,P_BY_KwhZ,P_BY_KwhJ,P_BY_KwhF,P_BY_KwhP,P_BY_KwhG,P_BY_HKwhZ,P_BY_HKwhJ,P_BY_HKwhF,P_BY_HKwhP,P_BY_HKwhG, P_BY_KvarhZ,P_BY_KvarhJ,P_BY_KvarhF,P_BY_KvarhP,P_BY_KvarhG, P_BY_HKvarhZ,P_BY_HKvarhJ,P_BY_HKvarhF,P_BY_HKvarhP,P_BY_HKvarhG, P_SY_KwhZ,P_SY_KwhJ,P_SY_KwhF,P_SY_KwhP,P_SY_KwhG, P_SY_HKwhZ,P_SY_HKwhJ,P_SY_HKwhF,P_SY_HKwhP,P_SY_HKwhG, P_SY_KvarhZ,P_SY_KvarhJ,P_SY_KvarhF,P_SY_KvarhP,P_SY_KvarhG, P_SY_HKvarhZ,P_SY_HKvarhJ,P_SY_HKvarhF,P_SY_HKvarhP,P_SY_HKvarhG, P_SSY_KwhZ,P_SSY_KwhJ,P_SSY_KwhF,P_SSY_KwhP,P_SSY_KwhG, P_SSY_HKwhZ,P_SSY_HKwhJ,P_SSY_HKwhF,P_SSY_HKwhP,P_SSY_HKwhG, P_SSY_KvarhZ,P_SSY_KvarhJ,P_SSY_KvarhF,P_SSY_KvarhP,P_SSY_KvarhG, P_SSY_HKvarhZ,P_SSY_HKvarhJ,P_SSY_HKvarhF,P_SSY_HKvarhP,P_SSY_HKvarhG,P_CODE,P_TIME,P_ZXYGDN,P_FXYGDN,P_ZXWGDN,P_FXWGDN)values(238.139,238.424,238.778,412.661,413.18,412.921,191.16,155.04,153.96,42240,35400,34080,110400,8040,4920,4320,17280,45480,36960,36720,111720,0.942,0.903,0.928,0.988,50.080513,71130,11278.8,33419.4,0,26431.2,0,0,0,0,0,16765.2,2529.6,8755.2,0,5479.8,0,0,0,0,0,86895,14119.8,41686.8,0,31087.8,0,0,0,0,0,22840.2,3675.6,11962.8,0,7201.2,0,0,0,0,0,66843.6,12376.8,27195.6,0,27271.2,0,0,0,0,0,19162.2,3668.4,8054.4,0,7439.4,0,0,0,0,6.1566e-41,18,20171125005425,4229.712,0,1303.299,49.982)
写入成功读取完毕一个
write:13 03 01 0F 00 08 76 81
write:17 03 01 0F 00 08 77 05
write:1F 03 01 0F 00 08 76 4D
write:14 03 00 38 00 34 C7 15
13 14 03
heart:13 14 03 68 00 00 43 6F 19 17 43 6F 03 12 43 6F 37 CF 43 CE FA E1 43 CF 11 06 43 CF 11 06 41 0C CC CD 40 DA E1 48 41 11 47 AE 44 AA 00 00 44 70 00 00 44 AA 00 00 45 66 00 00 43 A0 00 00 43 8C 00 00 43 8C 00 00 44 5C 00 00 45 04 80 00 44 CD 00 00 45 07 00 00 45 6D 80 00 3F 24 18 93 3F 19 99 9A 3F 20 83 12 3F 79
16 87 42
heart:16 87 42 48 9D 33
write:18 03 00 38 00 34 C7 D9
write:20 03 00 38 00 34 C3 61
write:14 03 07 CF 00 78 76 66
14 03 F0
20totalsize 240
44 9D D9 9A 43 C7 99 9A 43 90 CC CD 00 00 00 00 44 0F 80 00 00 00 00 00 00 00 00 00 00 00 00 00 00 00 00 00 00 00 00 00 40 0C CC CD 00 00 00 00 40 0C CC CD 00 00 00 00 00 00 00 00 43 92 33 33 42 BE 66 66 42 7A 66 66 00 00 00 00 43 06 66 66 44 AC 73 33 43 E0 33 33 43 9A 66 66 00 00 00 00 44 1B 8C CD 00 00 00 00 00 00 00 00 00 00 00 00 00 00 00 00 00 00 00 00 40 99 99 9A 00 00 00 00 40 93 33 33 00 00 00 00 00 00 00 00 43 9B 80 00 42 D2 66 66 42 76 66 66 00 00 00 00 43 10 00 00 44 A4 D9 9A 43 ED 99 9A 43 78 66 66 00 00 00 00 44 14 C0 00 00 00 00 00 00 00 00 00 00 00 00 00 00 00 00 00 00 00 00 00 3F 4C CC CD 00 00 00 00 3F 4C CC CD 00 00 00 00 00 00 00 00 43 8C 66 66 42 D1 33 33 42 3B 33 33 00 00 00 00 43 01 64 37
write:18 03 07 CF 00 78 76 AA
write:20 03 07 CF 00 78 72 12
write:14 03 01 0F 00 08 77 36
write:18 03 01 0F 00 08 77 FA
write:20 03 01 0F 00 08 73 42
write:15 03 00 38 00 34 C6 C4
write:19 03 00 38 00 34 C6 08
write:12 03 00 38 00 34 C7 73
write:15 03 07 CF 00 78 77 B7
write:19 03 07 CF 00 78 77 7B
write:12 03 07 CF 00 78 76 00
write:15 03 01 0F 00 08 76 E7
write:19 03 01 0F 00 08 76 2B
write:12 03 01 0F 00 08 77 50
write:16 03 00 38 00 34 C6 F7
77 77 77
heart:77 77 77 2E 75 73 72 2E 63 6E
write:1A 03 00 38 00 34 C6 3B
write:13 03 00 38 00 34 C6 A2
write:16 03 07 CF 00 78 77 84
write:1A 03 07 CF 00 78 77 48
write:13 03 07 CF 00 78 77 D1
received messag ?->? 
 124.160.213.149:44583 172.16.246.153:6002
write:12 03 00 38 00 34 C7 73
write:16 03 01 0F 00 08 76 D4
12 03 68
1843 6E 22 0C 43 6E 3E FA 43 6E 8A C1 43 CE 3E 56 43 CE 6A C1 43 CE 5F 9E 43 6A 3D 71 43 6D 1E B8 43 69 E1 48 47 3D 60 00 47 42 88 00 47 42 88 00 48 10 7E 00 46 B2 20 00 46 9F 60 00 46 9C 90 00 47 76 90 00 47 59 F8 00 47 5C C8 00 47 59 F8 00 48 1D 26 00 3F 5E 35 3F 3F 61 CA C1 3F 64 5A 1D 3F 6B 85 1F 42 48 ED 6A
14 03 10
2000 04 18 AF 00 00 00 00 00 00 13 51 00 00 A5 B1
12 03 68
1843 6E 9F 3B 43 6E 99 58 43 6F 02 0C 43 CE 97 0A 43 CE C3 75 43 CE CE 77 43 36 E1 48 43 3B 51 EC 43 2F 14 7B 47 1C 90 00 47 1F 60 00 47 16 78 00 47 E9 70 00 46 32 20 00 46 1B A0 00 46 17 E0 00 46 F2 D0 00 47 2A A0 00 47 2E 60 00 47 23 98 00 47 F1 2C 00 3F 6B 43 96 3F 69 FB E7 3F 6B C6 A8 3F 77 CE D9 42 47 AE CF
FB F8 FF
heart:FB F8 FF C4 F3 FF FF FB C7 FF FF B6 53 FF 99 FE FB FF EF EF D3 CE CE 77 43 CE E4 9C 00 00 00 00 00 00 00 00 00 00 00 00 00 00 00 00 00 00 00 00 00 00 00 00 00 00 00 00 00 00 00 00 00 00 00 00 00 00 00 00 00 00 00 00 00 00 00 00 00 00 00 00 00 00 00 00 00 00 00 00 00 00 00 00 00 00 00 00 00 00 00 00 00 00 00 00 42 47 41 97
write:1A 03 01 0F 00 08 76 18
write:13 03 01 0F 00 08 76 81
write:12 03 07 CF 00 78 76 00
write:17 03 00 38 00 34 C7 26
12 03 F0
18totalsize 240
47 8A F1 33 46 30 3B 33 47 02 8B 66 00 00 E8 FF FF FE 8F 33 00 00 00 00 00 00 00 00 00 00 00 00 00 00 00 00 00 00 00 00 46 82 FE 00 45 1E 19 9A 46 08 CC CD 00 00 00 00 45 AB 48 00 00 00 00 00 00 00 00 00 00 00 00 00 00 00 00 00 00 00 00 00 47 A9 B7 80 46 5C 9F 33 47 22 D6 CD 00 00 00 00 46 F2 DF 9A 00 00 00 00 00 00 00 00 00 00 00 00 00 00 00 00 00 00 00 00 46 B2 70 66 45 65 B9 9A 46 3A EB 33 00 00 00 00 45 E1 09 9A 00 00 00 00 00 00 00 00 00 00 00 00 00 00 00 00 00 00 00 00 47 82 8D CD 46 41 63 33 46 D4 77 33 00 00 00 00 46 D5 0E 66 00 00 00 00 00 00 00 00 00 00 00 00 00 00 00 00 00 00 00 00 46 95 B4 66 45 65 46 66 45 FB B3 33 00 00 00 00 45 E8 7B 33 00 00 00 00 00 00 00 00 00 00 00 00 00 00 00 00 00 00 94 21
FE FE FF
heart:FE FE FF EF 5F FF CF FF BB FB 71 3F 3F FF E3 FF 7E 00 00 00 00 46 CE 8F 33 00 00 00 00 00 00 00 00 00 00 00 00 00 00 00 00 00 00 00 00 46 82 FE 00 45 1E 19 9A 46 08 CC CD 00 00 00 00 45 AB 48 00 00 00 00 00 00 00 00 00 00 00 00 00 00 00 00 00 00 00 00 00 47 A9 B7 80 46 5C 9F 33 47 22 D6 CD 00 00 00 00 46 F2 DF 9A 00 00 00 00 00 00 00 00 00 00 00 00 00 00 00 00 00 00 00 00 46 B2 70 66 45 65 B9 9A 46 3A EB 33 00 00 00 00 45 E1 09 9A 00 00 00 00 00 00 00 00 00 00 00 00 00 00 00 00 00 00 00 00 47 82 8D CD 46 41 63 33 46 D4 77 33 00 00 00 00 46 D5 0E 66 00 00 00 00 00 00 00 00 00 00 00 00 00 00 00 00 00 00 00 00 46 95 B4 66 45 65 46 66
write:1B 03 00 38 00 34 C7 EA
write:14 03 00 38 00 34 C7 15
write:12 03 01 0F 00 08 77 50
write:17 03 07 CF 00 78 76 55
write:1B 03 07 CF 00 78 76 99
45 FB B3
heart:45 FB B3 33 00 00 00 00 45 E8 7B 33 00 00 00 00 00 00 00 00 00 00 00 00 00 00 00 00 00 00 94 21 17 03 F0 00 00 44 9A EC CD 43 5C 33 33 44 4A 4C CD 00 00 00 00 43 51 CC CD 00 00 00 00 00 00 00 00 00 00 00 00 00 00 00 00 00 00 00 00 42 02 66 66 40 4C CC CD 41 C8 00 00 00 00 00 00 40 86 66 66 42 59 99 9A 41 40 00 00 41 B3 33 33 00 00 00 00 41 9E 66 66
44 AC 0C
heart:44 AC 0C CD 43 8E E6 66 44 54 80 00 00 00 00 00 43 70 33 33 00 00 00 00 00 00 00 00 00 00 00 00 00 00 00 00 00 00 00 00 41 16 66 66 3E CC CC CD 40 D9 99 9A 00 00 00 00 3F E6 66 66 42 D5 33 33 41 BB 33 33 42 46 66 66 00 00 00 00 42 05 99 9A 44 EF 33 33 43 86 66 66 44 9D 8C CD 00 00 00 00 43 C0 19 9A 00 00 00 00 00 00 00 00 00 00 00 00 00 00 00 00 00 00 00 00 41 66 66 66 3F 19 99 9A 41 20 00 00 00 00 00 00 40 73 33 33 42 8D 99 9A 41 56 66 66 41 F6 66 66 00 00 00 00 41 D3 0A EA 12 03 10 00 00 00 40 8A 8E 00 00 00 00 00 13 E3 0F 00 00 9F 16
write:14 03 07 CF 00 78 76 66
write:13 03 00 38 00 34 C6 A2
write:17 03 01 0F 00 08 77 05
write:1B 03 01 0F 00 08 77 C9
write:14 03 01 0F 00 08 77 36
write:13 03 07 CF 00 78 77 D1
write:18 03 00 38 00 34 C7 D9
77 77 77
heart:77 77 77 2E 75 73 72 2E 63 6E
13 03 68
1943 6E B1 EC 43 6E D8 93 43 6F 19 DB 43 CE B8 F2 FD EF FF BF E8 CE D9 9A 3F C2 8F 5C 3F A3 D7 0A 40 0A 3D 71 43 70 00 00 00 00 00 00 43 C8 00 00 00 00 00 00 00 00 00 00 00 00 00 00 00 00 00 00 00 00 00 00 00 00 00 00 00 00 00 00 00 00 00 00 00 00 00 00 00 00 00 00 00 00 00 00 00 00 00 00 00 00 00 00 00 00 00 00
00 44 34
heart:00 44 34 00 00 43 70 00 00 43 70 00 00 43 70 00 00 44 48 00 00 43 A0 00 00 43 A0 00 00 43 F0 00 00 44 82 00 00 3F 26 A7 F0 3E 58 10 62 3F 5B 22 D1 3F 30 A3 D7 42 48 76 F6
13 03 F0
19totalsize 240
44 9F 19 9A 42 D1 99 9A 44 47 E6 66 00 00 00 AE FF FF 47 00 00 00 00 00 00 00 00 00 00 00 00 00 00 00 00 00 00 00 00 00 43 0F 33 33 3E CC CC CD 43 00 00 00 00 00 00 00 41 66 66 66 43 CA 00 00 42 8F 33 33 43 1D 99 9A 00 00 00 00 43 2E 66 66 44 5A CC CD 42 BC 00 00 43 F7 66 66 00 00 00 00 43 8F 00 00 00 00 00 00 00 00 00 00 00 00 00 00 00 00 00 00 00 00 00 00 40 80 00 00 00 00 00 00 40 4C CC CD 00 00 00 00 3F 4C CC CD 44 1A 99 9A 42 C4 00 00 43 85 66 66 00 00 00 00 43 7D 33 33 44 DC A6 66 42 DB 33 33 44 8E CC CD 00 00 00 00 44 00 4C CD 00 00 00 00 00 00 00 00 00 00 00 00 00 00 00 00 00 00 00 00 42 5E 66 66 3E CC CC CD 42 21 99 9A 00 00 00 00 41 60 00 00 43 FE 00 00 42 B6 66 66 43 3F 99 9A 00 00 00 00 43 60 E1 AC
write:1C 03 00 38 00 34 C6 5D
write:15 03 00 38 00 34 C6 C4
write:13 03 01 0F 00 08 76 81
write:18 03 07 CF 00 78 76 AA
write:1C 03 07 CF 00 78 77 2E
write:15 03 07 CF 00 78 77 B7
write:14 03 00 38 00 34 C7 15
write:18 03 01 0F 00 08 77 FA
write:1C 03 01 0F 00 08 76 7E
write:15 03 01 0F 00 08 76 E7
write:14 03 07 CF 00 78 76 66
write:19 03 00 38 00 34 C6 08
write:1D 03 00 38 00 34 C7 8C
write:16 03 00 38 00 34 C6 F7
write:14 03 01 0F 00 08 77 36
write:19 03 07 CF 00 78 77 7B
write:1D 03 07 CF 00 78 76 FF
write:16 03 07 CF 00 78 77 84
write:15 03 00 38 00 34 C6 C4
write:19 03 01 0F 00 08 76 2B
write:1D 03 01 0F 00 08 77 AF
write:16 03 01 0F 00 08 76 D4
write:15 03 07 CF 00 78 77 B7
write:1A 03 00 38 00 34 C6 3B
write:1E 03 00 38 00 34 C7 BF
write:17 03 00 38 00 34 C7 26
write:15 03 01 0F 00 08 76 E7
write:1A 03 07 CF 00 78 77 48
write:1E 03 07 CF 00 78 76 CC
77 77 77
heart:77 77 77 2E 75 73 72 2E 63 6E

err2222: EOF
write:17 03 07 CF 00 78 76 55
write:16 03 00 38 00 34 C6 F7
write err: write tcp 172.16.246.153:6002->124.160.213.149:44583: use of closed network connection
write:1A 03 01 0F 00 08 76 18
received messag ?->? 
 124.160.213.149:44587 172.16.246.153:6002
write:12 03 00 38 00 34 C7 73
FD F8 FF
heart:FD F8 FF A2 EE FF FF FE F3 FF FC 76 77 FF 18 7F F1 CE EF BE 43 CF 05 E3 43 CE FA E1 41 0C 28 F6 40 D9 99 9A 41 50 FD F7 EF FD 00 00 44 70 00 00 44 AA 00 00 45 66 00 00 43 A0 00 F9 FF FF 68 00 43 8C 00 00 44 5C 00 00 45 02 00 00 44 CD 00 00 45 07 00 00 45 6D 80 00 3F 24 5A 1D 3F 1A 1C AC 3F 20 C4 9C 3F 78 D4 FE 42 48 FC 30
FB FF EF
heart:FB FF EF F7 C4 FA FC FF CE E6 FD FF F3 E5 FE FF FF CC 00 8E 18 FB F1 ED FF C4 EB FF FF FA ED FF ED BE 53 FF 9A 7D FF CE D9 9A 43 CF 05 E3 43 CE E4 9C 00 00 00 00 3F 85 1E B8 3F 57 0A 3D 42 A0 00 00 43 20 00 00 43 20 00 00 43 C8 00 00 00 00 00 00 42 F0 00 00 42 F0 00 00 00 00 00 00 42 A0 00 00 43 70 00 00 43 48 00 00 43 C8 00 00 3F 6D 91 68 3F 25 E3 54 3F 46 24 DD 3F 80 00 00 42 48 D2 DA 17 03 F0 00 00 44 9A F3 33 43 5C
1A 03 10
2600 02 87 4E 00 00 00 00 00 00 3D F8 00 00 9B 3C
43 6E 5E 77
238.369
43 6E 6E 98
238.432
43 6E BE B8
238.745
43 CE 6A C1
412.834
43 CE 97 0A
413.18
43 CE 8C 08
413.094
00 00 00 00
0
40 21 47 AE
2.52
40 5E B8 52
3.48
00 00 00 00
0
43 B4 00 00
360
43 F0 00 00
480
44 52 00 00
840
43 B4 00 00
360
00 00 00 00
0
00 00 00 00
0
00 00 00 00
0
00 00 00 00
0
00 00 00 00
0
00 00 00 00
0
00 00 00 00
0
00 00 00 00
0
00 00 00 00
0
00 00 00 00
0
00 00 00 00
0
00 00 00 00
0
44 DD B3 33
1773.6
43 39 66 66
185.4
44 7A 33 33
1000.8
00 00 00 00
0
44 12 B3 33
586.8
00 00 00 00
0
00 00 00 00
0
00 00 00 00
0
00 00 00 00
0
00 00 00 00
0
42 97 33 33
75.6
40 99 99 9A
4.8
42 1C 00 00
39
00 00 00 00
0
41 F9 99 9A
31.2
44 51 40 00
837
43 07 99 9A
135.6
43 B4 99 9A
361.2
00 00 00 00
0
43 A9 CC CD
339.6
44 AC E0 00
1383
43 0E CC CD
142.8
44 4A 33 33
808.8
00 00 00 00
0
43 D7 19 9A
430.2
00 00 00 00
0
00 00 00 00
0
00 00 00 00
0
00 00 00 00
0
00 00 00 00
0
40 C0 00 00
6
3F E6 66 66
1.8
40 19 99 9A
2.4
00 00 00 00
0
3F 99 99 9A
1.2
44 70 00 00
960
43 11 33 33
145.2
43 D5 4C CD
426.6
00 00 00 00
0
43 C1 CC CD
387.6
44 E4 00 00
1824
42 EE CC CD
119.4
44 94 20 00
1185
00 00 00 00
0
44 01 E6 66
519.6
00 00 00 00
0
00 00 00 00
0
00 00 00 00
0
00 00 00 00
0
00 00 00 00
0
42 0B 33 33
34.8
00 00 00 00
0
41 D3 33 33
26.4
00 00 00 00
0
41 06 66 66
8.4
44 3E F3 33
763.8
42 F7 33 33
123.6
43 9F E6 66
319.8
00 00 00 00
0
43 9F 3E 71
318.48782
00 02 87 4E
165710
00 00 00 00
0
00 00 3D F8
15864
00 00 9B 3C
39740
238.369238.432238.745412.834413.18413.09402.523.4803604808403600000000000001773.6185.41000.80586.80000075.64.839031.2837135.6361.20339.61383142.8808.80430.20000061.82.401.2960145.2426.60387.61824119.411850519.60000034.8026.408.4763.8123.6319.80318.487822620171125010131165.71015.86439.74insert into tbl_power_info_v2(P_A_DIANYA,P_B_DIANYA,P_C_DIANYA,P_UAB_XIANDIANYA,P_UBC_XIANDIANYA,P_UCA_XIANDIANYA,P_A_DIANLIU,P_B_DIANLIU,P_C_DIANLIU,P_A_YGGL,P_B_YGGL,P_C_YGGL,P_HXYGGL,P_A_WGGL,P_B_WGGL,P_C_WGGL,P_HXWGGL,P_A_SZGL,P_B_SZGL,P_C_SZGL,P_HXSZGL,P_A_GLYS,P_B_GLYS,P_C_GLYS,P_HXGLYS,P_DWPL,P_BY_KwhZ,P_BY_KwhJ,P_BY_KwhF,P_BY_KwhP,P_BY_KwhG,P_BY_HKwhZ,P_BY_HKwhJ,P_BY_HKwhF,P_BY_HKwhP,P_BY_HKwhG, P_BY_KvarhZ,P_BY_KvarhJ,P_BY_KvarhF,P_BY_KvarhP,P_BY_KvarhG, P_BY_HKvarhZ,P_BY_HKvarhJ,P_BY_HKvarhF,P_BY_HKvarhP,P_BY_HKvarhG, P_SY_KwhZ,P_SY_KwhJ,P_SY_KwhF,P_SY_KwhP,P_SY_KwhG, P_SY_HKwhZ,P_SY_HKwhJ,P_SY_HKwhF,P_SY_HKwhP,P_SY_HKwhG, P_SY_KvarhZ,P_SY_KvarhJ,P_SY_KvarhF,P_SY_KvarhP,P_SY_KvarhG, P_SY_HKvarhZ,P_SY_HKvarhJ,P_SY_HKvarhF,P_SY_HKvarhP,P_SY_HKvarhG, P_SSY_KwhZ,P_SSY_KwhJ,P_SSY_KwhF,P_SSY_KwhP,P_SSY_KwhG, P_SSY_HKwhZ,P_SSY_HKwhJ,P_SSY_HKwhF,P_SSY_HKwhP,P_SSY_HKwhG, P_SSY_KvarhZ,P_SSY_KvarhJ,P_SSY_KvarhF,P_SSY_KvarhP,P_SSY_KvarhG, P_SSY_HKvarhZ,P_SSY_HKvarhJ,P_SSY_HKvarhF,P_SSY_HKvarhP,P_SSY_HKvarhG,P_CODE,P_TIME,P_ZXYGDN,P_FXYGDN,P_ZXWGDN,P_FXWGDN)values(238.369,238.432,238.745,412.834,413.18,413.094,0,2.52,3.48,0,360,480,840,360,0,0,0,0,0,0,0,0,0,0,0,0,1773.6,185.4,1000.8,0,586.8,0,0,0,0,0,75.6,4.8,39,0,31.2,837,135.6,361.2,0,339.6,1383,142.8,808.8,0,430.2,0,0,0,0,0,6,1.8,2.4,0,1.2,960,145.2,426.6,0,387.6,1824,119.4,1185,0,519.6,0,0,0,0,0,34.8,0,26.4,0,8.4,763.8,123.6,319.8,0,318.48782,26,20171125010131,165.71,0,15.864,39.74)
写入成功读取完毕一个
33 33 44
heart:33 33 44 4A 4C CD 00 00 00 00 43 52 00 00 00 00 00 00 00 00 00 00 00 00 00 00 00 00 00 00 00 00 00 00 42 02 66 66 40 4C CC CD 41 C8 00 00 00 00 00 00 40 86 66 66 42 59 99 9A 41 40 00 00 41 B3 33 33 00 00 00 00 41 9E 66 66 44 AC 0C CD 43 8E E6 66 44 54 80 00 00 00 00 00 43 70 33 33 00 00 00 00 00 00 00 00 00 00 00 00 00 00 00 00 00 00 00 00 41 16 66 66 3E CC CC CD 40 D9 99 9A 00 00 00 00 3F E6 66 66 42 D5 33 33 41 BB 33 33 42 46 66 66 00 00 00 00 42 05 99 9A 44 EF 33 33 43 86 66 66 44 9D 8C CD 00 00 00 00 43 C0 19 9A 00 00 00 00 00 00 00 00 00 00 00 00 00 00 00 00 00 00 00 00 41 66 66 66 3F 19 99 9A 41 20 00 00 00 00 00 00 40 73 33 33 42 8D 99 9A 41 56 66 66 41 F6 66 66 00 00 00 00 41 D3 07 BA 12 03 68 00 00 43 6E D6 04 43 6F 35 3F 43 6F 53 33 43 CE FA E1 43 CF 32 4E 43 CF 05 E3 43 26 70 A4 43 04 99 9A 43 18 E1 48 47 0E F8 00 46 D5 C0 00 47 04 30 00 47 BF 40 00 45 F3 C0 00 45 96 00 00 45 96 00 00 46 87 F0 00 47 1B 28 00 46 F7 80 00 47 0E F8 00 47 C2 4C 00 3F 6C 08 31 3F 5D 2F 1B 3F 6D 0E 56 3F 7C 28 F6 42 48 8B A4
write:1E 03 01 0F 00 08 77 9C
write:17 03 01 0F 00 08 77 05
write:1B 03 00 38 00 34 C7 EA
write:12 03 07 CF 00 78 76 00
write:1F 03 00 38 00 34 C6 6E
write:18 03 00 38 00 34 C7 D9
write:1B 03 07 CF 00 78 76 99
write:12 03 01 0F 00 08 77 50
77 77 77
heart:77 77 77 2E 75 73 72 2E 63 6E
12 03 F0
18totalsize 240
47 8A F5 1A 46 30 3B 33 47 02 8B 66 00 00 00 00 46 CE 9E CD 00 00 00 00 00 00 00 00 00 00 00 00 00 00 00 00 00 00 00 00 46 83 00 66 45 1E 19 9A 46 08 CC CD 00 00 00 00 45 AB 56 66 00 00 00 00 00 00 00 00 00 00 00 00 00 00 00 00 00 00 00 00 47 A9 B7 80 46 5C 9F 33 47 22 D6 CD 00 00 00 00 46 F2 DF 9A 00 00 00 A3 1B 00 03 0E 00 01 43 6F 28 34 E8 00 FB EE E6 FF 00 00 42 BE 60 07 FF C8 21 1B 95 7B B9 1C 9A 29 00 02 03 03 00 00 00 00 00 3F E0 01 02 08 01 70 00 00 00 00 00 00 00 00 00 00 00 04 00 00 00 43 10 00 00 00 47 02 04 40 00 01 00 FF 22 00 FF 00 43 77 23 0E 00 00 00 46 00 08 00 00 00 00 00 00 3F 21 0A 01 00 00 00 00 00 3E F3 00 FE 1F FE 00 00 00 3F FF 40 76 B0 66 45 65 46 66 45 FB B3 33 00 00 00 00 45 E8 7B 33
00 00 00
heart:00 00 00 00 00 00 00 00 00 00 00 00 00 00 00 00 00 00 A7 1F
12 03 10
1800 40 8A C8 00 00 00 00 00 13 E3 18 00 00 64 5B
43 6E 9F 3B
238.622
43 6E 99 58
238.599
43 6F 02 0C
239.008
43 CE 97 0A
413.18
43 CE C3 75
413.527
43 CE CE 77
413.613
43 36 E1 48
182.88
43 3B 51 EC
187.32
43 2F 14 7B
175.08
47 1C 90 00
40080
47 1F 60 00
40800
47 16 78 00
38520
47 E9 70 00
119520
46 32 20 00
11400
46 1B A0 00
9960
46 17 E0 00
9720
46 F2 D0 00
31080
47 2A A0 00
43680
47 2E 60 00
44640
47 23 98 00
41880
47 F1 2C 00
123480
3F 6B 43 96
0.919
3F 69 FB E7
0.914
3F 6B C6 A8
0.921
3F 77 CE D9
0.968
42 47 AE CF
49.92071
47 8A F5 1A
71146.2
46 30 3B 33
11278.8
47 02 8B 66
33419.4
00 00 00 00
0
46 CE 9E CD
26447.4
00 00 00 00
0
00 00 00 00
0
00 00 00 00
0
00 00 00 00
0
00 00 00 00
0
46 83 00 66
16768.2
45 1E 19 9A
2529.6
46 08 CC CD
8755.2
00 00 00 00
0
45 AB 56 66
5482.8
00 00 00 00
0
00 00 00 00
0
00 00 00 00
0
00 00 00 00
0
00 00 00 00
0
47 A9 B7 80
86895
46 5C 9F 33
14119.8
47 22 D6 CD
41686.8
00 00 00 00
0
46 F2 DF 9A
31087.8
00 00 00 A3
2.28e-43
1B 00 03 0E
1.0588899e-22
00 01 43 6F
1.16026e-40
28 34 E8 00
1.0042314e-14
FB EE E6 FF
-2.4809036e+36
00 00 42 BE
2.3943e-41
60 07 FF C8
3.9199085e+19
21 1B 95 7B
5.271388e-19
B9 1C 9A 29
-0.00014934748
00 02 03 03
1.84751e-40
00 00 00 00
0
00 3F E0 01
5.865994e-39
02 08 01 70
9.992115e-38
00 00 00 00
0
00 00 00 00
0
00 00 00 04
6e-45
00 00 00 43
9.4e-44
10 00 00 00
2.524355e-29
47 02 04 40
33284.25
00 01 00 FF
9.2193e-41
22 00 FF 00
1.748223e-18
43 77 23 0E
247.13693
00 00 00 46
9.8e-44
00 08 00 00
7.34684e-40
00 00 00 00
0
3F 21 0A 01
0.6290589
00 00 00 00
0
00 3E F3 00
5.780973e-39
FE 1F FE 00
-5.3166524e+37
00 00 3F FF
2.2957e-41
40 76 B0 66
3.8545165
45 65 46 66
3668.4
45 FB B3 33
8054.4
00 00 00 00
0
45 E8 7B 33
7439.4
00 40 8A C8
4229832
00 00 00 00
0
00 13 E3 18
1303320
00 00 64 5B
25691
238.622238.599239.008413.18413.527413.613182.88187.32175.084008040800385201195201140099609720310804368044640418801234800.9190.9140.9210.96849.9207171146.211278.833419.4026447.40000016768.22529.68755.205482.8000008689514119.841686.8031087.82.28e-431.0588899e-221.16026e-401.0042314e-14-2.4809036e+362.3943e-413.9199085e+195.271388e-19-0.000149347481.84751e-4005.865994e-399.992115e-38006e-459.4e-442.524355e-2933284.259.2193e-411.748223e-18247.136939.8e-447.34684e-4000.629058905.780973e-39-5.3166524e+372.2957e-413.85451653668.48054.407439.418201711250102114229.83201303.3225.691insert into tbl_power_info_v2(P_A_DIANYA,P_B_DIANYA,P_C_DIANYA,P_UAB_XIANDIANYA,P_UBC_XIANDIANYA,P_UCA_XIANDIANYA,P_A_DIANLIU,P_B_DIANLIU,P_C_DIANLIU,P_A_YGGL,P_B_YGGL,P_C_YGGL,P_HXYGGL,P_A_WGGL,P_B_WGGL,P_C_WGGL,P_HXWGGL,P_A_SZGL,P_B_SZGL,P_C_SZGL,P_HXSZGL,P_A_GLYS,P_B_GLYS,P_C_GLYS,P_HXGLYS,P_DWPL,P_BY_KwhZ,P_BY_KwhJ,P_BY_KwhF,P_BY_KwhP,P_BY_KwhG,P_BY_HKwhZ,P_BY_HKwhJ,P_BY_HKwhF,P_BY_HKwhP,P_BY_HKwhG, P_BY_KvarhZ,P_BY_KvarhJ,P_BY_KvarhF,P_BY_KvarhP,P_BY_KvarhG, P_BY_HKvarhZ,P_BY_HKvarhJ,P_BY_HKvarhF,P_BY_HKvarhP,P_BY_HKvarhG, P_SY_KwhZ,P_SY_KwhJ,P_SY_KwhF,P_SY_KwhP,P_SY_KwhG, P_SY_HKwhZ,P_SY_HKwhJ,P_SY_HKwhF,P_SY_HKwhP,P_SY_HKwhG, P_SY_KvarhZ,P_SY_KvarhJ,P_SY_KvarhF,P_SY_KvarhP,P_SY_KvarhG, P_SY_HKvarhZ,P_SY_HKvarhJ,P_SY_HKvarhF,P_SY_HKvarhP,P_SY_HKvarhG, P_SSY_KwhZ,P_SSY_KwhJ,P_SSY_KwhF,P_SSY_KwhP,P_SSY_KwhG, P_SSY_HKwhZ,P_SSY_HKwhJ,P_SSY_HKwhF,P_SSY_HKwhP,P_SSY_HKwhG, P_SSY_KvarhZ,P_SSY_KvarhJ,P_SSY_KvarhF,P_SSY_KvarhP,P_SSY_KvarhG, P_SSY_HKvarhZ,P_SSY_HKvarhJ,P_SSY_HKvarhF,P_SSY_HKvarhP,P_SSY_HKvarhG,P_CODE,P_TIME,P_ZXYGDN,P_FXYGDN,P_ZXWGDN,P_FXWGDN)values(238.622,238.599,239.008,413.18,413.527,413.613,182.88,187.32,175.08,40080,40800,38520,119520,11400,9960,9720,31080,43680,44640,41880,123480,0.919,0.914,0.921,0.968,49.92071,71146.2,11278.8,33419.4,0,26447.4,0,0,0,0,0,16768.2,2529.6,8755.2,0,5482.8,0,0,0,0,0,86895,14119.8,41686.8,0,31087.8,2.28e-43,1.0588899e-22,1.16026e-40,1.0042314e-14,-2.4809036e+36,2.3943e-41,3.9199085e+19,5.271388e-19,-0.00014934748,1.84751e-40,0,5.865994e-39,9.992115e-38,0,0,6e-45,9.4e-44,2.524355e-29,33284.25,9.2193e-41,1.748223e-18,247.13693,9.8e-44,7.34684e-40,0,0.6290589,0,5.780973e-39,-5.3166524e+37,2.2957e-41,3.8545165,3668.4,8054.4,0,7439.4,18,20171125010211,4229.832,0,1303.32,25.691)
写入成功读取完毕一个
1B 03 F0
27totalsize 240
45 0F B3 33 41 CE 66 66 44 DE E6 66 00 00 00 00 43 F4 CC CD 00 00 00 00 00 00 00 00 00 00 00 00 00 00 00 00 00 00 00 00 44 31 26 66 41 90 00 00 43 F8 B3 33 00 00 00 00 43 40 99 9A 00 00 00 00 00 00 00 00 00 00 00 00 00 00 00 00 00 00 00 00 45 10 D3 33 41 F9 99 9A 44 E5 33 33 00 00 00 00 43 E1 E6 66 00 00 00 00 00 00 00 00 00 00 00 00 00 00 00 00 00 00 00 00 44 24 40 00 41 86 66 66 43 E5 CC CD 00 00 00 00 43 34 99 9A 00 00 00 00 00 00 00 00 00 00 00 00 00 00 00 00 00 00 00 00 45 1D 76 66 42 4E 66 66 44 F5 19 9A 00 00 00 00 43 FD 33 33 00 00 00 00 00 00 00 00 00 00 00 00 00 00 00 00 00 00 00 00 44 73 99 9A 42 34 00 00 44 1E 8C CD 00 00 00 00 43 93 4C CD 00 00 00 00 00 00 00 00 00 00 00 00 00 00 00 00 00 00 43 3A
7E EF F7
heart:7E EF F7 B4 00 03 E7 E4 00 00 00 00 00 00 E7 64 00 00 EF 7C
write:1F 03 07 CF 00 78 77 1D
write:18 03 07 CF 00 78 76 AA
write:1B 03 01 0F 00 08 77 C9
write:13 03 00 38 00 34 C6 A2
write:1F 03 01 0F 00 08 76 4D
write:18 03 01 0F 00 08 77 FA
write:1C 03 00 38 00 34 C6 5D
write:13 03 07 CF 00 78 77 D1
write:20 03 00 38 00 34 C3 61
18 03 F0
24write:19 03 00 38 00 34 C6 08
write:1C 03 07 CF 00 78 77 2E
write:13 03 01 0F 00 08 76 81
write:20 03 07 CF 00 78 72 12
write:19 03 07 CF 00 78 77 7B
write:1C 03 01 0F 00 08 76 7E
write:14 03 00 38 00 34 C7 15
write:20 03 01 0F 00 08 73 42
write:19 03 01 0F 00 08 76 2B
write:1D 03 00 38 00 34 C7 8C
write:14 03 07 CF 00 78 76 66
write:12 03 00 38 00 34 C7 73
write:1A 03 00 38 00 34 C6 3B
write:1D 03 07 CF 00 78 76 FF
write:14 03 01 0F 00 08 77 36
write:12 03 07 CF 00 78 76 00
write:1A 03 07 CF 00 78 77 48
write:1D 03 01 0F 00 08 77 AF
write:15 03 00 38 00 34 C6 C4
totalsize 479
44 5E 66 66 43 54 33 33 43 F2 99 9A 00 00 00 00 43 40 BF DE EF C3 00 00 00 00 00 00 00 00 00 00 00 00 00 00 00 00 00 97 FF EC 00 41 DE 66 66 42 D4 00 00 00 00 00 00 42 34 00 00 41 D3 33 33 40 F3 33 33 41 73 33 33 00 00 00 00 40 66 66 66 44 19 99 9A 43 00 00 00 43 A7 CC CD 00 00 00 00 43 16 99 9A 00 00 00 00 00 00 00 00 00 00 00 00 00 00 00 00 00 00 00 00 42 45 99 9A 3F 80 00 00 42 09 99 9A 00 00 00 00 41 60 00 00 42 0A 66 66 41 00 00 00 41 AC CC CD 00 00 00 00 40 99 99 9A 44 3F E6 66 43 0C 33 33 43 D9 E6 66 00 00 00 00 43 3F 66 66 00 00 00 00 00 00 00 00 00 00 00 00 00 00 00 00 00 00 00 00 43 A3 99 9A 41 A8 00 00 43 6C 99 9A 00 00 00 00 42 8A CC CD 42 1B 33 33 41 23 33 33 41 A6 66 66 00 00 00 00 40 F9 16 35 13 03 F0 00 00 44 9F 19 9A 42 D1 99 9A 44 47 E6 66 00 00 00 00 43 B8 00 00 00 00 00 00 00 00 00 00 00 00 00 00 00 00 00 00 00 00 00 00 43 0F 33 33 3E CC CC CD 43 00 00 00 00 00 00 00 41 66 66 66 43 CA 00 00 42 8F 33 33 43 1D 99 9A 00 00 00 00 43 2E 66 66 44 5A CC CD 42 BC 00 00 43 F7 66 66 00 00 00 00 43 8F 00 00 00 00 00 00 00 00 00 00 00 00 00 00 00 00 00 00 00 00 00 00 40 80 00 00 00 00 00 00 40 4C CC CD 00 00 00 00 3F 4C CC CD 44 1A 99 9A 42 C4 00 00 43 85 66 66 00 00 00 00 43 7D 33 33 44 DC A6 66 42 DB 33 33 44 8E CC CD 00 00 00 00 44 00 4C CD 00 00 00 00 00 00 00 00 00 00 00 00 00 00 00 00 00 00 00 00 42 5E 66 66 3E CC CC CD 42 21 99 9A 00 00 00 00 41 60 00 00 43 FE 00 00 42 B6 66 66 43 3F 99 9A 00 00 00
00 43 60
heart:00 43 60 E1 AC 77 77 77 2E 75 73 72 2E 63 6E
received messag ?->? 
 124.160.213.149:44588 172.16.246.153:6002
write:12 03 00 38 00 34 C7 73

err2222: EOF
77 77 77
heart:77 77 77 2E 75 73 72 2E 63 6E
FB FF EF
heart:FB FF EF F7 BC 00 02 01 A7 00 00 00 00 00 00 C6 15 00 00 30 BC 12 03 68 00 00 43 6E F8 93 43 6F 41 48 43 6F 8D 91 43 CF 05 E3 43 CF 48 73 43 CF 27 2B 43 37 1E B8 43 17 CC CD 43 0A F5 C3 47 21 40 00 46 FF F0 00 46 EC 40 00 47 CB AC 00 45 E8 80 00 45 A1 40 00 45 92 40 00 46 87 00 00 47 2B 18 00 47 0E 08 00 47 01 D8 00 47 CE 7C 00 3F 71 26 E9 3F 66 E9 79 3F 68 F5 C3 3F 7C AC 08 42 48 FF FD
FF F8 FF
heart:FF F8 FF 44 47 6E FF 3B 43 6F 46 E9 43 6F 88 31 43 CF 05 E3 43 CF 48 73 43 CF 27 2B 00 00 00 00 40 21 47 AE 40 5E B8 52 00 00 19 10 00 00 00 00 13 FF F0 00 00 00 00 3F 01 00 00 10 4F D0 00 0F 30 FF F0 00 00 44 16 00 00 44 B4 00 00 43 B4 00 00 44 16 00 00 44 52 00 00 44 D2 00 00 3E 23 D7 0A 3F 13 33 33 3F 04 9B A6 3F 00 00 00 42 48 5C 8D
write:12 03 01 0F 00 08 77 50
write:1A 03 01 0F 00 08 76 18
write:1E 03 00 38 00 34 C7 BF
write:15 03 07 CF 00 78 77 B7
write err: write tcp 172.16.246.153:6002->124.160.213.149:44587: use of closed network connection
write:12 03 07 CF 00 78 76 00
write:13 03 00 38 00 34 C6 A2
write:1B 03 00 38 00 34 C7 EA
write:1E 03 07 CF 00 78 76 CC
write:12 03 01 0F 00 08 77 50
write:13 03 07 CF 00 78 77 D1
write:1B 03 07 CF 00 78 76 99
write:1E 03 01 0F 00 08 77 9C
write:13 03 00 38 00 34 C6 A2
77 77 77
heart:77 77 77 2E 75 73 72 2E 63 6E
write:13 03 01 0F 00 08 76 81
write:1B 03 01 0F 00 08 77 C9
write:1F 03 00 38 00 34 C6 6E
write:13 03 07 CF 00 78 77 D1
write:14 03 00 38 00 34 C7 15
write:1C 03 00 38 00 34 C6 5D
write:1F 03 07 CF 00 78 77 1D
write:13 03 01 0F 00 08 76 81
write:14 03 07 CF 00 78 76 66
write:1C 03 07 CF 00 78 77 2E
write:1F 03 01 0F 00 08 76 4D
write:14 03 00 38 00 34 C7 15
received messag ?->? 
 124.160.218.175:8088 172.16.246.153:6002
write:12 03 00 38 00 34 C7 73
write:14 03 01 0F 00 08 77 36
write:1C 03 01 0F 00 08 76 7E
write:20 03 00 38 00 34 C3 61
write:14 03 07 CF 00 78 76 66
write:12 03 07 CF 00 78 76 00
77 77 77
heart:77 77 77 2E 75 73 72 2E 63 6E
12 03 68
1843 6E E2 D1 43 6F 5B E7 43 6F 7D 2F 43 CF 05 E3 43 CF 48 73 43 CF 11 06 43 2B 5C 29 43 05 14 7B 43 1A 70 A4 47 13 A8 00 46 D6 B0 00 47 06 10 00 47 C2 C4 00 45 F7 80 00 45 92 40 00 45 96 00 00 46 88 E0 00 47 1F D8 00 46 F8 70 00 47 10 60 00 47 C5 D0 00 3F 6C 8B 44 3F 5D 70 A4 3F 6D D2 F2 3F 7C 28 F6 42 48 42 FC
12 03 F0
18totalsize 240
47 8A F9 9A 46 30 3B 33 47 02 8B 66 00 00 00 00 46 CE B0 CD 00 00 00 00 00 00 00 00 00 00 00 00 00 00 00 00 00 00 00 00 46 83 04 00 45 1E 19 9A 46 08 CC CD 00 00 00 00 45 AB 60 00 00 00 00 00 00 00 00 00 00 00 00 00 00 00 00 00 00 00 00 00 47 A9 B7 80 46 5C 9F 33 47 22 D6 CD 00 00 00 00 46 F2 DF 9A 00 00 00 00 00 00 00 00 00 00 00 00 00 00 00 00 00 00 00 00 46 B2 70 66 45 65 B9 9A 46 3A EB 33 00 00 00 00 45 E1 09 9A 00 00 00 00 00 00 00 00 00 00 00 00 00 00 00 00 00 00 00 00 47 82 8D CD 46 41 63 33 46 D4 77 33 00 00 00 00 46 D5 0E 66 00 00 00 00 00 00 00 00 00 00 00 00 00 00 00 00 00 00 00 00 46 95 B4 66 45 65 46 66 45 FB B3 33 00 00 00 00 45 E8 7B 33 00 00 00 00 00 00 00 00 00 00 00 00 00 00 00 00 00 00 3D 02
write:15 03 00 38 00 34 C6 C4
write:1D 03 00 38 00 34 C7 8C
write:20 03 07 CF 00 78 72 12
write:14 03 01 0F 00 08 77 36
write:12 03 01 0F 00 08 77 50
write:15 03 07 CF 00 78 77 B7
write:1D 03 07 CF 00 78 76 FF
12 03 10
1800 40 8B 1A 00 00 00 00 00 13 E3 27 00 00 0A EF
43 6E E2 D1
238.886
43 6F 5B E7
239.359
43 6F 7D 2F
239.489
43 CF 05 E3
414.046
43 CF 48 73
414.566
43 CF 11 06
414.133
43 2B 5C 29
171.36
43 05 14 7B
133.08
43 1A 70 A4
154.44
47 13 A8 00
37800
46 D6 B0 00
27480
47 06 10 00
34320
47 C2 C4 00
99720
45 F7 80 00
7920
45 92 40 00
4680
45 96 00 00
4800
46 88 E0 00
17520
47 1F D8 00
40920
46 F8 70 00
31800
47 10 60 00
36960
47 C5 D0 00
101280
3F 6C 8B 44
0.924
3F 5D 70 A4
0.865
3F 6D D2 F2
0.929
3F 7C 28 F6
0.985
42 48 42 FC
50.065414
47 8A F9 9A
71155.2
46 30 3B 33
11278.8
47 02 8B 66
33419.4
00 00 00 00
0
46 CE B0 CD
26456.4
00 00 00 00
0
00 00 00 00
0
00 00 00 00
0
00 00 00 00
0
00 00 00 00
0
46 83 04 00
16770
45 1E 19 9A
2529.6
46 08 CC CD
8755.2
00 00 00 00
0
45 AB 60 00
5484
00 00 00 00
0
00 00 00 00
0
00 00 00 00
0
00 00 00 00
0
00 00 00 00
0
47 A9 B7 80
86895
46 5C 9F 33
14119.8
47 22 D6 CD
41686.8
00 00 00 00
0
46 F2 DF 9A
31087.8
00 00 00 00
0
00 00 00 00
0
00 00 00 00
0
00 00 00 00
0
00 00 00 00
0
46 B2 70 66
22840.2
45 65 B9 9A
3675.6
46 3A EB 33
11962.8
00 00 00 00
0
45 E1 09 9A
7201.2
00 00 00 00
0
00 00 00 00
0
00 00 00 00
0
00 00 00 00
0
00 00 00 00
0
47 82 8D CD
66843.6
46 41 63 33
12376.8
46 D4 77 33
27195.6
00 00 00 00
0
46 D5 0E 66
27271.2
00 00 00 00
0
00 00 00 00
0
00 00 00 00
0
00 00 00 00
0
00 00 00 00
0
46 95 B4 66
19162.2
45 65 46 66
3668.4
45 FB B3 33
8054.4
00 00 00 00
0
45 E8 7B 33
7439.4
00 00 00 00
0
00 00 00 00
0
00 00 00 00
0
00 00 00 00
0
00 00 3D 02
2.1885e-41
00 40 8B 1A
4229914
00 00 00 00
0
00 13 E3 27
1303335
00 00 0A EF
2799
238.886239.359239.489414.046414.566414.133171.36133.08154.4437800274803432099720792046804800175204092031800369601012800.9240.8650.9290.98550.06541471155.211278.833419.4026456.400000167702529.68755.205484000008689514119.841686.8031087.80000022840.23675.611962.807201.20000066843.612376.827195.6027271.20000019162.23668.48054.407439.400002.1885e-4118201711250107234229.91401303.3352.799insert into tbl_power_info_v2(P_A_DIANYA,P_B_DIANYA,P_C_DIANYA,P_UAB_XIANDIANYA,P_UBC_XIANDIANYA,P_UCA_XIANDIANYA,P_A_DIANLIU,P_B_DIANLIU,P_C_DIANLIU,P_A_YGGL,P_B_YGGL,P_C_YGGL,P_HXYGGL,P_A_WGGL,P_B_WGGL,P_C_WGGL,P_HXWGGL,P_A_SZGL,P_B_SZGL,P_C_SZGL,P_HXSZGL,P_A_GLYS,P_B_GLYS,P_C_GLYS,P_HXGLYS,P_DWPL,P_BY_KwhZ,P_BY_KwhJ,P_BY_KwhF,P_BY_KwhP,P_BY_KwhG,P_BY_HKwhZ,P_BY_HKwhJ,P_BY_HKwhF,P_BY_HKwhP,P_BY_HKwhG, P_BY_KvarhZ,P_BY_KvarhJ,P_BY_KvarhF,P_BY_KvarhP,P_BY_KvarhG, P_BY_HKvarhZ,P_BY_HKvarhJ,P_BY_HKvarhF,P_BY_HKvarhP,P_BY_HKvarhG, P_SY_KwhZ,P_SY_KwhJ,P_SY_KwhF,P_SY_KwhP,P_SY_KwhG, P_SY_HKwhZ,P_SY_HKwhJ,P_SY_HKwhF,P_SY_HKwhP,P_SY_HKwhG, P_SY_KvarhZ,P_SY_KvarhJ,P_SY_KvarhF,P_SY_KvarhP,P_SY_KvarhG, P_SY_HKvarhZ,P_SY_HKvarhJ,P_SY_HKvarhF,P_SY_HKvarhP,P_SY_HKvarhG, P_SSY_KwhZ,P_SSY_KwhJ,P_SSY_KwhF,P_SSY_KwhP,P_SSY_KwhG, P_SSY_HKwhZ,P_SSY_HKwhJ,P_SSY_HKwhF,P_SSY_HKwhP,P_SSY_HKwhG, P_SSY_KvarhZ,P_SSY_KvarhJ,P_SSY_KvarhF,P_SSY_KvarhP,P_SSY_KvarhG, P_SSY_HKvarhZ,P_SSY_HKvarhJ,P_SSY_HKvarhF,P_SSY_HKvarhP,P_SSY_HKvarhG,P_CODE,P_TIME,P_ZXYGDN,P_FXYGDN,P_ZXWGDN,P_FXWGDN)values(238.886,239.359,239.489,414.046,414.566,414.133,171.36,133.08,154.44,37800,27480,34320,99720,7920,4680,4800,17520,40920,31800,36960,101280,0.924,0.865,0.929,0.985,50.065414,71155.2,11278.8,33419.4,0,26456.4,0,0,0,0,0,16770,2529.6,8755.2,0,5484,0,0,0,0,0,86895,14119.8,41686.8,0,31087.8,0,0,0,0,0,22840.2,3675.6,11962.8,0,7201.2,0,0,0,0,0,66843.6,12376.8,27195.6,0,27271.2,0,0,0,0,0,19162.2,3668.4,8054.4,0,7439.4,0,0,0,0,2.1885e-41,18,20171125010723,4229.914,0,1303.335,2.799)
写入成功读取完毕一个
write:20 03 01 0F 00 08 73 42
write:15 03 00 38 00 34 C6 C4
write:13 03 00 38 00 34 C6 A2
write:15 03 01 0F 00 08 76 E7
write:1D 03 01 0F 00 08 77 AF
write:15 03 07 CF 00 78 77 B7
write:12 03 00 38 00 34 C7 73
write:13 03 07 CF 00 78 77 D1
write:16 03 00 38 00 34 C6 F7
77 77 77
heart:77 77 77 2E 75 73 72 2E 63 6E
13 03 68
1943 6E C7 2B 43 6F 1B E7 43 6F 3D 2F 43 CE E4 9C 43 CF 1C 08 43 CE EF BE 3F C2 8F 5C 3F A3 D7 0A 40 0A 3D 71 43 70 00 00 00 00 00 00 43 C8 00 00 44 34 00 00 43 70 00 00 43 70 00 00 43 70 00 00 44 48 00 00 43 C8 00 00 43 A0 00 00 43 F0 00 00 44 82 00 00 3F 26 A7 F0 3E 5C 28 F6 3F 5B 64 5A 3F 31 26 E9 42 47 20 AE
13 03 F0
19totalsize 240
44 9F 19 9A 42 D1 99 9A 44 47 E6 66 00 00 00 00 43 B8 00 00 00 00 00 00 00 00 00 00 00 00 00 00 00 00 00 00 00 00 00 00 43 0F 33 33 3E CC CC CD 43 00 00 00 00 00 00 00 41 66 66 66 43 CA 33 33 42 8F 33 33 43 1D 99 9A 00 00 00 00 43 2E CC CD 44 5A CC CD 42 BC 00 00 43 F7 66 66 00 00 00 00 43 8F 00 00 00 00 00 00 00 00 00 00 00 00 00 00 00 00 00 00 00 00 00 00 40 80 00 00 00 00 00 00 40 4C CC CD 00 00 00 00 3F 4C CC CD 44 1A 99 9A 42 C4 00 00 43 85 66 66 00 00 00 00 43 7D 33 33 44 DC A6 66 42 DB 33 33 44 8E CC CD 00 00 00 00 44 00 4C CD 00 00 00 00 00 00 00 00 00 00 00 00 00 00 00 00 00 00 00 00 42 5E 66 66 3E CC CC CD 42 21 99 9A 00 00 00 00 41 60 00 00 43 FE 00 00 42 B6 66 66 43 3F 99 9A 00 00 00 00 43 60 87 4A
write:1E 03 00 38 00 34 C7 BF
write:15 03 01 0F 00 08 76 E7
write:12 03 07 CF 00 78 76 00
write:13 03 01 0F 00 08 76 81
write:16 03 07 CF 00 78 77 84
write:1E 03 07 CF 00 78 76 CC
13 03 10
1900 02 93 14 00 00 00 00 00 00 35 3F 00 00 E7 D5
43 6E C7 2B
238.778
43 6F 1B E7
239.109
43 6F 3D 2F
239.239
43 CE E4 9C
413.786
43 CF 1C 08
414.219
43 CE EF BE
413.873
3F C2 8F 5C
1.52
3F A3 D7 0A
1.28
40 0A 3D 71
2.16
43 70 00 00
240
00 00 00 00
0
43 C8 00 00
400
44 34 00 00
720
43 70 00 00
240
43 70 00 00
240
43 70 00 00
240
44 48 00 00
800
43 C8 00 00
400
43 A0 00 00
320
43 F0 00 00
480
44 82 00 00
1040
3F 26 A7 F0
0.651
3E 5C 28 F6
0.215
3F 5B 64 5A
0.857
3F 31 26 E9
0.692
42 47 20 AE
49.781914
44 9F 19 9A
1272.8
42 D1 99 9A
104.8
44 47 E6 66
799.6
00 00 00 00
0
43 B8 00 00
368
00 00 00 00
0
00 00 00 00
0
00 00 00 00
0
00 00 00 00
0
00 00 00 00
0
43 0F 33 33
143.2
3E CC CC CD
0.4
43 00 00 00
128
00 00 00 00
0
41 66 66 66
14.4
43 CA 33 33
404.4
42 8F 33 33
71.6
43 1D 99 9A
157.6
00 00 00 00
0
43 2E CC CD
174.8
44 5A CC CD
875.2
42 BC 00 00
94
43 F7 66 66
494.8
00 00 00 00
0
43 8F 00 00
286
00 00 00 00
0
00 00 00 00
0
00 00 00 00
0
00 00 00 00
0
00 00 00 00
0
40 80 00 00
4
00 00 00 00
0
40 4C CC CD
3.2
00 00 00 00
0
3F 4C CC CD
0.8
44 1A 99 9A
618.4
42 C4 00 00
98
43 85 66 66
266.8
00 00 00 00
0
43 7D 33 33
253.2
44 DC A6 66
1765.2
42 DB 33 33
109.6
44 8E CC CD
1142.4
00 00 00 00
0
44 00 4C CD
513.2
00 00 00 00
0
00 00 00 00
0
00 00 00 00
0
00 00 00 00
0
00 00 00 00
0
42 5E 66 66
55.6
3E CC CC CD
0.4
42 21 99 9A
40.4
00 00 00 00
0
41 60 00 00
14
43 FE 00 00
508
42 B6 66 66
91.2
43 3F 99 9A
191.6
00 00 00 00
0
43 60 87 4A
224.52847
00 02 93 14
168724
00 00 00 00
0
00 00 35 3F
13631
00 00 E7 D5
59349
238.778239.109239.239413.786414.219413.8731.521.282.16240040072024024024080040032048010400.6510.2150.8570.69249.7819141272.8104.8799.6036800000143.20.4128014.4404.471.6157.60174.8875.294494.8028600000403.200.8618.498266.80253.21765.2109.61142.40513.20000055.60.440.401450891.2191.60224.528471920171125010825168.724013.63159.349insert into tbl_power_info_v2(P_A_DIANYA,P_B_DIANYA,P_C_DIANYA,P_UAB_XIANDIANYA,P_UBC_XIANDIANYA,P_UCA_XIANDIANYA,P_A_DIANLIU,P_B_DIANLIU,P_C_DIANLIU,P_A_YGGL,P_B_YGGL,P_C_YGGL,P_HXYGGL,P_A_WGGL,P_B_WGGL,P_C_WGGL,P_HXWGGL,P_A_SZGL,P_B_SZGL,P_C_SZGL,P_HXSZGL,P_A_GLYS,P_B_GLYS,P_C_GLYS,P_HXGLYS,P_DWPL,P_BY_KwhZ,P_BY_KwhJ,P_BY_KwhF,P_BY_KwhP,P_BY_KwhG,P_BY_HKwhZ,P_BY_HKwhJ,P_BY_HKwhF,P_BY_HKwhP,P_BY_HKwhG, P_BY_KvarhZ,P_BY_KvarhJ,P_BY_KvarhF,P_BY_KvarhP,P_BY_KvarhG, P_BY_HKvarhZ,P_BY_HKvarhJ,P_BY_HKvarhF,P_BY_HKvarhP,P_BY_HKvarhG, P_SY_KwhZ,P_SY_KwhJ,P_SY_KwhF,P_SY_KwhP,P_SY_KwhG, P_SY_HKwhZ,P_SY_HKwhJ,P_SY_HKwhF,P_SY_HKwhP,P_SY_HKwhG, P_SY_KvarhZ,P_SY_KvarhJ,P_SY_KvarhF,P_SY_KvarhP,P_SY_KvarhG, P_SY_HKvarhZ,P_SY_HKvarhJ,P_SY_HKvarhF,P_SY_HKvarhP,P_SY_HKvarhG, P_SSY_KwhZ,P_SSY_KwhJ,P_SSY_KwhF,P_SSY_KwhP,P_SSY_KwhG, P_SSY_HKwhZ,P_SSY_HKwhJ,P_SSY_HKwhF,P_SSY_HKwhP,P_SSY_HKwhG, P_SSY_KvarhZ,P_SSY_KvarhJ,P_SSY_KvarhF,P_SSY_KvarhP,P_SSY_KvarhG, P_SSY_HKvarhZ,P_SSY_HKvarhJ,P_SSY_HKvarhF,P_SSY_HKvarhP,P_SSY_HKvarhG,P_CODE,P_TIME,P_ZXYGDN,P_FXYGDN,P_ZXWGDN,P_FXWGDN)values(238.778,239.109,239.239,413.786,414.219,413.873,1.52,1.28,2.16,240,0,400,720,240,240,240,800,400,320,480,1040,0.651,0.215,0.857,0.692,49.781914,1272.8,104.8,799.6,0,368,0,0,0,0,0,143.2,0.4,128,0,14.4,404.4,71.6,157.6,0,174.8,875.2,94,494.8,0,286,0,0,0,0,0,4,0,3.2,0,0.8,618.4,98,266.8,0,253.2,1765.2,109.6,1142.4,0,513.2,0,0,0,0,0,55.6,0.4,40.4,0,14,508,91.2,191.6,0,224.52847,19,20171125010825,168.724,0,13.631,59.349)
写入成功读取完毕一个
write:16 03 00 38 00 34 C6 F7
write:12 03 01 0F 00 08 77 50
write:14 03 00 38 00 34 C7 15
write:16 03 01 0F 00 08 76 D4
write:1E 03 01 0F 00 08 77 9C
write:16 03 07 CF 00 78 77 84
write:13 03 00 38 00 34 C6 A2
write:14 03 07 CF 00 78 76 66
14 03 68
2043 6F 2F 5C 43 6F 73 F8 43 6F B3 B6 43 CF 32 4E 43 CF 74 BC 43 CF 53 96 41 0B 85 1F 40 DA E1 48 41 11 47 AE 44 A5 00 00 44 7A 00 00 44 AA 00 00 45 66 00 00 43 A0 00 00 43 8C 00 00 00 00 00 00 00 00 00 00 00 00 00 00 00 00 00 00 00 00 00 00 00 00 00 00 00 00 00 00 00 00 00 00 00 00 00 00 00 00 00 00 00 00 00 00
write:17 03 00 38 00 34 C7 26
write:1F 03 00 38 00 34 C6 6E
write:16 03 01 0F 00 08 76 D4
write:13 03 07 CF 00 78 77 D1
write:14 03 01 0F 00 08 77 36
00 43 8C
heart:00 43 8C 00 00 44 5C 00 00 45 02 00 00 44 CD 00 00 45 07 00 00 45 6D 80 00 3F 24 5A 1D 3F 19 58 10 3F 21 47 AE 3F 78 D4 FE 42 48 52 A8 14 03 F0 00 00 44 9D F9 9A 43 C7 99 9A 43 90 CC CD 00 00 00 00 44 0F B3 33 00 00 00 00 00 00 00 00 00 00 00 00 00 00 00 00 00 00 00 00 40 0C CC CD 00 00 00 00 40 0C CC CD 00 00 00 00 00 00 00 00 43 92 4C CD 42 BE 66 66 42 7A 66 66 00 00 00 00 43 06 99 9A 44 AC 73 33 43 E0 33 33 43 9A 66 66 00 00 00 00 44 1B 8C CD 00 00 00 00 00 00 00 00 00 00 00 00 00 00 00 00 00 00 00 00 40 99 99 9A 00 00 00 00 40 93 33 33 00 00 00 00 00 00 00 00 43 9B 80 00 42 D2 66 66 42 76 66 66 00 00 00 00 43 10 00 00 44 A4 D9 9A 43 ED 99 9A 43 78 66 66 00 00 00 00 44 14 C0 00 00 00 00 00 00 00 00 00 00 00 00 00 00 00 00 00 00 00 00 00 3F 4C CC CD 00 00 00 00 3F 4C CC CD 00 00 00 00 00 00 00 00 43 8C 66 66 42 D1 33 33 42 3B 33 33 00 00 00 00 43 01 7B 79
14 03 10
2000 04 18 C2 00 00 00 00 00 00 13 51 00 00 60 1C
43 6F 2F 5C
239.185
43 6F 73 F8
239.453
43 6F B3 B6
239.702
43 CF 32 4E
414.393
43 CF 74 BC
414.912
43 CF 53 96
414.653
41 0B 85 1F
8.72
40 DA E1 48
6.84
41 11 47 AE
9.08
44 A5 00 00
1320
44 7A 00 00
1000
44 AA 00 00
1360
45 66 00 00
3680
43 A0 00 00
320
43 8C 00 00
280
00 00 00 00
0
00 00 00 00
0
00 00 00 00
0
00 00 00 00
0
00 00 00 00
0
00 00 00 00
0
00 00 00 00
0
00 00 00 00
0
00 00 00 00
0
00 00 00 00
0
00 00 00 00
0
44 9D D9 9A
1262.8
43 C7 99 9A
399.2
43 90 CC CD
289.6
00 00 00 00
0
44 0F 80 00
574
00 00 00 00
0
00 00 00 00
0
00 00 00 00
0
00 00 00 00
0
00 00 00 00
0
40 0C CC CD
2.2
00 00 00 00
0
40 0C CC CD
2.2
00 00 00 00
0
00 00 00 00
0
43 92 33 33
292.4
42 BE 66 66
95.2
42 7A 66 66
62.6
00 00 00 00
0
43 06 66 66
134.4
44 AC 73 33
1379.6
43 E0 33 33
448.4
43 9A 66 66
308.8
00 00 00 00
0
44 1B 8C CD
622.2
00 00 00 00
0
00 00 00 00
0
00 00 00 00
0
00 00 00 00
0
00 00 00 00
0
40 99 99 9A
4.8
00 00 00 00
0
40 93 33 33
4.6
00 00 00 00
0
00 00 00 00
0
43 9B 80 00
311
42 D2 66 66
105.2
42 76 66 66
61.6
00 00 00 00
0
43 10 00 00
144
44 A4 D9 9A
1318.8
43 ED 99 9A
475.2
43 78 66 66
248.4
00 00 00 00
0
44 14 C0 00
595
00 00 00 00
0
00 00 00 00
0
00 00 00 00
0
00 00 00 00
0
00 00 00 00
0
3F 4C CC CD
0.8
00 00 00 00
0
3F 4C CC CD
0.8
00 00 00 00
0
00 00 00 00
0
43 8C 66 66
280.8
42 D1 33 33
104.6
42 3B 33 33
46.8
00 00 00 00
0
43 01 64 37
129.39146
00 04 18 C2
268482
00 00 00 00
0
00 00 13 51
4945
00 00 60 1C
24604
239.185239.453239.702414.393414.912414.6538.726.849.081320100013603680320280000000000001262.8399.2289.60574000002.202.200292.495.262.60134.41379.6448.4308.80622.2000004.804.600311105.261.601441318.8475.2248.40595000000.800.800280.8104.646.80129.391462020171125010920268.48204.94524.604insert into tbl_power_info_v2(P_A_DIANYA,P_B_DIANYA,P_C_DIANYA,P_UAB_XIANDIANYA,P_UBC_XIANDIANYA,P_UCA_XIANDIANYA,P_A_DIANLIU,P_B_DIANLIU,P_C_DIANLIU,P_A_YGGL,P_B_YGGL,P_C_YGGL,P_HXYGGL,P_A_WGGL,P_B_WGGL,P_C_WGGL,P_HXWGGL,P_A_SZGL,P_B_SZGL,P_C_SZGL,P_HXSZGL,P_A_GLYS,P_B_GLYS,P_C_GLYS,P_HXGLYS,P_DWPL,P_BY_KwhZ,P_BY_KwhJ,P_BY_KwhF,P_BY_KwhP,P_BY_KwhG,P_BY_HKwhZ,P_BY_HKwhJ,P_BY_HKwhF,P_BY_HKwhP,P_BY_HKwhG, P_BY_KvarhZ,P_BY_KvarhJ,P_BY_KvarhF,P_BY_KvarhP,P_BY_KvarhG, P_BY_HKvarhZ,P_BY_HKvarhJ,P_BY_HKvarhF,P_BY_HKvarhP,P_BY_HKvarhG, P_SY_KwhZ,P_SY_KwhJ,P_SY_KwhF,P_SY_KwhP,P_SY_KwhG, P_SY_HKwhZ,P_SY_HKwhJ,P_SY_HKwhF,P_SY_HKwhP,P_SY_HKwhG, P_SY_KvarhZ,P_SY_KvarhJ,P_SY_KvarhF,P_SY_KvarhP,P_SY_KvarhG, P_SY_HKvarhZ,P_SY_HKvarhJ,P_SY_HKvarhF,P_SY_HKvarhP,P_SY_HKvarhG, P_SSY_KwhZ,P_SSY_KwhJ,P_SSY_KwhF,P_SSY_KwhP,P_SSY_KwhG, P_SSY_HKwhZ,P_SSY_HKwhJ,P_SSY_HKwhF,P_SSY_HKwhP,P_SSY_HKwhG, P_SSY_KvarhZ,P_SSY_KvarhJ,P_SSY_KvarhF,P_SSY_KvarhP,P_SSY_KvarhG, P_SSY_HKvarhZ,P_SSY_HKvarhJ,P_SSY_HKvarhF,P_SSY_HKvarhP,P_SSY_HKvarhG,P_CODE,P_TIME,P_ZXYGDN,P_FXYGDN,P_ZXWGDN,P_FXWGDN)values(239.185,239.453,239.702,414.393,414.912,414.653,8.72,6.84,9.08,1320,1000,1360,3680,320,280,0,0,0,0,0,0,0,0,0,0,0,1262.8,399.2,289.6,0,574,0,0,0,0,0,2.2,0,2.2,0,0,292.4,95.2,62.6,0,134.4,1379.6,448.4,308.8,0,622.2,0,0,0,0,0,4.8,0,4.6,0,0,311,105.2,61.6,0,144,1318.8,475.2,248.4,0,595,0,0,0,0,0,0.8,0,0.8,0,0,280.8,104.6,46.8,0,129.39146,20,20171125010920,268.482,0,4.945,24.604)
写入成功读取完毕一个
write:17 03 07 CF 00 78 76 55
write:1F 03 07 CF 00 78 77 1D
write:17 03 00 38 00 34 C7 26
write:13 03 01 0F 00 08 76 81
write:15 03 00 38 00 34 C6 C4
write:17 03 01 0F 00 08 77 05
write:1F 03 01 0F 00 08 76 4D
write:17 03 07 CF 00 78 76 55
write:14 03 00 38 00 34 C7 15

err2222: read tcp 172.16.246.153:6002->124.160.213.149:43927: read: connection timed out
write:15 03 07 CF 00 78 77 B7
77 77 77
heart:77 77 77 2E 75 73 72 2E 63 6E
15 03 68
2143 6F 26 A8 43 6F 65 60 43 6F A7 6D 43 CF 27 2B 43 CF 5E 98 43 CF 48 73 00 00 00 00 00 00 00 00 00 00 00 00 00 00 00 00 00 00 00 00 00 00 00 00 00 00 00 00 00 00 00 00 00 00 00 00 00 00 00 00 00 00 00 00 00 00 00 00 00 00 00 00 00 00 00 00 00 00 00 00 00 00 00 00 00 00 00 00 00 00 00 00 00 00 00 00 42 48 48 E5
15 03 F0
21totalsize 240
40 CC CC CD 00 00 00 00 40 A6 66 66 00 00 00 00 3F 99 99 9A 00 00 00 00 00 00 00 00 00 00 00 00 00 00 00 00 00 00 00 00 3E CC CC CD 00 00 00 00 3E CC CC CD 00 00 00 00 00 00 00 00 00 00 00 00 00 00 00 00 00 00 00 00 00 00 00 00 00 00 00 00 40 8C CC CD 00 00 00 00 40 66 66 66 00 00 00 00 3F 4C CC CD 00 00 00 00 00 00 00 00 00 00 00 00 00 00 00 00 00 00 00 00 00 00 00 00 00 00 00 00 00 00 00 00 00 00 00 00 00 00 00 00 00 00 00 00 00 00 00 00 00 00 00 00 00 00 00 00 00 00 00 00 42 1E 66 66 00 00 00 00 41 F3 33 33 00 00 00 00 41 13 33 33 00 00 00 00 00 00 00 00 00 00 00 00 00 00 00 00 00 00 00 00 42 D8 00 00 00 00 00 00 42 A3 33 33 00 00 00 00 41 D0 00 00 00 00 00 00 00 00 00 00 00 00 00 00 00 00 00 00 00 00 7F 8C
write:18 03 00 38 00 34 C7 D9
write err: write tcp 172.16.246.153:6002->124.160.213.149:43927: use of closed network connection
write:20 03 00 38 00 34 C3 61
write:17 03 01 0F 00 08 77 05
write:14 03 07 CF 00 78 76 66
write:15 03 01 0F 00 08 76 E7
15 03 10
2100 00 18 94 00 00 00 00 00 00 1D 3D 00 00 8E 18
43 6F 26 A8
239.151
43 6F 65 60
239.396
43 6F A7 6D
239.654
43 CF 27 2B
414.306
43 CF 5E 98
414.739
43 CF 48 73
414.566
00 00 00 00
0
00 00 00 00
0
00 00 00 00
0
00 00 00 00
0
00 00 00 00
0
00 00 00 00
0
00 00 00 00
0
00 00 00 00
0
00 00 00 00
0
00 00 00 00
0
00 00 00 00
0
00 00 00 00
0
00 00 00 00
0
00 00 00 00
0
00 00 00 00
0
00 00 00 00
0
00 00 00 00
0
00 00 00 00
0
00 00 00 00
0
42 48 48 E5
50.071186
40 CC CC CD
6.4
00 00 00 00
0
40 A6 66 66
5.2
00 00 00 00
0
3F 99 99 9A
1.2
00 00 00 00
0
00 00 00 00
0
00 00 00 00
0
00 00 00 00
0
00 00 00 00
0
3E CC CC CD
0.4
00 00 00 00
0
3E CC CC CD
0.4
00 00 00 00
0
00 00 00 00
0
00 00 00 00
0
00 00 00 00
0
00 00 00 00
0
00 00 00 00
0
00 00 00 00
0
40 8C CC CD
4.4
00 00 00 00
0
40 66 66 66
3.6
00 00 00 00
0
3F 4C CC CD
0.8
00 00 00 00
0
00 00 00 00
0
00 00 00 00
0
00 00 00 00
0
00 00 00 00
0
00 00 00 00
0
00 00 00 00
0
00 00 00 00
0
00 00 00 00
0
00 00 00 00
0
00 00 00 00
0
00 00 00 00
0
00 00 00 00
0
00 00 00 00
0
00 00 00 00
0
42 1E 66 66
39.6
00 00 00 00
0
41 F3 33 33
30.4
00 00 00 00
0
41 13 33 33
9.2
00 00 00 00
0
00 00 00 00
0
00 00 00 00
0
00 00 00 00
0
00 00 00 00
0
42 D8 00 00
108
00 00 00 00
0
42 A3 33 33
81.6
00 00 00 00
0
41 D0 00 00
26
00 00 00 00
0
00 00 00 00
0
00 00 00 00
0
00 00 00 00
0
00 00 7F 8C
4.5755e-41
00 00 18 94
6292
00 00 00 00
0
00 00 1D 3D
7485
00 00 8E 18
36376
239.151239.396239.654414.306414.739414.566000000000000000000050.0711866.405.201.2000000.400.400000004.403.600.800000000000000039.6030.409.200000108081.602600004.5755e-4121201711250110186.29207.48536.376insert into tbl_power_info_v2(P_A_DIANYA,P_B_DIANYA,P_C_DIANYA,P_UAB_XIANDIANYA,P_UBC_XIANDIANYA,P_UCA_XIANDIANYA,P_A_DIANLIU,P_B_DIANLIU,P_C_DIANLIU,P_A_YGGL,P_B_YGGL,P_C_YGGL,P_HXYGGL,P_A_WGGL,P_B_WGGL,P_C_WGGL,P_HXWGGL,P_A_SZGL,P_B_SZGL,P_C_SZGL,P_HXSZGL,P_A_GLYS,P_B_GLYS,P_C_GLYS,P_HXGLYS,P_DWPL,P_BY_KwhZ,P_BY_KwhJ,P_BY_KwhF,P_BY_KwhP,P_BY_KwhG,P_BY_HKwhZ,P_BY_HKwhJ,P_BY_HKwhF,P_BY_HKwhP,P_BY_HKwhG, P_BY_KvarhZ,P_BY_KvarhJ,P_BY_KvarhF,P_BY_KvarhP,P_BY_KvarhG, P_BY_HKvarhZ,P_BY_HKvarhJ,P_BY_HKvarhF,P_BY_HKvarhP,P_BY_HKvarhG, P_SY_KwhZ,P_SY_KwhJ,P_SY_KwhF,P_SY_KwhP,P_SY_KwhG, P_SY_HKwhZ,P_SY_HKwhJ,P_SY_HKwhF,P_SY_HKwhP,P_SY_HKwhG, P_SY_KvarhZ,P_SY_KvarhJ,P_SY_KvarhF,P_SY_KvarhP,P_SY_KvarhG, P_SY_HKvarhZ,P_SY_HKvarhJ,P_SY_HKvarhF,P_SY_HKvarhP,P_SY_HKvarhG, P_SSY_KwhZ,P_SSY_KwhJ,P_SSY_KwhF,P_SSY_KwhP,P_SSY_KwhG, P_SSY_HKwhZ,P_SSY_HKwhJ,P_SSY_HKwhF,P_SSY_HKwhP,P_SSY_HKwhG, P_SSY_KvarhZ,P_SSY_KvarhJ,P_SSY_KvarhF,P_SSY_KvarhP,P_SSY_KvarhG, P_SSY_HKvarhZ,P_SSY_HKvarhJ,P_SSY_HKvarhF,P_SSY_HKvarhP,P_SSY_HKvarhG,P_CODE,P_TIME,P_ZXYGDN,P_FXYGDN,P_ZXWGDN,P_FXWGDN)values(239.151,239.396,239.654,414.306,414.739,414.566,0,0,0,0,0,0,0,0,0,0,0,0,0,0,0,0,0,0,0,50.071186,6.4,0,5.2,0,1.2,0,0,0,0,0,0.4,0,0.4,0,0,0,0,0,0,0,4.4,0,3.6,0,0.8,0,0,0,0,0,0,0,0,0,0,0,0,0,0,0,39.6,0,30.4,0,9.2,0,0,0,0,0,108,0,81.6,0,26,0,0,0,0,4.5755e-41,21,20171125011018,6.292,0,7.485,36.376)
写入成功读取完毕一个
write:20 03 07 CF 00 78 72 12
write:18 03 00 38 00 34 C7 D9
write:14 03 01 0F 00 08 77 36
write:16 03 00 38 00 34 C6 F7
write:20 03 01 0F 00 08 73 42
77 77 77
heart:77 77 77 2E 75 73 72 2E 63 6E
write:18 03 07 CF 00 78 76 AA
write:15 03 00 38 00 34 C6 C4
write:16 03 07 CF 00 78 77 84
write:12 03 00 38 00 34 C7 73
write:18 03 01 0F 00 08 77 FA
write:15 03 07 CF 00 78 77 B7
write:16 03 01 0F 00 08 76 D4
77 77 77
heart:77 77 77 2E 75 73 72 2E 63 6E
write:12 03 07 CF 00 78 76 00
write:19 03 00 38 00 34 C6 08
write:15 03 01 0F 00 08 76 E7
write:17 03 00 38 00 34 C7 26
17 03 68
2343 6F 48 73 43 6F 9C EE 43 6F D9 58 43 CF 53 96 43 CF 96 04 43 CF 69 BA 3F 61 47 AE 3F 4C CC CD 00 00 00 00 42 F0 00 00 42 F0 00 00 00 00 00 00 43 70 00 00 42 A0 00 00 42 A0 00 00 00 00 00 00 42 F0 00 00 43 48 00 00 43 48 00 00 00 00 00 00 43 8C 00 00 3E FE 76 C9 3F 36 C8 B4 00 00 00 00 3F 62 D0 E5 42 47 95 C7
write:12 03 01 0F 00 08 77 50
write:19 03 07 CF 00 78 77 7B
write:16 03 00 38 00 34 C6 F7
write:17 03 07 CF 00 78 76 55
write:13 03 00 38 00 34 C6 A2
write:19 03 01 0F 00 08 76 2B
write:16 03 07 CF 00 78 77 84
write:17 03 01 0F 00 08 77 05
77 77 77
heart:77 77 77 2E 75 73 72 2E 63 6E
write:13 03 07 CF 00 78 77 D1
write:1A 03 00 38 00 34 C6 3B
write:16 03 01 0F 00 08 76 D4
write:18 03 00 38 00 34 C7 D9
77 77 77
heart:77 77 77 2E 75 73 72 2E 63 6E
17 03 F0
23totalsize 240
44 9A F9 9A 43 5C 33 33 44 4A 4C CD 00 00 00 00 43 52 33 33 00 00 00 00 00 00 00 00 00 00 00 00 00 00 00 00 00 00 00 00 42 02 66 66 40 4C CC CD 41 C8 00 00 00 00 00 00 40 86 66 66 42 59 99 9A 41 40 00 00 41 B3 33 33 00 00 00 00 41 9E 66 66 44 AC 0C CD 43 8E E6 66 44 54 80 00 00 00 00 00 43 70 33 33 00 00 00 00 00 00 00 00 00 00 00 00 00 00 00 00 00 00 00 00 41 16 66 66 3E CC CC CD 40 D9 99 9A 00 00 00 00 3F E6 66 66 42 D5 33 33 41 BB 33 33 42 46 66 66 00 00 00 00 42 05 99 9A 44 EF 33 33 43 86 66 66 44 9D 8C FD FF FF A2 AE FF FF F7 9A 00 00 00 00 00 00 00 00 00 00 00 00 00 00 00 00 00 00 00 00 41 66 66 66 3F 19 99 9A 41 20 00 00 00 00 00 00 40 73 33 33 42 8D 99 9A 41 56 66 66 41 F6 66 66 00 00 00 00 41 D3 5A 22
write:13 03 01 0F 00 08 76 81
write:1A 03 07 CF 00 78 77 48
write:17 03 00 38 00 34 C7 26
write:18 03 07 CF 00 78 76 AA
write:14 03 00 38 00 34 C7 15
write:1A 03 01 0F 00 08 76 18
write:17 03 07 CF 00 78 76 55
write:18 03 01 0F 00 08 77 FA
write:14 03 07 CF 00 78 76 66
write:1B 03 00 38 00 34 C7 EA
write:17 03 01 0F 00 08 77 05
write:19 03 00 38 00 34 C6 08
write:14 03 01 0F 00 08 77 36
write:1B 03 07 CF 00 78 76 99
write:18 03 00 38 00 34 C7 D9
write:19 03 07 CF 00 78 77 7B
write:15 03 00 38 00 34 C6 C4
write:1B 03 01 0F 00 08 77 C9
write:18 03 07 CF 00 78 76 AA
write:19 03 01 0F 00 08 76 2B
write:15 03 07 CF 00 78 77 B7
write:1C 03 00 38 00 34 C6 5D
write:18 03 01 0F 00 08 77 FA
write:1A 03 00 38 00 34 C6 3B
write:15 03 01 0F 00 08 76 E7
write:1C 03 07 CF 00 78 77 2E
write:19 03 00 38 00 34 C6 08
write:1A 03 07 CF 00 78 77 48
write:16 03 00 38 00 34 C6 F7
write:1C 03 01 0F 00 08 76 7E
write:19 03 07 CF 00 78 77 7B
write:1A 03 01 0F 00 08 76 18
write:16 03 07 CF 00 78 77 84
write:1D 03 00 38 00 34 C7 8C
write:19 03 01 0F 00 08 76 2B
write:1B 03 00 38 00 34 C7 EA
77 77 77
heart:77 77 77 2E 75 73 72 2E 63 6E
18 03 F0
24totalsize 240
44 5E 66 66 43 54 33 33 43 F2 99 9A 00 00 00 00 43 40 00 00 00 00 00 00 00 00 00 00 00 00 00 00 00 00 00 00 00 00 00 00 43 33 33 33 41 DE 66 66 42 D4 00 00 00 00 00 00 42 34 CC CD 41 D3 33 33 40 F3 33 33 41 73 33 33 00 00 00 00 40 66 66 66 44 19 99 9A 43 00 00 00 43 A7 CC CD 00 00 00 00 43 16 99 9A 00 00 00 00 00 00 00 00 00 00 00 00 00 00 00 00 00 00 00 00 42 45 99 9A 3F 80 00 00 42 09 99 9A 00 00 00 00 41 60 00 00 42 0A 66 66 41 00 00 00 41 AC CC CD 00 00 00 00 40 99 99 9A 44 3F E6 66 43 0C 33 33 43 D9 E6 66 00 00 00 00 43 3F 66 66 00 00 00 00 00 00 00 00 00 00 00 00 00 00 00 00 00 00 00 00 43 A3 99 9A 41 A8 00 00 43 6C 99 9A 00 00 00 00 42 8A CC CD 42 1B 33 33 41 23 33 33 41 A6 66 66 00 00 00 00 40 F9 58 51
FB FF EF
heart:FB FF EF F7 BC 00 02 01 A9 00 00 00 00 00 00 C6 16 00 00 F4 54 19 03 F0 00 00 43 B6 33 33 42 26 66 66 43 4F 66 66 00 00 00 00 42 E6 66 66 00 00 00 00 00 00 00 00 00 00 00 00 00 00 00 00 00 00 00 00 41 6C CC CD 00 00 00 00 41 5C CC CD 00 00 00 00 3F 80 00 00 42 1D 99 9A 40 EC CC CD 41 79 99 9A 00 00 00 00 41 81 99 9A 43 B7 B3 33 42 3F 33 33 43 3E 00 00 00 00 00 00 43 01 66 66 00 00 00 00 00 00 00 00 00 00 00 00 00 00 00 00 00 00 00 00 41 10 00 00 00 00 00 00 40 C6 66 66 00 00 00 00 40 26 66 66 42 63 33 33 41 29 99 9A 41 BC CC CD 00 00 00 00 41 B3 33 33 43 A0 E6 66 42 0F 33 33 43 2B CC CD 00 00 00 00 42 E4 00 00 00 00 00 00 00 00 00 00 00 00 00 00 00 00 00 00 00 00 00 00 3E CC CC CD 00 00 00 00 3E 4C CC CD 00 00 00 00 00 00 00 00 42 21 99 9A 40 B9 99 9A 41 A3 33 33 00 00 00 00 41 60 64 7B 19 03 10 00 00 00 00 F3 1D 00 00 00 00 00 00 06 92 00 00 4B F7 1A 03 68 00 00 43 6F 29 FC 43 6F 61 06 43 6F 90 E5 43 CF 27 2B 43 CF 53 75 43 CF 3D 50 00 00 00 00 40 21 47 AE 40 5E B8 52 00 00 00 00 43 B4 00 00 43 F0 00 00 44 52 00 00 43 B4 00 00 43 F0 00 00 44 16 00 00 44 B4 00 00 43 B4 00 00 44 16 00 00 44 52 00 00 44 D2 00 00 3E 25 E3 54 3F 13 74 BC 3F 05 60 42 3F 00 00 00 42 48 15 A3
received messag ?->? 
 124.160.218.175:8326 172.16.246.153:6002
write:12 03 00 38 00 34 C7 73
77 77 77
heart:77 77 77 2E 75 73 72 2E 63 6E
1A 03 F0
26totalsize 360
44 DD C6 66 43 39 66 66 44 7A 33 33 00 00 00 00 44 12 B3 33 00 00 00 00 00 00 00 00 00 00 00 00 00 00 00 00 00 00 00 00 42 97 33 33 40 99 99 9A 42 1C 00 00 00 00 00 00 41 F9 99 9A 44 51 66 66 43 07 99 9A 43 B4 99 9A 00 00 00 00 43 AA 19 9A 44 AC E0 00 43 0E CC CD 44 4A 33 33 00 00 00 00 43 D7 19 9A 00 00 00 00 00 00 00 00 00 00 00 00 00 00 00 00 00 00 00 00 40 C0 00 00 3F E6 66 66 40 19 99 9A 00 00 00 00 3F 99 99 9A 44 70 00 00 43 11 33 33 43 D5 4C CD 00 00 00 00 43 C1 CC CD 44 E4 00 00 42 EE CC CD 44 94 20 00 00 00 00 00 44 01 E6 66 00 00 00 00 00 00 00 00 00 00 00 00 00 00 00 00 00 00 00 00 42 0B 33 33 00 00 00 00 41 D3 33 33 00 00 00 00 41 06 66 66 44 3E F3 33 42 F7 33 33 43 9F E6 66 00 00 00 00 43 9F 9E 7D FB FF EF F7 AC 00 02 87 50 00 00 00 00 00 00 3D F8 00 00 FB 14 12 03 68 00 00 43 6E DC 29 43 6F 51 AA 43 6F 7D 71 43 CF 05 E3 43 CF 48 73 43 CF 11 06 43 46 00 00 43 18 0A 3D 43 2D 66 66 47 29 B0 00 46 F7 80 00 47 16 00 00 47 DD B8 00 46 4E 40 00 46 14 20 00 46 0E 80 00 46 F9 60 00 47 38 B0 00 47 0E 08 00 47 22 30 00 47 E6 64 00 3F 6B 43 96 3F 5F 3B 64 3F 6C
8B 44 3F
heart:8B 44 3F 76 87 2B 42 48 22 F4
write:16 03 01 0F 00 08 76 D4
write:1D 03 07 CF 00 78 76 FF
write:1A 03 00 38 00 34 C6 3B
write:1B 03 07 CF 00 78 76 99
1B 03 F0
27totalsize 240
45 0F BC CD 41 CE 66 66 44 DE E6 66 00 00 00 00 43 F4 CC CD 00 00 00 00 00 00 00 00 00 00 00 00 00 00 00 00 00 00 00 00 44 31 26 66 41 90 00 00 43 F8 B3 33 00 00 00 00 43 40 99 9A 00 00 00 00 00 00 00 00 00 00 00 00 00 00 00 00 00 00 00 00 45 10 D3 33 41 F9 99 9A 44 E5 33 33 00 00 00 00 43 E1 E6 66 00 00 00 00 00 00 00 00 00 00 00 00 00 00 00 00 00 00 00 00 44 24 40 00 41 86 66 66 43 E5 CC CD 00 00 00 00 43 34 99 9A 00 00 00 00 00 00 00 00 00 00 00 00 00 00 00 00 00 00 00 00 45 1D 76 66 42 4E 66 66 44 F5 19 9A 00 00 00 00 43 FD 33 33 00 00 00 00 00 00 00 00 00 00 00 00 00 00 00 00 00 00 00 00 44 73 99 9A 42 34 00 00 44 1E 8C CD 00 00 00 00 43 93 4C CD 00 00 00 00 00 00 00 00 00 00 00 00 00 00 00 00 00 00 FE 8F
write:12 03 07 CF 00 78 76 00
12 03 F0
18totalsize 240
47 8B 02 4D 46 30 3B 33 47 02 8B 66 00 00 00 00 46 CE D3 9A 00 00 00 00 00 00 00 00 00 00 00 00 00 00 00 00 00 00 00 00 46 83 0B 33 45 1E 19 9A 46 08 CC CD 00 00 00 00 45 AB 7C CD 00 00 00 00 00 00 00 00 00 00 00 00 00 00 00 00 00 00 00 00 47 A9 B7 80 46 5C 9F 33 47 22 D6 CD 00 00 00 00 46 F2 DF 9A 00 00 00 00 00 00 00 00 00 00 00 00 00 00 00 00 00 00 00 00 46 B2 70 66 45 65 B9 9A 46 3A EB 33 00 00 00 00 45 E1 09 9A 00 00 00 00 00 00 00 00 00 00 00 00 00 00 00 00 00 00 00 00 47 82 8D CD 46 41 63 33 46 D4 77 33 00 00 00 00 46 D5 0E 66 00 00 00 00 00 00 00 00 00 00 00 00 00 00 00 00 00 00 00 00 46 95 B4 66 45 65 46 66 45 FB B3 33 00 00 00 00 45 E8 7B 33 00 00 00 00 00 00 00 00 00 00 00 00 00 00 00 00 00 00 CC C4
write:17 03 00 38 00 34 C7 26
write:1D 03 01 0F 00 08 77 AF
write:1A 03 07 CF 00 78 77 48
write:1B 03 01 0F 00 08 77 C9
1B 03 10
2700 02 2F A4 00 00 00 00 00 00 D9 BB 00 00 75 E1
write:12 03 01 0F 00 08 77 50
12 03 10
1800 40 8B A9 00 00 00 00 00 13 E3 43 00 00 12 B6
write:17 03 07 CF 00 78 76 55
write:1E 03 00 38 00 34 C7 BF
write:1A 03 01 0F 00 08 76 18
write:1C 03 00 38 00 34 C6 5D
write:13 03 00 38 00 34 C6 A2
13 03 68
1943 6F 21 89 43 6F 75 81 43 6F BD B2 43 CF 32 4E 43 CF 74 BC 43 CF 53 96 3F C2 8F 5C 3F A3 D7 0A 40 0A 3D 71 43 70 00 00 00 00 00 00 43 C8 00 00 44 34 00 00 43 70 00 00 43 70 00 00 43 70 00 00 44 48 00 00 43 C8 00 00 43 A0 00 00 43 F0 00 00 44 82 00 00 3F 26 E9 79 3E 59 16 87 3F 5B A5 E3 3F 30 E5 60 42 48 FD 7B
write:17 03 01 0F 00 08 77 05
write:1E 03 07 CF 00 78 76 CC
write:1B 03 00 38 00 34 C7 EA
write:1C 03 07 CF 00 78 77 2E
write:13 03 07 CF 00 78 77 D1
13 03 F0
19totalsize 240
44 9F 26 66 42 D1 99 9A 44 47 E6 66 00 00 00 00 43 B8 00 00 00 00 00 00 00 00 00 00 00 00 00 00 00 00 00 00 00 00 00 00 43 0F 33 33 3E CC CC CD 43 00 00 00 00 00 00 00 41 66 66 66 43 CA 33 33 42 8F 33 33 43 1D 99 9A 00 00 00 00 43 2E CC CD 44 5A CC CD 42 BC 00 00 43 F7 66 66 00 00 00 00 43 8F 00 00 00 00 00 00 00 00 00 00 00 00 00 00 00 00 00 00 00 00 00 00 40 80 00 00 00 00 00 00 40 4C CC CD 00 00 00 00 3F 4C CC CD 44 1A 99 9A 42 C4 00 00 43 85 66 66 00 00 00 00 43 7D 33 33 44 DC A6 66 42 DB 33 33 44 8E CC CD 00 00 00 00 44 00 4C CD 00 00 00 00 00 00 00 00 00 00 00 00 00 00 00 00 00 00 00 00 42 5E 66 66 3E CC CC CD 42 21 99 9A 00 00 00 00 41 60 00 00 43 FE 00 00 42 B6 66 66 43 3F 99 9A 00 00 00 00 43 60 DA B2
write:18 03 00 38 00 34 C7 D9
write:1E 03 01 0F 00 08 77 9C
write:1B 03 07 CF 00 78 76 99
write:1C 03 01 0F 00 08 76 7E
write:13 03 01 0F 00 08 76 81
13 03 10
1900 02 93 16 00 00 00 00 00 00 35 3F 00 00 EC 6D
43 6F 21 89
239.131
43 6F 75 81
239.459
43 6F BD B2
239.741
43 CF 32 4E
414.393
43 CF 74 BC
414.912
43 CF 53 96
414.653
3F C2 8F 5C
1.52
3F A3 D7 0A
1.28
40 0A 3D 71
2.16
43 70 00 00
240
00 00 00 00
0
43 C8 00 00
400
44 34 00 00
720
43 70 00 00
240
43 70 00 00
240
43 70 00 00
240
44 48 00 00
800
43 C8 00 00
400
43 A0 00 00
320
43 F0 00 00
480
44 82 00 00
1040
3F 26 E9 79
0.652
3E 59 16 87
0.212
3F 5B A5 E3
0.858
3F 30 E5 60
0.691
42 48 FD 7B
50.24754
44 9F 26 66
1273.2
42 D1 99 9A
104.8
44 47 E6 66
799.6
00 00 00 00
0
43 B8 00 00
368
00 00 00 00
0
00 00 00 00
0
00 00 00 00
0
00 00 00 00
0
00 00 00 00
0
43 0F 33 33
143.2
3E CC CC CD
0.4
43 00 00 00
128
00 00 00 00
0
41 66 66 66
14.4
43 CA 33 33
404.4
42 8F 33 33
71.6
43 1D 99 9A
157.6
00 00 00 00
0
43 2E CC CD
174.8
44 5A CC CD
875.2
42 BC 00 00
94
43 F7 66 66
494.8
00 00 00 00
0
43 8F 00 00
286
00 00 00 00
0
00 00 00 00
0
00 00 00 00
0
00 00 00 00
0
00 00 00 00
0
40 80 00 00
4
00 00 00 00
0
40 4C CC CD
3.2
00 00 00 00
0
3F 4C CC CD
0.8
44 1A 99 9A
618.4
42 C4 00 00
98
43 85 66 66
266.8
00 00 00 00
0
43 7D 33 33
253.2
44 DC A6 66
1765.2
42 DB 33 33
109.6
44 8E CC CD
1142.4
00 00 00 00
0
44 00 4C CD
513.2
00 00 00 00
0
00 00 00 00
0
00 00 00 00
0
00 00 00 00
0
00 00 00 00
0
42 5E 66 66
55.6
3E CC CC CD
0.4
42 21 99 9A
40.4
00 00 00 00
0
41 60 00 00
14
43 FE 00 00
508
42 B6 66 66
91.2
43 3F 99 9A
191.6
00 00 00 00
0
43 60 DA B2
224.85428
00 02 93 16
168726
00 00 00 00
0
00 00 35 3F
13631
00 00 EC 6D
60525
239.131239.459239.741414.393414.912414.6531.521.282.16240040072024024024080040032048010400.6520.2120.8580.69150.247541273.2104.8799.6036800000143.20.4128014.4404.471.6157.60174.8875.294494.8028600000403.200.8618.498266.80253.21765.2109.61142.40513.20000055.60.440.401450891.2191.60224.854281920171125011721168.726013.63160.525insert into tbl_power_info_v2(P_A_DIANYA,P_B_DIANYA,P_C_DIANYA,P_UAB_XIANDIANYA,P_UBC_XIANDIANYA,P_UCA_XIANDIANYA,P_A_DIANLIU,P_B_DIANLIU,P_C_DIANLIU,P_A_YGGL,P_B_YGGL,P_C_YGGL,P_HXYGGL,P_A_WGGL,P_B_WGGL,P_C_WGGL,P_HXWGGL,P_A_SZGL,P_B_SZGL,P_C_SZGL,P_HXSZGL,P_A_GLYS,P_B_GLYS,P_C_GLYS,P_HXGLYS,P_DWPL,P_BY_KwhZ,P_BY_KwhJ,P_BY_KwhF,P_BY_KwhP,P_BY_KwhG,P_BY_HKwhZ,P_BY_HKwhJ,P_BY_HKwhF,P_BY_HKwhP,P_BY_HKwhG, P_BY_KvarhZ,P_BY_KvarhJ,P_BY_KvarhF,P_BY_KvarhP,P_BY_KvarhG, P_BY_HKvarhZ,P_BY_HKvarhJ,P_BY_HKvarhF,P_BY_HKvarhP,P_BY_HKvarhG, P_SY_KwhZ,P_SY_KwhJ,P_SY_KwhF,P_SY_KwhP,P_SY_KwhG, P_SY_HKwhZ,P_SY_HKwhJ,P_SY_HKwhF,P_SY_HKwhP,P_SY_HKwhG, P_SY_KvarhZ,P_SY_KvarhJ,P_SY_KvarhF,P_SY_KvarhP,P_SY_KvarhG, P_SY_HKvarhZ,P_SY_HKvarhJ,P_SY_HKvarhF,P_SY_HKvarhP,P_SY_HKvarhG, P_SSY_KwhZ,P_SSY_KwhJ,P_SSY_KwhF,P_SSY_KwhP,P_SSY_KwhG, P_SSY_HKwhZ,P_SSY_HKwhJ,P_SSY_HKwhF,P_SSY_HKwhP,P_SSY_HKwhG, P_SSY_KvarhZ,P_SSY_KvarhJ,P_SSY_KvarhF,P_SSY_KvarhP,P_SSY_KvarhG, P_SSY_HKvarhZ,P_SSY_HKvarhJ,P_SSY_HKvarhF,P_SSY_HKvarhP,P_SSY_HKvarhG,P_CODE,P_TIME,P_ZXYGDN,P_FXYGDN,P_ZXWGDN,P_FXWGDN)values(239.131,239.459,239.741,414.393,414.912,414.653,1.52,1.28,2.16,240,0,400,720,240,240,240,800,400,320,480,1040,0.652,0.212,0.858,0.691,50.24754,1273.2,104.8,799.6,0,368,0,0,0,0,0,143.2,0.4,128,0,14.4,404.4,71.6,157.6,0,174.8,875.2,94,494.8,0,286,0,0,0,0,0,4,0,3.2,0,0.8,618.4,98,266.8,0,253.2,1765.2,109.6,1142.4,0,513.2,0,0,0,0,0,55.6,0.4,40.4,0,14,508,91.2,191.6,0,224.85428,19,20171125011721,168.726,0,13.631,60.525)
写入成功读取完毕一个
write:18 03 07 CF 00 78 76 AA
write:1F 03 00 38 00 34 C6 6E
write:1B 03 01 0F 00 08 77 C9
write:1D 03 00 38 00 34 C7 8C
write:14 03 00 38 00 34 C7 15
14 03 68
2043 6F 16 87 43 6F 6B 85 43 6F 8E 56 43 CF 27 2B 43 CF 5E 98 43 CF 32 4E 41 0B 85 1F 40 DA E1 48 41 10 A3 D7 44 A5 00 00 44 7A 00 00 44 AA 00 00 45 66 00 00 43 A0 00 00 43 8C 00 00 43 8C 00 00 44 5C 00 00 45 02 00 00 44 CD 00 00 45 07 00 00 45 6D 80 00 3F 24 9B A6 3F 19 99 9A 3F 21 06 25 3F 78 D4 FE 42 48 11 3F
write:18 03 01 0F 00 08 77 FA
write:1F 03 07 CF 00 78 77 1D
write:1C 03 00 38 00 34 C6 5D
write:1D 03 07 CF 00 78 76 FF
write:14 03 07 CF 00 78 76 66
14 03 F0
20totalsize 240
44 9E 06 66 43 C7 99 9A 43 90 CC CD 00 00 00 00 44 0F D9 9A 00 00 00 00 00 00 00 00 00 00 00 00 00 00 00 00 00 00 00 00 40 0C CC CD 00 00 00 00 40 0C CC CD 00 00 00 00 00 00 00 00 43 92 66 66 42 BE 66 66 42 7A 66 66 00 00 00 00 43 06 CC CD 44 AC 73 33 43 E0 33 33 43 9A 66 66 00 00 00 00 44 1B 8C CD 00 00 00 00 00 00 00 00 00 00 00 00 00 00 00 00 00 00 00 00 40 99 99 9A 00 00 00 00 40 93 33 33 00 00 00 00 00 00 00 00 43 9B 80 00 42 D2 66 66 42 76 66 66 00 00 00 00 43 10 00 00 44 A4 D9 9A 43 ED 99 9A 43 78 66 66 00 00 00 00 44 14 C0 00 00 00 00 00 00 00 00 00 00 00 00 00 00 00 00 00 00 00 00 00 3F 4C CC CD 00 00 00 00 3F 4C CC CD 00 00 00 00 00 00 00 00 43 8C 66 66 42 D1 33 33 42 3B 33 33 00 00 00 00 43 01 33 DD
write:19 03 00 38 00 34 C6 08
write:1F 03 01 0F 00 08 76 4D
write:1C 03 07 CF 00 78 77 2E
write:1D 03 01 0F 00 08 77 AF
write:14 03 01 0F 00 08 77 36
14 03 10
2000 04 18 D0 00 00 00 00 00 00 13 51 00 00 3F 64
43 6F 16 87
239.088
43 6F 6B 85
239.42
43 6F 8E 56
239.556
43 CF 27 2B
414.306
43 CF 5E 98
414.739
43 CF 32 4E
414.393
41 0B 85 1F
8.72
40 DA E1 48
6.84
41 10 A3 D7
9.04
44 A5 00 00
1320
44 7A 00 00
1000
44 AA 00 00
1360
45 66 00 00
3680
43 A0 00 00
320
43 8C 00 00
280
43 8C 00 00
280
44 5C 00 00
880
45 02 00 00
2080
44 CD 00 00
1640
45 07 00 00
2160
45 6D 80 00
3800
3F 24 9B A6
0.643
3F 19 99 9A
0.6
3F 21 06 25
0.629
3F 78 D4 FE
0.972
42 48 11 3F
50.01684
44 9E 06 66
1264.2
43 C7 99 9A
399.2
43 90 CC CD
289.6
00 00 00 00
0
44 0F D9 9A
575.4
00 00 00 00
0
00 00 00 00
0
00 00 00 00
0
00 00 00 00
0
00 00 00 00
0
40 0C CC CD
2.2
00 00 00 00
0
40 0C CC CD
2.2
00 00 00 00
0
00 00 00 00
0
43 92 66 66
292.8
42 BE 66 66
95.2
42 7A 66 66
62.6
00 00 00 00
0
43 06 CC CD
134.8
44 AC 73 33
1379.6
43 E0 33 33
448.4
43 9A 66 66
308.8
00 00 00 00
0
44 1B 8C CD
622.2
00 00 00 00
0
00 00 00 00
0
00 00 00 00
0
00 00 00 00
0
00 00 00 00
0
40 99 99 9A
4.8
00 00 00 00
0
40 93 33 33
4.6
00 00 00 00
0
00 00 00 00
0
43 9B 80 00
311
42 D2 66 66
105.2
42 76 66 66
61.6
00 00 00 00
0
43 10 00 00
144
44 A4 D9 9A
1318.8
43 ED 99 9A
475.2
43 78 66 66
248.4
00 00 00 00
0
44 14 C0 00
595
00 00 00 00
0
00 00 00 00
0
00 00 00 00
0
00 00 00 00
0
00 00 00 00
0
3F 4C CC CD
0.8
00 00 00 00
0
3F 4C CC CD
0.8
00 00 00 00
0
00 00 00 00
0
43 8C 66 66
280.8
42 D1 33 33
104.6
42 3B 33 33
46.8
00 00 00 00
0
43 01 33 DD
129.20259
00 04 18 D0
268496
00 00 00 00
0
00 00 13 51
4945
00 00 3F 64
16228
239.088239.42239.556414.306414.739414.3938.726.849.04132010001360368032028028088020801640216038000.6430.60.6290.97250.016841264.2399.2289.60575.4000002.202.200292.895.262.60134.81379.6448.4308.80622.2000004.804.600311105.261.601441318.8475.2248.40595000000.800.800280.8104.646.80129.202592020171125011821268.49604.94516.228insert into tbl_power_info_v2(P_A_DIANYA,P_B_DIANYA,P_C_DIANYA,P_UAB_XIANDIANYA,P_UBC_XIANDIANYA,P_UCA_XIANDIANYA,P_A_DIANLIU,P_B_DIANLIU,P_C_DIANLIU,P_A_YGGL,P_B_YGGL,P_C_YGGL,P_HXYGGL,P_A_WGGL,P_B_WGGL,P_C_WGGL,P_HXWGGL,P_A_SZGL,P_B_SZGL,P_C_SZGL,P_HXSZGL,P_A_GLYS,P_B_GLYS,P_C_GLYS,P_HXGLYS,P_DWPL,P_BY_KwhZ,P_BY_KwhJ,P_BY_KwhF,P_BY_KwhP,P_BY_KwhG,P_BY_HKwhZ,P_BY_HKwhJ,P_BY_HKwhF,P_BY_HKwhP,P_BY_HKwhG, P_BY_KvarhZ,P_BY_KvarhJ,P_BY_KvarhF,P_BY_KvarhP,P_BY_KvarhG, P_BY_HKvarhZ,P_BY_HKvarhJ,P_BY_HKvarhF,P_BY_HKvarhP,P_BY_HKvarhG, P_SY_KwhZ,P_SY_KwhJ,P_SY_KwhF,P_SY_KwhP,P_SY_KwhG, P_SY_HKwhZ,P_SY_HKwhJ,P_SY_HKwhF,P_SY_HKwhP,P_SY_HKwhG, P_SY_KvarhZ,P_SY_KvarhJ,P_SY_KvarhF,P_SY_KvarhP,P_SY_KvarhG, P_SY_HKvarhZ,P_SY_HKvarhJ,P_SY_HKvarhF,P_SY_HKvarhP,P_SY_HKvarhG, P_SSY_KwhZ,P_SSY_KwhJ,P_SSY_KwhF,P_SSY_KwhP,P_SSY_KwhG, P_SSY_HKwhZ,P_SSY_HKwhJ,P_SSY_HKwhF,P_SSY_HKwhP,P_SSY_HKwhG, P_SSY_KvarhZ,P_SSY_KvarhJ,P_SSY_KvarhF,P_SSY_KvarhP,P_SSY_KvarhG, P_SSY_HKvarhZ,P_SSY_HKvarhJ,P_SSY_HKvarhF,P_SSY_HKvarhP,P_SSY_HKvarhG,P_CODE,P_TIME,P_ZXYGDN,P_FXYGDN,P_ZXWGDN,P_FXWGDN)values(239.088,239.42,239.556,414.306,414.739,414.393,8.72,6.84,9.04,1320,1000,1360,3680,320,280,280,880,2080,1640,2160,3800,0.643,0.6,0.629,0.972,50.01684,1264.2,399.2,289.6,0,575.4,0,0,0,0,0,2.2,0,2.2,0,0,292.8,95.2,62.6,0,134.8,1379.6,448.4,308.8,0,622.2,0,0,0,0,0,4.8,0,4.6,0,0,311,105.2,61.6,0,144,1318.8,475.2,248.4,0,595,0,0,0,0,0,0.8,0,0.8,0,0,280.8,104.6,46.8,0,129.20259,20,20171125011821,268.496,0,4.945,16.228)
写入成功读取完毕一个
write:19 03 07 CF 00 78 77 7B
write:20 03 00 38 00 34 C3 61
write:1C 03 01 0F 00 08 76 7E
write:1E 03 00 38 00 34 C7 BF
write:15 03 00 38 00 34 C6 C4
15 03 68
2143 6F 44 19 43 6F 98 52 43 6F B2 2D 43 CF 48 73 43 CF 74 BC 43 CF 53 96 00 00 00 00 00 00 00 00 00 00 00 00 00 00 00 00 00 00 00 00 00 00 00 00 00 00 00 00 00 00 00 00 00 00 00 00 00 00 00 00 00 00 00 00 00 00 00 00 00 00 00 00 00 00 00 00 00 00 00 00 00 00 00 00 00 00 00 00 00 00 00 00 00 00 00 00 42 48 79 5F
write:19 03 01 0F 00 08 76 2B
write:20 03 07 CF 00 78 72 12
write:1D 03 00 38 00 34 C7 8C
write:1E 03 07 CF 00 78 76 CC
write:15 03 07 CF 00 78 77 B7
15 03 F0
21totalsize 240
40 CC CC CD 00 00 00 00 40 A6 66 66 00 00 00 00 3F 99 99 9A 00 00 00 00 00 00 00 00 00 00 00 00 00 00 00 00 00 00 00 00 3E CC CC CD 00 00 00 00 3E CC CC CD 00 00 00 00 00 00 00 00 00 00 00 00 00 00 00 00 00 00 00 00 00 00 00 00 00 00 00 00 40 8C CC CD 00 00 00 00 40 66 66 66 00 00 00 00 3F 4C CC CD 00 00 00 00 00 00 00 00 00 00 00 00 00 00 00 00 00 00 00 00 00 00 00 00 00 00 00 00 00 00 00 00 00 00 00 00 00 00 00 00 00 00 00 00 00 00 00 00 00 00 00 00 00 00 00 00 00 00 00 00 42 1E 66 66 00 00 00 00 41 F3 33 33 00 00 00 00 41 13 33 33 00 00 00 00 00 00 00 00 00 00 00 00 00 00 00 00 00 00 00 00 42 D8 00 00 00 00 00 00 42 A3 33 33 00 00 00 00 41 D0 00 00 00 00 00 00 00 00 00 00 00 00 00 00 00 00 00 00 00 00 7F 8C
write:1A 03 00 38 00 34 C6 3B
write:20 03 01 0F 00 08 73 42
write:1D 03 07 CF 00 78 76 FF
write:1E 03 01 0F 00 08 77 9C
write:15 03 01 0F 00 08 76 E7
15 03 10
2100 00 18 94 00 00 00 00 00 00 1D 3D 00 00 8E 18
43 6F 44 19
239.266
43 6F 98 52
239.595
43 6F B2 2D
239.696
43 CF 48 73
414.566
43 CF 74 BC
414.912
43 CF 53 96
414.653
00 00 00 00
0
00 00 00 00
0
00 00 00 00
0
00 00 00 00
0
00 00 00 00
0
00 00 00 00
0
00 00 00 00
0
00 00 00 00
0
00 00 00 00
0
00 00 00 00
0
00 00 00 00
0
00 00 00 00
0
00 00 00 00
0
00 00 00 00
0
00 00 00 00
0
00 00 00 00
0
00 00 00 00
0
00 00 00 00
0
00 00 00 00
0
42 48 79 5F
50.118526
40 CC CC CD
6.4
00 00 00 00
0
40 A6 66 66
5.2
00 00 00 00
0
3F 99 99 9A
1.2
00 00 00 00
0
00 00 00 00
0
00 00 00 00
0
00 00 00 00
0
00 00 00 00
0
3E CC CC CD
0.4
00 00 00 00
0
3E CC CC CD
0.4
00 00 00 00
0
00 00 00 00
0
00 00 00 00
0
00 00 00 00
0
00 00 00 00
0
00 00 00 00
0
00 00 00 00
0
40 8C CC CD
4.4
00 00 00 00
0
40 66 66 66
3.6
00 00 00 00
0
3F 4C CC CD
0.8
00 00 00 00
0
00 00 00 00
0
00 00 00 00
0
00 00 00 00
0
00 00 00 00
0
00 00 00 00
0
00 00 00 00
0
00 00 00 00
0
00 00 00 00
0
00 00 00 00
0
00 00 00 00
0
00 00 00 00
0
00 00 00 00
0
00 00 00 00
0
00 00 00 00
0
42 1E 66 66
39.6
00 00 00 00
0
41 F3 33 33
30.4
00 00 00 00
0
41 13 33 33
9.2
00 00 00 00
0
00 00 00 00
0
00 00 00 00
0
00 00 00 00
0
00 00 00 00
0
42 D8 00 00
108
00 00 00 00
0
42 A3 33 33
81.6
00 00 00 00
0
41 D0 00 00
26
00 00 00 00
0
00 00 00 00
0
00 00 00 00
0
00 00 00 00
0
00 00 7F 8C
4.5755e-41
00 00 18 94
6292
00 00 00 00
0
00 00 1D 3D
7485
00 00 8E 18
36376
239.266239.595239.696414.566414.912414.653000000000000000000050.1185266.405.201.2000000.400.400000004.403.600.800000000000000039.6030.409.200000108081.602600004.5755e-4121201711250119236.29207.48536.376insert into tbl_power_info_v2(P_A_DIANYA,P_B_DIANYA,P_C_DIANYA,P_UAB_XIANDIANYA,P_UBC_XIANDIANYA,P_UCA_XIANDIANYA,P_A_DIANLIU,P_B_DIANLIU,P_C_DIANLIU,P_A_YGGL,P_B_YGGL,P_C_YGGL,P_HXYGGL,P_A_WGGL,P_B_WGGL,P_C_WGGL,P_HXWGGL,P_A_SZGL,P_B_SZGL,P_C_SZGL,P_HXSZGL,P_A_GLYS,P_B_GLYS,P_C_GLYS,P_HXGLYS,P_DWPL,P_BY_KwhZ,P_BY_KwhJ,P_BY_KwhF,P_BY_KwhP,P_BY_KwhG,P_BY_HKwhZ,P_BY_HKwhJ,P_BY_HKwhF,P_BY_HKwhP,P_BY_HKwhG, P_BY_KvarhZ,P_BY_KvarhJ,P_BY_KvarhF,P_BY_KvarhP,P_BY_KvarhG, P_BY_HKvarhZ,P_BY_HKvarhJ,P_BY_HKvarhF,P_BY_HKvarhP,P_BY_HKvarhG, P_SY_KwhZ,P_SY_KwhJ,P_SY_KwhF,P_SY_KwhP,P_SY_KwhG, P_SY_HKwhZ,P_SY_HKwhJ,P_SY_HKwhF,P_SY_HKwhP,P_SY_HKwhG, P_SY_KvarhZ,P_SY_KvarhJ,P_SY_KvarhF,P_SY_KvarhP,P_SY_KvarhG, P_SY_HKvarhZ,P_SY_HKvarhJ,P_SY_HKvarhF,P_SY_HKvarhP,P_SY_HKvarhG, P_SSY_KwhZ,P_SSY_KwhJ,P_SSY_KwhF,P_SSY_KwhP,P_SSY_KwhG, P_SSY_HKwhZ,P_SSY_HKwhJ,P_SSY_HKwhF,P_SSY_HKwhP,P_SSY_HKwhG, P_SSY_KvarhZ,P_SSY_KvarhJ,P_SSY_KvarhF,P_SSY_KvarhP,P_SSY_KvarhG, P_SSY_HKvarhZ,P_SSY_HKvarhJ,P_SSY_HKvarhF,P_SSY_HKvarhP,P_SSY_HKvarhG,P_CODE,P_TIME,P_ZXYGDN,P_FXYGDN,P_ZXWGDN,P_FXWGDN)values(239.266,239.595,239.696,414.566,414.912,414.653,0,0,0,0,0,0,0,0,0,0,0,0,0,0,0,0,0,0,0,50.118526,6.4,0,5.2,0,1.2,0,0,0,0,0,0.4,0,0.4,0,0,0,0,0,0,0,4.4,0,3.6,0,0.8,0,0,0,0,0,0,0,0,0,0,0,0,0,0,0,39.6,0,30.4,0,9.2,0,0,0,0,0,108,0,81.6,0,26,0,0,0,0,4.5755e-41,21,20171125011923,6.292,0,7.485,36.376)
写入成功读取完毕一个
write:1A 03 07 CF 00 78 77 48
write:1D 03 01 0F 00 08 77 AF
write:1F 03 00 38 00 34 C6 6E
write:12 03 00 38 00 34 C7 73
write:16 03 00 38 00 34 C6 F7
write:1A 03 01 0F 00 08 76 18
write:1E 03 00 38 00 34 C7 BF
write:1F 03 07 CF 00 78 77 1D
77 77 77
heart:77 77 77 2E 75 73 72 2E 63 6E
write:12 03 07 CF 00 78 76 00
write:16 03 07 CF 00 78 77 84
write:1B 03 00 38 00 34 C7 EA
write:1E 03 07 CF 00 78 76 CC
write:1F 03 01 0F 00 08 76 4D
write:12 03 01 0F 00 08 77 50
write:16 03 01 0F 00 08 76 D4
write:1B 03 07 CF 00 78 76 99
write:1E 03 01 0F 00 08 77 9C
write:20 03 00 38 00 34 C3 61
write:13 03 00 38 00 34 C6 A2
write:17 03 00 38 00 34 C7 26
write:1B 03 01 0F 00 08 77 C9
write:1F 03 00 38 00 34 C6 6E
write:20 03 07 CF 00 78 72 12
write:13 03 07 CF 00 78 77 D1
write:17 03 07 CF 00 78 76 55
write:1C 03 00 38 00 34 C6 5D
write:1F 03 07 CF 00 78 77 1D
write:20 03 01 0F 00 08 73 42
write:13 03 01 0F 00 08 76 81
write:17 03 01 0F 00 08 77 05
write:1C 03 07 CF 00 78 77 2E
write:1F 03 01 0F 00 08 76 4D
write:14 03 00 38 00 34 C7 15
write:12 03 00 38 00 34 C7 73
write:18 03 00 38 00 34 C7 D9
write:1C 03 01 0F 00 08 76 7E
write:20 03 00 38 00 34 C3 61
write:14 03 07 CF 00 78 76 66
write:12 03 07 CF 00 78 76 00

err2222: read tcp 172.16.246.153:6002->124.160.213.149:44582: read: connection timed out
write:18 03 07 CF 00 78 76 AA
write:1D 03 00 38 00 34 C7 8C
write:20 03 07 CF 00 78 72 12
write err: write tcp 172.16.246.153:6002->124.160.213.149:44582: use of closed network connection
77 77 77
heart:77 77 77 2E 75 73 72 2E 63 6E
77 77 77
heart:77 77 77 2E 75 73 72 2E 63 6E
received messag ?->? 
 124.160.218.175:8327 172.16.246.153:6002
write:12 03 00 38 00 34 C7 73
7E 7C FF
heart:7E 7C FF A2 15 FF D7 FF FF EC F6 4F FF 98 FF 5B CF 1C 08 43 CF 5E 98 43 CF 3D 50 3F 61 47 AE 3F FC FF FF F4 E5 E1 0F D3 FF F1 EF CE FB FF BF F1 B6 F1 FF 69 F3 00 00 42 A0 00 00 42 A0 00 00 00 00 00 00 42 F0 00 00 43 48 00 00 43 48 00 00 00 00 00 00 43 8C 00 00 3E FF 7C EE 3F 37 0A 3D 00 00 00 00 3F 63 53 F8 42 47 79 F1
write:14 03 01 0F 00 08 77 36
12 03 68
1843 6E F6 C9 43 6F 4E 98 43 6F 87 6D 43 CF 11 06 43 CF 53 75 43 CF 27 2B 43 1E E1 48 43 05 CC CD 43 10 B8 52 47 07 F0 00 46 D9 80 00 46 F7 80 00 47 B8 74 00 45 F0 00 00 45 99 C0 00 45 96 00 00 46 87 F0 00 47 14 20 00 46 FA 50 00 47 07 78 00 47 BB 80 00 3F 6B 02 0C 3F 5E 76 C9 3F 6A 3D 71 3F 7B A5 E3 42 47 D8 F6
write:12 03 01 0F 00 08 77 50
write:18 03 01 0F 00 08 77 FA
12 03 10
1800 40 8C 04 00 00 00 00 00 13 E3 54 00 00 6E D7
43 6E F6 C9
238.964
43 6F 4E 98
239.307
43 6F 87 6D
239.529
43 CF 11 06
414.133
43 CF 53 75
414.652
43 CF 27 2B
414.306
43 1E E1 48
158.88
43 05 CC CD
