nohup: ignoring input
Listening on :6002
received messag ?->? 
 124.160.213.198:43070 172.16.246.153:6002
write:12 03 00 38 00 34 C7 73
77 77 77
heart:77 77 77 2E 75 73 72 2E 63 6E
12 03 68
1843 68 F2 B0 43 69 88 31 43 69 8D 0E 43 C9 F4 FE 43 CA 37 6D 43 C9 F4 FE 43 5A 28 F6 43 53 8F 5C 43 3E EB 85 47 3F 40 00 47 33 88 00 47 20 C8 00 48 03 5E 00 00 00 00 00 00 00 00 00 00 00 00 00 00 00 00 00 00 00 00 00 00 00 00 00 00 00 00 00 00 00 00 00 00 00 00 00 00 00 00 00 00 00 00 00 00 00 00 00 00 00 00 00
00 46 79
heart:00 46 79 60 00 46 77 80 00 46 5F 20 00 47 34 00 00 47 53 E0 00 47 57 28 00 47 1C 90 00 48 0C FA 00 3F 6F 1A A0 3F 70 E5 60 3F 67 EF 9E 3F 72 6E 98 42 48 EB 35
write:12 03 07 CF 00 78 76 00
12 03 F0
18totalsize 240
47 8C 8E E6 46 30 3B 33 47 03 5C CD 00 00 00 00 46 D3 63 33 00 00 00 00 00 00 00 00 00 00 00 00 00 00 00 00 00 00 00 00 46 84 3E 66 45 1E 19 9A 46 09 8C CD 00 00 00 00 45 AE D3 33 00 00 00 00 00 00 00 00 00 00 00 00 00 00 00 00 00 00 00 00 47 A9 B7 80 46 5C 9F 33 47 22 D6 CD 00 00 00 00 46 F2 DF 9A 00 00 00 00 00 00 00 00 00 00 00 00 00 00 00 00 00 00 00 00 46 B2 70 66 45 65 B9 9A 46 3A EB 33 00 00 00 00 45 E1 09 9A 00 00 00 00 00 00 00 00 00 00 00 00 00 00 00 00 00 00 00 00 47 82 8D CD 46 41 63 33 46 D4 77 33 00 00 00 00 46 D5 0E 66 00 00 00 00 00 00 00 00 00 00 00 00 00 00 00 00 00 00 00 00 46 95 B4 66 45 65 46 66 45 FB B3 33 00 00 00 00 45 E8 7B 33 00 00 00 00 00 00 00 00 00 00 00 00 00 00 00 00 00 00 9B 96
write:12 03 01 0F 00 08 77 50
77 77 77
heart:77 77 77 2E 75 73 72 2E 63 6E
write:13 03 00 38 00 34 C6 A2
write:13 03 07 CF 00 78 77 D1
12 03 10
1800 40 A5 84 00 00 00 00 00 13 E8 4A 00 00 38 94
43 68 F2 B0
232.948
43 69 88 31
233.532
43 69 8D 0E
233.551
43 C9 F4 FE
403.914
43 CA 37 6D
404.433
43 C9 F4 FE
403.914
43 5A 28 F6
218.16
43 53 8F 5C
211.56
43 3E EB 85
190.92
47 3F 40 00
48960
47 33 88 00
45960
47 20 C8 00
41160
48 03 5E 00
134520
00 00 00 00
0
00 00 00 00
0
00 00 00 00
0
00 00 00 00
0
00 00 00 00
0
00 00 00 00
0
00 00 00 00
0
00 00 00 00
0
00 00 00 00
0
00 00 00 00
0
00 00 00 00
0
00 00 00 00
0
00 00 00 00
0
47 8C 8E E6
71965.8
46 30 3B 33
11278.8
47 03 5C CD
33628.8
00 00 00 00
0
46 D3 63 33
27057.6
00 00 00 00
0
00 00 00 00
0
00 00 00 00
0
00 00 00 00
0
00 00 00 00
0
46 84 3E 66
16927.2
45 1E 19 9A
2529.6
46 09 8C CD
8803.2
00 00 00 00
0
45 AE D3 33
5594.4
00 00 00 00
0
00 00 00 00
0
00 00 00 00
0
00 00 00 00
0
00 00 00 00
0
47 A9 B7 80
86895
46 5C 9F 33
14119.8
47 22 D6 CD
41686.8
00 00 00 00
0
46 F2 DF 9A
31087.8
00 00 00 00
0
00 00 00 00
0
00 00 00 00
0
00 00 00 00
0
00 00 00 00
0
46 B2 70 66
22840.2
45 65 B9 9A
3675.6
46 3A EB 33
11962.8
00 00 00 00
0
45 E1 09 9A
7201.2
00 00 00 00
0
00 00 00 00
0
00 00 00 00
0
00 00 00 00
0
00 00 00 00
0
47 82 8D CD
66843.6
46 41 63 33
12376.8
46 D4 77 33
27195.6
00 00 00 00
0
46 D5 0E 66
27271.2
00 00 00 00
0
00 00 00 00
0
00 00 00 00
0
00 00 00 00
0
00 00 00 00
0
46 95 B4 66
19162.2
45 65 46 66
3668.4
45 FB B3 33
8054.4
00 00 00 00
0
45 E8 7B 33
7439.4
00 00 00 00
0
00 00 00 00
0
00 00 00 00
0
00 00 00 00
0
00 00 9B 96
5.5814e-41
00 40 A5 84
4236676
00 00 00 00
0
00 13 E8 4A
1304650
00 00 38 94
14484
232.948233.532233.551403.914404.433403.914218.16211.56190.92489604596041160134520000000000000071965.811278.833628.8027057.60000016927.22529.68803.205594.4000008689514119.841686.8031087.80000022840.23675.611962.807201.20000066843.612376.827195.6027271.20000019162.23668.48054.407439.400005.5814e-4118201711250938084236.67601304.6514.484insert into tbl_power_info_v2(P_A_DIANYA,P_B_DIANYA,P_C_DIANYA,P_UAB_XIANDIANYA,P_UBC_XIANDIANYA,P_UCA_XIANDIANYA,P_A_DIANLIU,P_B_DIANLIU,P_C_DIANLIU,P_A_YGGL,P_B_YGGL,P_C_YGGL,P_HXYGGL,P_A_WGGL,P_B_WGGL,P_C_WGGL,P_HXWGGL,P_A_SZGL,P_B_SZGL,P_C_SZGL,P_HXSZGL,P_A_GLYS,P_B_GLYS,P_C_GLYS,P_HXGLYS,P_DWPL,P_BY_KwhZ,P_BY_KwhJ,P_BY_KwhF,P_BY_KwhP,P_BY_KwhG,P_BY_HKwhZ,P_BY_HKwhJ,P_BY_HKwhF,P_BY_HKwhP,P_BY_HKwhG, P_BY_KvarhZ,P_BY_KvarhJ,P_BY_KvarhF,P_BY_KvarhP,P_BY_KvarhG, P_BY_HKvarhZ,P_BY_HKvarhJ,P_BY_HKvarhF,P_BY_HKvarhP,P_BY_HKvarhG, P_SY_KwhZ,P_SY_KwhJ,P_SY_KwhF,P_SY_KwhP,P_SY_KwhG, P_SY_HKwhZ,P_SY_HKwhJ,P_SY_HKwhF,P_SY_HKwhP,P_SY_HKwhG, P_SY_KvarhZ,P_SY_KvarhJ,P_SY_KvarhF,P_SY_KvarhP,P_SY_KvarhG, P_SY_HKvarhZ,P_SY_HKvarhJ,P_SY_HKvarhF,P_SY_HKvarhP,P_SY_HKvarhG, P_SSY_KwhZ,P_SSY_KwhJ,P_SSY_KwhF,P_SSY_KwhP,P_SSY_KwhG, P_SSY_HKwhZ,P_SSY_HKwhJ,P_SSY_HKwhF,P_SSY_HKwhP,P_SSY_HKwhG, P_SSY_KvarhZ,P_SSY_KvarhJ,P_SSY_KvarhF,P_SSY_KvarhP,P_SSY_KvarhG, P_SSY_HKvarhZ,P_SSY_HKvarhJ,P_SSY_HKvarhF,P_SSY_HKvarhP,P_SSY_HKvarhG,P_CODE,P_TIME,P_ZXYGDN,P_FXYGDN,P_ZXWGDN,P_FXWGDN)values(232.948,233.532,233.551,403.914,404.433,403.914,218.16,211.56,190.92,48960,45960,41160,134520,0,0,0,0,0,0,0,0,0,0,0,0,0,71965.8,11278.8,33628.8,0,27057.6,0,0,0,0,0,16927.2,2529.6,8803.2,0,5594.4,0,0,0,0,0,86895,14119.8,41686.8,0,31087.8,0,0,0,0,0,22840.2,3675.6,11962.8,0,7201.2,0,0,0,0,0,66843.6,12376.8,27195.6,0,27271.2,0,0,0,0,0,19162.2,3668.4,8054.4,0,7439.4,0,0,0,0,5.5814e-41,18,20171125093808,4236.676,0,1304.65,14.484)
写入成功读取完毕一个
write:13 03 01 0F 00 08 76 81
FB F1 ED
heart:FB F1 ED FF C4 A1 69 03 96 43 69 70 E5 43 69 8D 91 43 C9 F4 FE 43 CA 2C 6A 43 CA 00 00 00 00 00 00 3F 99 99 9A 40 05 1E B8 00 00 00 00 00 00 00 00 43 C8 00 00 44 0C 00 00 43 70 00 00 43 70 00 00 43 70 00 00 44 34 00 00 43 70 00 00 43 70 00 00 43 F0 00 00 44 5C 00 00 3E BA E1 48 3E 3C 6A 7F 3F 59 99 9A 3F 1C ED 91 42 48 FA 85 13 03 10 00 00 00 02 93 67 00 00 00 00 00 00 35 3F 00 00 42 50
write:14 03 00 38 00 34 C7 15
14 03 68
2043 69 4C 8B 43 69 E9 FC 43 69 DE FA 43 CA 42 8F 43 CA 85 1F 43 CA 37 8D 00 00 00 00 00 00 00 00 00 00 00 00 00 00 00 00 00 00 00 00 00 00 00 00 42 A0 00 00 00 00 00 00 00 00 00 00 00 00 00 00 00 00 00 00 00 00 00 00 00 00 00 00 42 A0 00 00 42 A0 00 00 00 00 00 00 00 00 00 00 3F 29 37 4C 3F 6E D9 17 42 48 40 B9
write:14 03 07 CF 00 78 76 66
77 77 77
heart:77 77 77 2E 75 73 72 2E 63 6E
14 03 F0
20totalsize 240
44 A0 0C CD 43 C7 99 9A 43 90 E6 66 00 00 00 00 44 13 D9 9A 00 00 00 00 00 00 00 00 00 00 00 00 00 00 00 00 00 00 00 00 40 0C CC CD 00 00 00 00 40 0C CC CD 00 00 00 00 00 00 00 00 43 94 4C CD 42 BE 66 66 42 7A 66 66 00 00 00 00 43 0A 99 9A 44 AC 73 33 43 E0 33 33 43 9A 66 66 00 00 00 00 44 1B 8C CD 00 00 00 00 00 00 00 00 00 00 00 00 00 00 00 00 00 00 00 00 40 99 99 9A 00 00 00 00 40 93 33 33 00 00 00 00 00 00 00 00 43 9B 80 00 42 D2 66 66 42 76 66 66 00 00 00 00 43 10 00 00 44 A4 D9 9A 43 ED 99 9A 43 78 66 66 00 00 00 00 44 14 C0 00 00 00 00 00 00 00 00 00 00 00 00 00 00 00 00 00 00 00 00 00 3F 4C CC CD 00 00 00 00 3F 4C CC CD 00 00 00 00 00 00 00 00 43 8C 66 66 42 D1 33 33 42 3B 33 33 00 00 00 00 43 01 26 97
write:14 03 01 0F 00 08 77 36
14 03 10
2000 04 1A 62 00 00 00 00 00 00 13 51 00 00 9B D9
43 69 4C 8B
233.299
43 69 E9 FC
233.914
43 69 DE FA
233.871
43 CA 42 8F
404.52
43 CA 85 1F
405.04
43 CA 37 8D
404.434
00 00 00 00
0
00 00 00 00
0
00 00 00 00
0
00 00 00 00
0
00 00 00 00
0
00 00 00 00
0
42 A0 00 00
80
00 00 00 00
0
00 00 00 00
0
00 00 00 00
0
00 00 00 00
0
00 00 00 00
0
00 00 00 00
0
42 A0 00 00
80
42 A0 00 00
80
00 00 00 00
0
00 00 00 00
0
3F 29 37 4C
0.661
3F 6E D9 17
0.933
42 48 40 B9
50.063206
44 A0 0C CD
1280.4
43 C7 99 9A
399.2
43 90 E6 66
289.8
00 00 00 00
0
44 13 D9 9A
591.4
00 00 00 00
0
00 00 00 00
0
00 00 00 00
0
00 00 00 00
0
00 00 00 00
0
40 0C CC CD
2.2
00 00 00 00
0
40 0C CC CD
2.2
00 00 00 00
0
00 00 00 00
0
43 94 4C CD
296.6
42 BE 66 66
95.2
42 7A 66 66
62.6
00 00 00 00
0
43 0A 99 9A
138.6
44 AC 73 33
1379.6
43 E0 33 33
448.4
43 9A 66 66
308.8
00 00 00 00
0
44 1B 8C CD
622.2
00 00 00 00
0
00 00 00 00
0
00 00 00 00
0
00 00 00 00
0
00 00 00 00
0
40 99 99 9A
4.8
00 00 00 00
0
40 93 33 33
4.6
00 00 00 00
0
00 00 00 00
0
43 9B 80 00
311
42 D2 66 66
105.2
42 76 66 66
61.6
00 00 00 00
0
43 10 00 00
144
44 A4 D9 9A
1318.8
43 ED 99 9A
475.2
43 78 66 66
248.4
00 00 00 00
0
44 14 C0 00
595
00 00 00 00
0
00 00 00 00
0
00 00 00 00
0
00 00 00 00
0
00 00 00 00
0
3F 4C CC CD
0.8
00 00 00 00
0
3F 4C CC CD
0.8
00 00 00 00
0
00 00 00 00
0
43 8C 66 66
280.8
42 D1 33 33
104.6
42 3B 33 33
46.8
00 00 00 00
0
43 01 26 97
129.15074
00 04 1A 62
268898
00 00 00 00
0
00 00 13 51
4945
00 00 9B D9
39897
233.299233.914233.871404.52405.04404.434000000800000008080000.6610.93350.0632061280.4399.2289.80591.4000002.202.200296.695.262.60138.61379.6448.4308.80622.2000004.804.600311105.261.601441318.8475.2248.40595000000.800.800280.8104.646.80129.150742020171125093926268.89804.94539.897insert into tbl_power_info_v2(P_A_DIANYA,P_B_DIANYA,P_C_DIANYA,P_UAB_XIANDIANYA,P_UBC_XIANDIANYA,P_UCA_XIANDIANYA,P_A_DIANLIU,P_B_DIANLIU,P_C_DIANLIU,P_A_YGGL,P_B_YGGL,P_C_YGGL,P_HXYGGL,P_A_WGGL,P_B_WGGL,P_C_WGGL,P_HXWGGL,P_A_SZGL,P_B_SZGL,P_C_SZGL,P_HXSZGL,P_A_GLYS,P_B_GLYS,P_C_GLYS,P_HXGLYS,P_DWPL,P_BY_KwhZ,P_BY_KwhJ,P_BY_KwhF,P_BY_KwhP,P_BY_KwhG,P_BY_HKwhZ,P_BY_HKwhJ,P_BY_HKwhF,P_BY_HKwhP,P_BY_HKwhG, P_BY_KvarhZ,P_BY_KvarhJ,P_BY_KvarhF,P_BY_KvarhP,P_BY_KvarhG, P_BY_HKvarhZ,P_BY_HKvarhJ,P_BY_HKvarhF,P_BY_HKvarhP,P_BY_HKvarhG, P_SY_KwhZ,P_SY_KwhJ,P_SY_KwhF,P_SY_KwhP,P_SY_KwhG, P_SY_HKwhZ,P_SY_HKwhJ,P_SY_HKwhF,P_SY_HKwhP,P_SY_HKwhG, P_SY_KvarhZ,P_SY_KvarhJ,P_SY_KvarhF,P_SY_KvarhP,P_SY_KvarhG, P_SY_HKvarhZ,P_SY_HKvarhJ,P_SY_HKvarhF,P_SY_HKvarhP,P_SY_HKvarhG, P_SSY_KwhZ,P_SSY_KwhJ,P_SSY_KwhF,P_SSY_KwhP,P_SSY_KwhG, P_SSY_HKwhZ,P_SSY_HKwhJ,P_SSY_HKwhF,P_SSY_HKwhP,P_SSY_HKwhG, P_SSY_KvarhZ,P_SSY_KvarhJ,P_SSY_KvarhF,P_SSY_KvarhP,P_SSY_KvarhG, P_SSY_HKvarhZ,P_SSY_HKvarhJ,P_SSY_HKvarhF,P_SSY_HKvarhP,P_SSY_HKvarhG,P_CODE,P_TIME,P_ZXYGDN,P_FXYGDN,P_ZXWGDN,P_FXWGDN)values(233.299,233.914,233.871,404.52,405.04,404.434,0,0,0,0,0,0,80,0,0,0,0,0,0,80,80,0,0,0.661,0.933,50.063206,1280.4,399.2,289.8,0,591.4,0,0,0,0,0,2.2,0,2.2,0,0,296.6,95.2,62.6,0,138.6,1379.6,448.4,308.8,0,622.2,0,0,0,0,0,4.8,0,4.6,0,0,311,105.2,61.6,0,144,1318.8,475.2,248.4,0,595,0,0,0,0,0,0.8,0,0.8,0,0,280.8,104.6,46.8,0,129.15074,20,20171125093926,268.898,0,4.945,39.897)
写入成功读取完毕一个
write:15 03 00 38 00 34 C6 C4
15 03 68
2143 69 6F DF 43 69 B0 62 43 69 B0 62 43 CA 37 6D 43 CA 4D B2 43 CA 37 6D 00 00 00 00 00 00 00 00 00 00 00 00 00 00 00 00 00 00 00 00 00 00 00 00 00 00 00 00 00 00 00 00 00 00 00 00 00 00 00 00 00 00 00 00 00 00 00 00 00 00 00 00 00 00 00 00 00 00 00 00 00 00 00 00 00 00 00 00 00 00 00 00 00 00 00 00 42 48 97 99
write:15 03 07 CF 00 78 77 B7
write:15 03 01 0F 00 08 76 E7
write:16 03 00 38 00 34 C6 F7
write:16 03 07 CF 00 78 77 84
77 77 77
heart:77 77 77 2E 75 73 72 2E 63 6E
write:16 03 01 0F 00 08 76 D4
received messag ?->? 
 124.160.213.198:43071 172.16.246.153:6002
write:12 03 00 38 00 34 C7 73
15 03 F0
21totalsize 240
40 CC CC CD 00 00 00 00 40 A6 66 66 00 00 00 00 3F 99 99 9A 00 00 00 00 00 00 00 00 00 00 00 00 00 00 00 00 00 00 00 00 3E CC CC CD 00 00 00 00 3E CC CC CD 00 00 00 00 00 00 00 00 00 00 00 00 00 00 00 00 00 00 00 00 00 00 00 00 00 00 00 00 40 8C CC CD 00 00 00 00 40 66 66 66 00 00 00 00 3F 4C CC CD 00 00 00 00 00 00 00 00 00 00 00 00 00 00 00 00 00 00 00 00 00 00 00 00 00 00 00 00 00 00 00 00 00 00 00 00 00 00 00 00 00 00 00 00 00 00 00 00 00 00 00 00 00 00 00 00 00 00 00 00 42 1E 66 66 00 00 00 00 41 F3 33 33 00 00 00 00 41 13 33 33 00 00 00 00 00 00 00 00 00 00 00 00 00 00 00 00 00 00 00 00 42 D8 00 00 00 00 00 00 42 A3 33 33 00 00 00 00 41 D0 00 00 00 00 00 00 00 00 00 00 00 00 00 00 00 00 00 00 00 00 7F 8C
12 03 68
1843 68 EF 5C 43 69 46 A8 43 69 94 39 43 C9 D3 B6 43 CA 16 46 43 C9 F4 FE 43 64 99 9A 43 61 1E B8 43 26 AE 14 47 47 B0 00 47 44 68 00 47 0E 08 00 48 06 88 00 46 37 C0 00 46 37 C0 00 46 21 40 00 47 04 30 00 47 50 20 00 47 4C D8 00 47 18 58 00 48 0A 84 00 3F 75 C2 8F 3F 74 FD F4 3F 6F 1A A0 3F 78 93 75 42 48 86 7F
write:17 03 00 38 00 34 C7 26
write:12 03 07 CF 00 78 76 00
12 03 F0
18totalsize 240
47 8C 94 00 46 30 3B 33 47 03 67 00 00 00 00 00 46 D3 63 33 00 00 00 00 00 00 00 00 00 00 00 00 00 00 00 00 00 00 00 00 46 84 44 66 45 1E 19 9A 46 09 96 66 00 00 00 00 45 AE D3 33 00 00 00 00 00 00 00 00 00 00 00 00 00 00 00 00 00 00 00 00 47 A9 B7 80 46 5C 9F 33 47 22 D6 CD 00 00 00 00 46 F2 DF 9A 00 00 00 00 00 00 00 00 00 00 00 00 00 00 00 00 00 00 00 00 46 B2 70 66 45 65 B9 9A 46 3A EB 33 00 00 00 00 45 E1 09 9A 00 00 00 00 00 00 00 00 00 00 00 00 00 00 00 00 00 00 00 00 47 82 8D CD 46 41 63 33 46 D4 77 33 00 00 00 00 46 D5 0E 66 00 00 00 00 00 00 00 00 00 00 00 00 00 00 00 00 00 00 00 00 46 95 B4 66 45 65 46 66 45 FB B3 33 00 00 00 00 45 E8 7B 33 00 00 00 00 00 00 00 00 00 00 00 00 00 00 00 00 00 00 15 4A
write:17 03 07 CF 00 78 76 55
write:12 03 01 0F 00 08 77 50
77 77 77
heart:77 77 77 2E 75 73 72 2E 63 6E
12 03 10
1800 40 A5 D3 00 00 00 00 00 13 E8 5E 00 00 63 E5
43 68 EF 5C
232.935
43 69 46 A8
233.276
43 69 94 39
233.579
43 C9 D3 B6
403.654
43 CA 16 46
404.174
43 C9 F4 FE
403.914
43 64 99 9A
228.6
43 61 1E B8
225.12
43 26 AE 14
166.68
47 47 B0 00
51120
47 44 68 00
50280
47 0E 08 00
36360
48 06 88 00
137760
46 37 C0 00
11760
46 37 C0 00
11760
46 21 40 00
10320
47 04 30 00
33840
47 50 20 00
53280
47 4C D8 00
52440
47 18 58 00
39000
48 0A 84 00
141840
3F 75 C2 8F
0.96
3F 74 FD F4
0.957
3F 6F 1A A0
0.934
3F 78 93 75
0.971
42 48 86 7F
50.131344
47 8C 94 00
71976
46 30 3B 33
11278.8
47 03 67 00
33639
00 00 00 00
0
46 D3 63 33
27057.6
00 00 00 00
0
00 00 00 00
0
00 00 00 00
0
00 00 00 00
0
00 00 00 00
0
46 84 44 66
16930.2
45 1E 19 9A
2529.6
46 09 96 66
8805.6
00 00 00 00
0
45 AE D3 33
5594.4
00 00 00 00
0
00 00 00 00
0
00 00 00 00
0
00 00 00 00
0
00 00 00 00
0
47 A9 B7 80
86895
46 5C 9F 33
14119.8
47 22 D6 CD
41686.8
00 00 00 00
0
46 F2 DF 9A
31087.8
00 00 00 00
0
00 00 00 00
0
00 00 00 00
0
00 00 00 00
0
00 00 00 00
0
46 B2 70 66
22840.2
45 65 B9 9A
3675.6
46 3A EB 33
11962.8
00 00 00 00
0
45 E1 09 9A
7201.2
00 00 00 00
0
00 00 00 00
0
00 00 00 00
0
00 00 00 00
0
00 00 00 00
0
47 82 8D CD
66843.6
46 41 63 33
12376.8
46 D4 77 33
27195.6
00 00 00 00
0
46 D5 0E 66
27271.2
00 00 00 00
0
00 00 00 00
0
00 00 00 00
0
00 00 00 00
0
00 00 00 00
0
46 95 B4 66
19162.2
45 65 46 66
3668.4
45 FB B3 33
8054.4
00 00 00 00
0
45 E8 7B 33
7439.4
00 00 00 00
0
00 00 00 00
0
00 00 00 00
0
00 00 00 00
0
00 00 15 4A
7.637e-42
00 40 A5 D3
4236755
00 00 00 00
0
00 13 E8 5E
1304670
00 00 63 E5
25573
232.935233.276233.579403.654404.174403.914228.6225.12166.68511205028036360137760117601176010320338405328052440390001418400.960.9570.9340.97150.1313447197611278.833639027057.60000016930.22529.68805.605594.4000008689514119.841686.8031087.80000022840.23675.611962.807201.20000066843.612376.827195.6027271.20000019162.23668.48054.407439.400007.637e-4218201711250942134236.75501304.6725.573insert into tbl_power_info_v2(P_A_DIANYA,P_B_DIANYA,P_C_DIANYA,P_UAB_XIANDIANYA,P_UBC_XIANDIANYA,P_UCA_XIANDIANYA,P_A_DIANLIU,P_B_DIANLIU,P_C_DIANLIU,P_A_YGGL,P_B_YGGL,P_C_YGGL,P_HXYGGL,P_A_WGGL,P_B_WGGL,P_C_WGGL,P_HXWGGL,P_A_SZGL,P_B_SZGL,P_C_SZGL,P_HXSZGL,P_A_GLYS,P_B_GLYS,P_C_GLYS,P_HXGLYS,P_DWPL,P_BY_KwhZ,P_BY_KwhJ,P_BY_KwhF,P_BY_KwhP,P_BY_KwhG,P_BY_HKwhZ,P_BY_HKwhJ,P_BY_HKwhF,P_BY_HKwhP,P_BY_HKwhG, P_BY_KvarhZ,P_BY_KvarhJ,P_BY_KvarhF,P_BY_KvarhP,P_BY_KvarhG, P_BY_HKvarhZ,P_BY_HKvarhJ,P_BY_HKvarhF,P_BY_HKvarhP,P_BY_HKvarhG, P_SY_KwhZ,P_SY_KwhJ,P_SY_KwhF,P_SY_KwhP,P_SY_KwhG, P_SY_HKwhZ,P_SY_HKwhJ,P_SY_HKwhF,P_SY_HKwhP,P_SY_HKwhG, P_SY_KvarhZ,P_SY_KvarhJ,P_SY_KvarhF,P_SY_KvarhP,P_SY_KvarhG, P_SY_HKvarhZ,P_SY_HKvarhJ,P_SY_HKvarhF,P_SY_HKvarhP,P_SY_HKvarhG, P_SSY_KwhZ,P_SSY_KwhJ,P_SSY_KwhF,P_SSY_KwhP,P_SSY_KwhG, P_SSY_HKwhZ,P_SSY_HKwhJ,P_SSY_HKwhF,P_SSY_HKwhP,P_SSY_HKwhG, P_SSY_KvarhZ,P_SSY_KvarhJ,P_SSY_KvarhF,P_SSY_KvarhP,P_SSY_KvarhG, P_SSY_HKvarhZ,P_SSY_HKvarhJ,P_SSY_HKvarhF,P_SSY_HKvarhP,P_SSY_HKvarhG,P_CODE,P_TIME,P_ZXYGDN,P_FXYGDN,P_ZXWGDN,P_FXWGDN)values(232.935,233.276,233.579,403.654,404.174,403.914,228.6,225.12,166.68,51120,50280,36360,137760,11760,11760,10320,33840,53280,52440,39000,141840,0.96,0.957,0.934,0.971,50.131344,71976,11278.8,33639,0,27057.6,0,0,0,0,0,16930.2,2529.6,8805.6,0,5594.4,0,0,0,0,0,86895,14119.8,41686.8,0,31087.8,0,0,0,0,0,22840.2,3675.6,11962.8,0,7201.2,0,0,0,0,0,66843.6,12376.8,27195.6,0,27271.2,0,0,0,0,0,19162.2,3668.4,8054.4,0,7439.4,0,0,0,0,7.637e-42,18,20171125094213,4236.755,0,1304.67,25.573)
写入成功读取完毕一个
BF EF F7
heart:BF EF F7 C4 FA FC CE E6 FD FF F3 E5 FE FF CC 97 FE FC
write:17 03 01 0F 00 08 77 05
17 03 10
2300 03 E9 55 00 00 00 00 00 00 E7 6F 00 00 25 57
write:13 03 00 38 00 34 C6 A2
13 03 68
1943 69 07 2B 43 69 45 E3 43 69 62 4E 43 C9 DE D9 43 CA 00 00 43 C9 E9 DB 00 00 00 00 3F 99 99 9A 40 05 1E B8 00 00 00 00 00 00 00 00 43 C8 00 00 44 0C 00 00 43 70 00 00 43 70 00 00 43 70 00 00 44 34 00 00 43 70 00 00 43 70 00 00 43 F0 00 00 44 5C 00 00 3E BB 64 5A 3E 42 8F 5C 3F 59 DB 23 3F 1D B2 2D 42 48 2E ED
write:18 03 00 38 00 34 C7 D9
write:13 03 07 CF 00 78 77 D1
18 03 68
2443 68 DE 35 43 69 31 68 43 69 25 A2 43 C9 FF BF FD CD DE D9 43 C9 BD 91 3F 75 C2 8F 3F 4C CC CD 00 00 00 00 42 F0 00 00 42 A0 00 00 42 A0 00 00 43 A0 00 00 00 00 00 00 00 00 00 00 00 00 00 00 00 00 00 00 43 70 00 00 43 48 00 00 42 F0 00 00 43 A0 00 00 3F 1E 76 C9 3F 05 A1 CB 3F 49 78 00 00 00 00 00 00 00 00 00
D5 3F 7B
heart:D5 3F 7B E7 6D 42 47 55 8F
write:18 03 07 CF 00 78 76 AA
write:13 03 01 0F 00 08 76 81
13 03 10
1900 02 93 67 00 00 00 00 00 00 35 3F 00 00 42 50
18 03 F0
24totalsize 240
44 5F 4C CD 43 54 33 33 43 F2 E6 66 00 00 00 00 43 42 CC CD 00 00 00 00 00 00 00 00 00 00 00 00 00 00 00 00 00 00 00 00 43 33 99 9A 41 DE 66 66 42 D4 00 00 00 00 00 00 42 36 66 66 41 D3 33 33 40 F3 33 33 41 73 33 33 00 00 00 00 40 66 66 66 44 19 99 9A 43 00 00 00 43 A7 CC CD 00 00 00 00 43 16 99 9A 00 00 00 00 00 00 00 00 00 00 00 00 00 00 00 00 00 00 00 00 42 45 99 9A 3F 80 00 00 42 09 99 9A 00 00 00 00 41 60 00 00 42 0A 66 66 41 00 00 00 41 AC CC CD 00 00 00 00 40 99 99 9A 44 3F E6 66 43 0C 33 33 43 D9 E6 66 00 00 00 00 43 3F 66 66 00 00 00 00 00 00 00 00 00 00 00 00 00 00 00 00 00 00 00 00 43 A3 99 9A 41 A8 00 00 43 6C 99 9A 00 00 00 00 42 8A CC CD 42 1B 33 33 41 23 33 33 41 A6 66 66 00 00 00 00 40 F9 10 02
write:18 03 01 0F 00 08 77 FA
write:14 03 00 38 00 34 C7 15
18 03 10
2400 02 02 01 00 00 00 00 00 00 C6 23 00 00 C8 3C
43 68 DE 35
232.868
43 69 31 68
233.193
43 69 25 A2
233.147
43 C9 FF BF
403.99802
FD CD DE D9
-3.4206104e+37
43 C9 BD 91
403.481
3F 75 C2 8F
0.96
3F 4C CC CD
0.8
00 00 00 00
0
42 F0 00 00
120
42 A0 00 00
80
42 A0 00 00
80
43 A0 00 00
320
00 00 00 00
0
00 00 00 00
0
00 00 00 00
0
00 00 00 00
0
43 70 00 00
240
43 48 00 00
200
42 F0 00 00
120
43 A0 00 00
320
3F 1E 76 C9
0.619
3F 05 A1 CB
0.522
3F 49 78 00
0.7869873
00 00 00 00
0
00 00 00 00
0
44 5F 4C CD
893.2
43 54 33 33
212.2
43 F2 E6 66
485.8
00 00 00 00
0
43 42 CC CD
194.8
00 00 00 00
0
00 00 00 00
0
00 00 00 00
0
00 00 00 00
0
00 00 00 00
0
43 33 99 9A
179.6
41 DE 66 66
27.8
42 D4 00 00
106
00 00 00 00
0
42 36 66 66
45.6
41 D3 33 33
26.4
40 F3 33 33
7.6
41 73 33 33
15.2
00 00 00 00
0
40 66 66 66
3.6
44 19 99 9A
614.4
43 00 00 00
128
43 A7 CC CD
335.6
00 00 00 00
0
43 16 99 9A
150.6
00 00 00 00
0
00 00 00 00
0
00 00 00 00
0
00 00 00 00
0
00 00 00 00
0
42 45 99 9A
49.4
3F 80 00 00
1
42 09 99 9A
34.4
00 00 00 00
0
41 60 00 00
14
42 0A 66 66
34.6
41 00 00 00
8
41 AC CC CD
21.6
00 00 00 00
0
40 99 99 9A
4.8
44 3F E6 66
767.6
43 0C 33 33
140.2
43 D9 E6 66
435.8
00 00 00 00
0
43 3F 66 66
191.4
00 00 00 00
0
00 00 00 00
0
00 00 00 00
0
00 00 00 00
0
00 00 00 00
0
43 A3 99 9A
327.2
41 A8 00 00
21
43 6C 99 9A
236.6
00 00 00 00
0
42 8A CC CD
69.4
42 1B 33 33
38.8
41 23 33 33
10.2
41 A6 66 66
20.8
00 00 00 00
0
40 F9 10 02
7.783204
00 02 02 01
131585
00 00 00 00
0
00 00 C6 23
50723
00 00 C8 3C
51260
232.868233.193233.147403.99802-3.4206104e+37403.4810.960.80120808032000002402001203200.6190.5220.786987300893.2212.2485.80194.800000179.627.8106045.626.47.615.203.6614.4128335.60150.60000049.4134.401434.6821.604.8767.6140.2435.80191.400000327.221236.6069.438.810.220.807.7832042420171125094318131.585050.72351.26insert into tbl_power_info_v2(P_A_DIANYA,P_B_DIANYA,P_C_DIANYA,P_UAB_XIANDIANYA,P_UBC_XIANDIANYA,P_UCA_XIANDIANYA,P_A_DIANLIU,P_B_DIANLIU,P_C_DIANLIU,P_A_YGGL,P_B_YGGL,P_C_YGGL,P_HXYGGL,P_A_WGGL,P_B_WGGL,P_C_WGGL,P_HXWGGL,P_A_SZGL,P_B_SZGL,P_C_SZGL,P_HXSZGL,P_A_GLYS,P_B_GLYS,P_C_GLYS,P_HXGLYS,P_DWPL,P_BY_KwhZ,P_BY_KwhJ,P_BY_KwhF,P_BY_KwhP,P_BY_KwhG,P_BY_HKwhZ,P_BY_HKwhJ,P_BY_HKwhF,P_BY_HKwhP,P_BY_HKwhG, P_BY_KvarhZ,P_BY_KvarhJ,P_BY_KvarhF,P_BY_KvarhP,P_BY_KvarhG, P_BY_HKvarhZ,P_BY_HKvarhJ,P_BY_HKvarhF,P_BY_HKvarhP,P_BY_HKvarhG, P_SY_KwhZ,P_SY_KwhJ,P_SY_KwhF,P_SY_KwhP,P_SY_KwhG, P_SY_HKwhZ,P_SY_HKwhJ,P_SY_HKwhF,P_SY_HKwhP,P_SY_HKwhG, P_SY_KvarhZ,P_SY_KvarhJ,P_SY_KvarhF,P_SY_KvarhP,P_SY_KvarhG, P_SY_HKvarhZ,P_SY_HKvarhJ,P_SY_HKvarhF,P_SY_HKvarhP,P_SY_HKvarhG, P_SSY_KwhZ,P_SSY_KwhJ,P_SSY_KwhF,P_SSY_KwhP,P_SSY_KwhG, P_SSY_HKwhZ,P_SSY_HKwhJ,P_SSY_HKwhF,P_SSY_HKwhP,P_SSY_HKwhG, P_SSY_KvarhZ,P_SSY_KvarhJ,P_SSY_KvarhF,P_SSY_KvarhP,P_SSY_KvarhG, P_SSY_HKvarhZ,P_SSY_HKvarhJ,P_SSY_HKvarhF,P_SSY_HKvarhP,P_SSY_HKvarhG,P_CODE,P_TIME,P_ZXYGDN,P_FXYGDN,P_ZXWGDN,P_FXWGDN)values(232.868,233.193,233.147,403.99802,-3.4206104e+37,403.481,0.96,0.8,0,120,80,80,320,0,0,0,0,240,200,120,320,0.619,0.522,0.7869873,0,0,893.2,212.2,485.8,0,194.8,0,0,0,0,0,179.6,27.8,106,0,45.6,26.4,7.6,15.2,0,3.6,614.4,128,335.6,0,150.6,0,0,0,0,0,49.4,1,34.4,0,14,34.6,8,21.6,0,4.8,767.6,140.2,435.8,0,191.4,0,0,0,0,0,327.2,21,236.6,0,69.4,38.8,10.2,20.8,0,7.783204,24,20171125094318,131.585,0,50.723,51.26)
写入成功读取完毕一个
14 03 68
2043 69 15 81 43 69 8D 50 43 69 94 BC 43 CA 00 00 43 CA 37 6D 43 CA 00 00 00 00 00 00 00 00 00 00 00 00 00 00 00 00 00 00 00 00 00 00 00 00 00 00 42 A0 00 00 00 00 00 00 00 00 00 00 00 00 00 00 00 00 00 00 00 00 00 00 00 00 00 00 42 A0 00 00 42 A0 00 00 00 00 00 00 00 00 00 00 3F 2A 7E FA 3F 6E 56 04 42 47 25 82
write:19 03 00 38 00 34 C6 08
write:14 03 07 CF 00 78 76 66
77 77 77
heart:77 77 77 2E 75 73 72 2E 63 6E
write:19 03 07 CF 00 78 77 7B
FB F1 ED
heart:FB F1 ED FF 88 4B 68 A7 AE 43 68 E4 9C 43 69 03 D7 43 C9 86 25 43 C9 B2 6F 43 C9 9C 4A 3F 6B 85 1F 3F 8A 3D 71 3F AE 14 7B 43 20 00 00 43 48 00 00 43 70 00 00 44 16 00 00 42 F0 00 00 00 00 00 00 42 F0 00 00 43 70 00 00 43 48 00 00 43 8C 00 00 43 A0 00 00 44 20 00 00 3F 50 62 4E 3F 41 CA C1 3F 42 0C 4A 3F 6F 5C 29 42 48 C1 40
write:14 03 01 0F 00 08 77 36
write:19 03 01 0F 00 08 76 2B
write:15 03 00 38 00 34 C6 C4
14 03 F0
20totalsize 240
44 A0 0C CD 43 C7 99 9A 43 90 E6 66 00 00 00 00 44 13 D9 9A 00 00 00 00 00 00 00 00 00 00 00 00 00 00 00 00 00 00 00 00 40 0C CC CD 00 00 00 00 40 0C CC CD 00 00 00 00 00 00 00 00 43 94 4C CD 42 BE 66 66 42 7A 66 66 00 00 00 00 43 0A 99 9A 44 AC 73 33 43 E0 33 33 43 9A 66 66 00 00 00 00 44 1B 8C CD 00 00 00 00 00 00 00 00 00 00 00 00 00 00 00 00 00 00 00 00 40 99 99 9A 00 00 00 00 40 93 33 33 00 00 00 00 00 00 00 00 43 9B 80 00 42 D2 66 66 42 76 66 66 00 00 00 00 43 10 00 00 44 A4 D9 9A 43 ED 99 9A 43 78 66 66 00 00 00 00 44 14 C0 00 00 00 00 00 00 00 00 00 00 00 00 00 00 00 00 00 00 00 00 00 3F 4C CC CD 00 00 00 00 3F 4C CC CD 00 00 00 00 00 00 00 00 43 8C 66 66 42 D1 33 33 42 3B 33 33 00 00 00 00 43 01 26 97
14 03 10
2000 04 1A 63 00 00 00 00 00 00 13 51 00 00 9F 25
43 69 15 81
233.084
43 69 8D 50
233.552
43 69 94 BC
233.581
43 CA 00 00
404
43 CA 37 6D
404.433
43 CA 00 00
404
00 00 00 00
0
00 00 00 00
0
00 00 00 00
0
00 00 00 00
0
00 00 00 00
0
00 00 00 00
0
42 A0 00 00
80
00 00 00 00
0
00 00 00 00
0
00 00 00 00
0
00 00 00 00
0
00 00 00 00
0
00 00 00 00
0
42 A0 00 00
80
42 A0 00 00
80
00 00 00 00
0
00 00 00 00
0
3F 2A 7E FA
0.666
3F 6E 56 04
0.931
42 47 25 82
49.78663
44 A0 0C CD
1280.4
43 C7 99 9A
399.2
43 90 E6 66
289.8
00 00 00 00
0
44 13 D9 9A
591.4
00 00 00 00
0
00 00 00 00
0
00 00 00 00
0
00 00 00 00
0
00 00 00 00
0
40 0C CC CD
2.2
00 00 00 00
0
40 0C CC CD
2.2
00 00 00 00
0
00 00 00 00
0
43 94 4C CD
296.6
42 BE 66 66
95.2
42 7A 66 66
62.6
00 00 00 00
0
43 0A 99 9A
138.6
44 AC 73 33
1379.6
43 E0 33 33
448.4
43 9A 66 66
308.8
00 00 00 00
0
44 1B 8C CD
622.2
00 00 00 00
0
00 00 00 00
0
00 00 00 00
0
00 00 00 00
0
00 00 00 00
0
40 99 99 9A
4.8
00 00 00 00
0
40 93 33 33
4.6
00 00 00 00
0
00 00 00 00
0
43 9B 80 00
311
42 D2 66 66
105.2
42 76 66 66
61.6
00 00 00 00
0
43 10 00 00
144
44 A4 D9 9A
1318.8
43 ED 99 9A
475.2
43 78 66 66
248.4
00 00 00 00
0
44 14 C0 00
595
00 00 00 00
0
00 00 00 00
0
00 00 00 00
0
00 00 00 00
0
00 00 00 00
0
3F 4C CC CD
0.8
00 00 00 00
0
3F 4C CC CD
0.8
00 00 00 00
0
00 00 00 00
0
43 8C 66 66
280.8
42 D1 33 33
104.6
42 3B 33 33
46.8
00 00 00 00
0
43 01 26 97
129.15074
00 04 1A 63
268899
00 00 00 00
0
00 00 13 51
4945
00 00 9F 25
40741
233.084233.552233.581404404.433404000000800000008080000.6660.93149.786631280.4399.2289.80591.4000002.202.200296.695.262.60138.61379.6448.4308.80622.2000004.804.600311105.261.601441318.8475.2248.40595000000.800.800280.8104.646.80129.150742020171125094419268.89904.94540.741insert into tbl_power_info_v2(P_A_DIANYA,P_B_DIANYA,P_C_DIANYA,P_UAB_XIANDIANYA,P_UBC_XIANDIANYA,P_UCA_XIANDIANYA,P_A_DIANLIU,P_B_DIANLIU,P_C_DIANLIU,P_A_YGGL,P_B_YGGL,P_C_YGGL,P_HXYGGL,P_A_WGGL,P_B_WGGL,P_C_WGGL,P_HXWGGL,P_A_SZGL,P_B_SZGL,P_C_SZGL,P_HXSZGL,P_A_GLYS,P_B_GLYS,P_C_GLYS,P_HXGLYS,P_DWPL,P_BY_KwhZ,P_BY_KwhJ,P_BY_KwhF,P_BY_KwhP,P_BY_KwhG,P_BY_HKwhZ,P_BY_HKwhJ,P_BY_HKwhF,P_BY_HKwhP,P_BY_HKwhG, P_BY_KvarhZ,P_BY_KvarhJ,P_BY_KvarhF,P_BY_KvarhP,P_BY_KvarhG, P_BY_HKvarhZ,P_BY_HKvarhJ,P_BY_HKvarhF,P_BY_HKvarhP,P_BY_HKvarhG, P_SY_KwhZ,P_SY_KwhJ,P_SY_KwhF,P_SY_KwhP,P_SY_KwhG, P_SY_HKwhZ,P_SY_HKwhJ,P_SY_HKwhF,P_SY_HKwhP,P_SY_HKwhG, P_SY_KvarhZ,P_SY_KvarhJ,P_SY_KvarhF,P_SY_KvarhP,P_SY_KvarhG, P_SY_HKvarhZ,P_SY_HKvarhJ,P_SY_HKvarhF,P_SY_HKvarhP,P_SY_HKvarhG, P_SSY_KwhZ,P_SSY_KwhJ,P_SSY_KwhF,P_SSY_KwhP,P_SSY_KwhG, P_SSY_HKwhZ,P_SSY_HKwhJ,P_SSY_HKwhF,P_SSY_HKwhP,P_SSY_HKwhG, P_SSY_KvarhZ,P_SSY_KvarhJ,P_SSY_KvarhF,P_SSY_KvarhP,P_SSY_KvarhG, P_SSY_HKvarhZ,P_SSY_HKvarhJ,P_SSY_HKvarhF,P_SSY_HKvarhP,P_SSY_HKvarhG,P_CODE,P_TIME,P_ZXYGDN,P_FXYGDN,P_ZXWGDN,P_FXWGDN)values(233.084,233.552,233.581,404,404.433,404,0,0,0,0,0,0,80,0,0,0,0,0,0,80,80,0,0,0.666,0.931,49.78663,1280.4,399.2,289.8,0,591.4,0,0,0,0,0,2.2,0,2.2,0,0,296.6,95.2,62.6,0,138.6,1379.6,448.4,308.8,0,622.2,0,0,0,0,0,4.8,0,4.6,0,0,311,105.2,61.6,0,144,1318.8,475.2,248.4,0,595,0,0,0,0,0,0.8,0,0.8,0,0,280.8,104.6,46.8,0,129.15074,20,20171125094419,268.899,0,4.945,40.741)
写入成功读取完毕一个
19 03 10
2500 00 F3 70 00 00 00 00 00 00 06 97 00 00 9E 5B
15 03 68
2143 69 0B 85 43 69 60 C5 43 69 54 39 43 C9 E9 DB 43 CA 0B 23 43 C9 E9 DB 00 00 00 00 00 00 00 00 00 00 00 00 00 00 00 00 00 00 00 00 00 00 00 00 00 00 00 00 00 00 00 00 00 00 00 00 00 00 00 00 00 00 00 00 00 00 00 00 00 00 00 00 00 00 00 00 00 00 00 00 00 00 00 00 00 00 00 00 00 00 00 00 00 00 00 00 42 48 F5 3E
write:1A 03 00 38 00 34 C6 3B
1A 03 68
2643 69 33 F8 43 69 B6 87 43 69 C3 54 43 CA 2C 6A 43 CA 63 D7 43 CA 2C 6A 40 0A 3D 71 40 21 47 AE 40 8E 14 7B 43 70 00 00 43 B4 00 00 44 16 00 00 44 96 00 00 43 B4 00 00 00 00 00 00 00 00 00 00 00 00 00 00 00 00 00 00 00 00 00 00 00 00 00 00 00 00 00 00 00 00 00 00 00 00 00 00 00 00 00 00 00 00 00 00 00 00 00 00
write:15 03 07 CF 00 78 77 B7
43 F0 00
heart:43 F0 00 00 44 16 00 00 44 B4 00 00 43 F0 00 00 44 16 00 00 44 87 00 00 44 F0 00 00 3E C5 1E B8 3F 16 C8 B4 3F 19 16 87 3F 1E 76 C9 42 47 53 16
15 03 F0
21totalsize 240
40 CC CC CD 00 00 00 00 40 A6 66 66 00 00 00 00 3F 99 99 9A 00 00 00 00 00 00 00 00 00 00 00 00 00 00 00 00 00 00 00 00 3E CC CC CD 00 00 00 00 3E CC CC CD 00 00 00 00 00 00 00 00 00 00 00 00 00 00 00 00 00 00 00 00 00 00 00 00 00 00 00 00 40 8C CC CD 00 00 00 00 40 66 66 66 00 00 00 00 3F 4C CC CD 00 00 00 00 00 00 00 00 00 00 00 00 00 00 00 00 00 00 00 00 00 00 00 00 00 00 00 00 00 00 00 00 00 00 00 00 00 00 00 00 00 00 00 00 00 00 00 00 00 00 00 00 00 00 00 00 00 00 00 00 42 1E 66 66 00 00 00 00 41 F3 33 33 00 00 00 00 41 13 33 33 00 00 00 00 00 00 00 00 00 00 00 00 00 00 00 00 00 00 00 00 42 D8 00 00 00 00 00 00 42 A3 33 33 00 00 00 00 41 D0 00 00 00 00 00 00 00 00 00 00 00 00 00 00 00 00 00 00 00 00 7F 8C
write:1A 03 07 CF 00 78 77 48
write:15 03 01 0F 00 08 76 E7
77 77 77
heart:77 77 77 2E 75 73 72 2E 63 6E
1A 03 F0
26totalsize 240
44 DE E6 66 43 39 66 66 44 7A F3 33 00 00 00 00 44 14 59 9A 00 00 00 00 00 00 00 00 00 00 00 00 00 00 00 00 00 00 00 00 42 97 33 33 40 99 99 9A 42 1C 00 00 00 00 00 00 41 F9 99 9A 44 54 66 66 43 07 99 9A 43 B5 CC CD 00 00 00 00 43 AE E6 66 44 AC E0 00 43 0E CC CD 44 4A 33 33 00 00 00 00 43 D7 19 9A 00 00 00 00 00 00 00 00 00 00 00 00 00 00 00 00 00 00 00 00 40 C0 00 00 3F E6 66 66 40 19 99 9A 00 00 00 00 3F 99 99 9A 44 70 00 00 43 11 33 33 43 D5 4C CD 00 00 00 00 43 C1 CC CD 44 E4 00 00 42 EE CC CD 44 94 20 00 00 00 00 00 44 01 E6 66 00 00 00 00 00 00 00 00 00 00 00 00 00 00 00 00 00 00 00 00 42 0B 33 33 00 00 00 00 41 D3 33 33 00 00 00 00 41 06 66 66 44 3E F3 33 42 F7 33 33 43 9F E6 66 00 00 00 00 43 9F 5F 88
write:1A 03 01 0F 00 08 76 18
1A 03 10
2600 02 87 9D 00 00 00 00 00 00 3D F8 00 00 3C BB
43 69 33 F8
233.203
43 69 B6 87
233.713
43 69 C3 54
233.763
43 CA 2C 6A
404.347
43 CA 63 D7
404.78
43 CA 2C 6A
404.347
40 0A 3D 71
2.16
40 21 47 AE
2.52
40 8E 14 7B
4.44
43 70 00 00
240
43 B4 00 00
360
44 16 00 00
600
44 96 00 00
1200
43 B4 00 00
360
00 00 00 00
0
00 00 00 00
0
00 00 00 00
0
00 00 00 00
0
00 00 00 00
0
00 00 00 00
0
00 00 00 00
0
00 00 00 00
0
00 00 00 00
0
00 00 00 00
0
00 00 00 00
0
00 00 00 00
0
44 DE E6 66
1783.2
43 39 66 66
185.4
44 7A F3 33
1003.8
00 00 00 00
0
44 14 59 9A
593.4
00 00 00 00
0
00 00 00 00
0
00 00 00 00
0
00 00 00 00
0
00 00 00 00
0
42 97 33 33
75.6
40 99 99 9A
4.8
42 1C 00 00
39
00 00 00 00
0
41 F9 99 9A
31.2
44 54 66 66
849.6
43 07 99 9A
135.6
43 B5 CC CD
363.6
00 00 00 00
0
43 AE E6 66
349.8
44 AC E0 00
1383
43 0E CC CD
142.8
44 4A 33 33
808.8
00 00 00 00
0
43 D7 19 9A
430.2
00 00 00 00
0
00 00 00 00
0
00 00 00 00
0
00 00 00 00
0
00 00 00 00
0
40 C0 00 00
6
3F E6 66 66
1.8
40 19 99 9A
2.4
00 00 00 00
0
3F 99 99 9A
1.2
44 70 00 00
960
43 11 33 33
145.2
43 D5 4C CD
426.6
00 00 00 00
0
43 C1 CC CD
387.6
44 E4 00 00
1824
42 EE CC CD
119.4
44 94 20 00
1185
00 00 00 00
0
44 01 E6 66
519.6
00 00 00 00
0
00 00 00 00
0
00 00 00 00
0
00 00 00 00
0
00 00 00 00
0
42 0B 33 33
34.8
00 00 00 00
0
41 D3 33 33
26.4
00 00 00 00
0
41 06 66 66
8.4
44 3E F3 33
763.8
42 F7 33 33
123.6
43 9F E6 66
319.8
00 00 00 00
0
43 9F 5F 88
318.74634
00 02 87 9D
165789
00 00 00 00
0
00 00 3D F8
15864
00 00 3C BB
15547
233.203233.713233.763404.347404.78404.3472.162.524.4424036060012003600000000000001783.2185.41003.80593.40000075.64.839031.2849.6135.6363.60349.81383142.8808.80430.20000061.82.401.2960145.2426.60387.61824119.411850519.60000034.8026.408.4763.8123.6319.80318.746342620171125094515165.789015.86415.547insert into tbl_power_info_v2(P_A_DIANYA,P_B_DIANYA,P_C_DIANYA,P_UAB_XIANDIANYA,P_UBC_XIANDIANYA,P_UCA_XIANDIANYA,P_A_DIANLIU,P_B_DIANLIU,P_C_DIANLIU,P_A_YGGL,P_B_YGGL,P_C_YGGL,P_HXYGGL,P_A_WGGL,P_B_WGGL,P_C_WGGL,P_HXWGGL,P_A_SZGL,P_B_SZGL,P_C_SZGL,P_HXSZGL,P_A_GLYS,P_B_GLYS,P_C_GLYS,P_HXGLYS,P_DWPL,P_BY_KwhZ,P_BY_KwhJ,P_BY_KwhF,P_BY_KwhP,P_BY_KwhG,P_BY_HKwhZ,P_BY_HKwhJ,P_BY_HKwhF,P_BY_HKwhP,P_BY_HKwhG, P_BY_KvarhZ,P_BY_KvarhJ,P_BY_KvarhF,P_BY_KvarhP,P_BY_KvarhG, P_BY_HKvarhZ,P_BY_HKvarhJ,P_BY_HKvarhF,P_BY_HKvarhP,P_BY_HKvarhG, P_SY_KwhZ,P_SY_KwhJ,P_SY_KwhF,P_SY_KwhP,P_SY_KwhG, P_SY_HKwhZ,P_SY_HKwhJ,P_SY_HKwhF,P_SY_HKwhP,P_SY_HKwhG, P_SY_KvarhZ,P_SY_KvarhJ,P_SY_KvarhF,P_SY_KvarhP,P_SY_KvarhG, P_SY_HKvarhZ,P_SY_HKvarhJ,P_SY_HKvarhF,P_SY_HKvarhP,P_SY_HKvarhG, P_SSY_KwhZ,P_SSY_KwhJ,P_SSY_KwhF,P_SSY_KwhP,P_SSY_KwhG, P_SSY_HKwhZ,P_SSY_HKwhJ,P_SSY_HKwhF,P_SSY_HKwhP,P_SSY_HKwhG, P_SSY_KvarhZ,P_SSY_KvarhJ,P_SSY_KvarhF,P_SSY_KvarhP,P_SSY_KvarhG, P_SSY_HKvarhZ,P_SSY_HKvarhJ,P_SSY_HKvarhF,P_SSY_HKvarhP,P_SSY_HKvarhG,P_CODE,P_TIME,P_ZXYGDN,P_FXYGDN,P_ZXWGDN,P_FXWGDN)values(233.203,233.713,233.763,404.347,404.78,404.347,2.16,2.52,4.44,240,360,600,1200,360,0,0,0,0,0,0,0,0,0,0,0,0,1783.2,185.4,1003.8,0,593.4,0,0,0,0,0,75.6,4.8,39,0,31.2,849.6,135.6,363.6,0,349.8,1383,142.8,808.8,0,430.2,0,0,0,0,0,6,1.8,2.4,0,1.2,960,145.2,426.6,0,387.6,1824,119.4,1185,0,519.6,0,0,0,0,0,34.8,0,26.4,0,8.4,763.8,123.6,319.8,0,318.74634,26,20171125094515,165.789,0,15.864,15.547)
写入成功读取完毕一个
15 03 10
2100 00 18 94 00 00 00 00 00 00 1D 3D 00 00 8E 18
43 69 0B 85
233.045
43 69 60 C5
233.378
43 69 54 39
233.329
43 C9 E9 DB
403.827
43 CA 0B 23
404.087
43 C9 E9 DB
403.827
00 00 00 00
0
00 00 00 00
0
00 00 00 00
0
00 00 00 00
0
00 00 00 00
0
00 00 00 00
0
00 00 00 00
0
00 00 00 00
0
00 00 00 00
0
00 00 00 00
0
00 00 00 00
0
00 00 00 00
0
00 00 00 00
0
00 00 00 00
0
00 00 00 00
0
00 00 00 00
0
00 00 00 00
0
00 00 00 00
0
00 00 00 00
0
42 48 F5 3E
50.239494
40 CC CC CD
6.4
00 00 00 00
0
40 A6 66 66
5.2
00 00 00 00
0
3F 99 99 9A
1.2
00 00 00 00
0
00 00 00 00
0
00 00 00 00
0
00 00 00 00
0
00 00 00 00
0
3E CC CC CD
0.4
00 00 00 00
0
3E CC CC CD
0.4
00 00 00 00
0
00 00 00 00
0
00 00 00 00
0
00 00 00 00
0
00 00 00 00
0
00 00 00 00
0
00 00 00 00
0
40 8C CC CD
4.4
00 00 00 00
0
40 66 66 66
3.6
00 00 00 00
0
3F 4C CC CD
0.8
00 00 00 00
0
00 00 00 00
0
00 00 00 00
0
00 00 00 00
0
00 00 00 00
0
00 00 00 00
0
00 00 00 00
0
00 00 00 00
0
00 00 00 00
0
00 00 00 00
0
00 00 00 00
0
00 00 00 00
0
00 00 00 00
0
00 00 00 00
0
00 00 00 00
0
42 1E 66 66
39.6
00 00 00 00
0
41 F3 33 33
30.4
00 00 00 00
0
41 13 33 33
9.2
00 00 00 00
0
00 00 00 00
0
00 00 00 00
0
00 00 00 00
0
00 00 00 00
0
42 D8 00 00
108
00 00 00 00
0
42 A3 33 33
81.6
00 00 00 00
0
41 D0 00 00
26
00 00 00 00
0
00 00 00 00
0
00 00 00 00
0
00 00 00 00
0
00 00 7F 8C
4.5755e-41
00 00 18 94
6292
00 00 00 00
0
00 00 1D 3D
7485
00 00 8E 18
36376
233.045233.378233.329403.827404.087403.827000000000000000000050.2394946.405.201.2000000.400.400000004.403.600.800000000000000039.6030.409.200000108081.602600004.5755e-4121201711250945166.29207.48536.376insert into tbl_power_info_v2(P_A_DIANYA,P_B_DIANYA,P_C_DIANYA,P_UAB_XIANDIANYA,P_UBC_XIANDIANYA,P_UCA_XIANDIANYA,P_A_DIANLIU,P_B_DIANLIU,P_C_DIANLIU,P_A_YGGL,P_B_YGGL,P_C_YGGL,P_HXYGGL,P_A_WGGL,P_B_WGGL,P_C_WGGL,P_HXWGGL,P_A_SZGL,P_B_SZGL,P_C_SZGL,P_HXSZGL,P_A_GLYS,P_B_GLYS,P_C_GLYS,P_HXGLYS,P_DWPL,P_BY_KwhZ,P_BY_KwhJ,P_BY_KwhF,P_BY_KwhP,P_BY_KwhG,P_BY_HKwhZ,P_BY_HKwhJ,P_BY_HKwhF,P_BY_HKwhP,P_BY_HKwhG, P_BY_KvarhZ,P_BY_KvarhJ,P_BY_KvarhF,P_BY_KvarhP,P_BY_KvarhG, P_BY_HKvarhZ,P_BY_HKvarhJ,P_BY_HKvarhF,P_BY_HKvarhP,P_BY_HKvarhG, P_SY_KwhZ,P_SY_KwhJ,P_SY_KwhF,P_SY_KwhP,P_SY_KwhG, P_SY_HKwhZ,P_SY_HKwhJ,P_SY_HKwhF,P_SY_HKwhP,P_SY_HKwhG, P_SY_KvarhZ,P_SY_KvarhJ,P_SY_KvarhF,P_SY_KvarhP,P_SY_KvarhG, P_SY_HKvarhZ,P_SY_HKvarhJ,P_SY_HKvarhF,P_SY_HKvarhP,P_SY_HKvarhG, P_SSY_KwhZ,P_SSY_KwhJ,P_SSY_KwhF,P_SSY_KwhP,P_SSY_KwhG, P_SSY_HKwhZ,P_SSY_HKwhJ,P_SSY_HKwhF,P_SSY_HKwhP,P_SSY_HKwhG, P_SSY_KvarhZ,P_SSY_KvarhJ,P_SSY_KvarhF,P_SSY_KvarhP,P_SSY_KvarhG, P_SSY_HKvarhZ,P_SSY_HKvarhJ,P_SSY_HKvarhF,P_SSY_HKvarhP,P_SSY_HKvarhG,P_CODE,P_TIME,P_ZXYGDN,P_FXYGDN,P_ZXWGDN,P_FXWGDN)values(233.045,233.378,233.329,403.827,404.087,403.827,0,0,0,0,0,0,0,0,0,0,0,0,0,0,0,0,0,0,0,50.239494,6.4,0,5.2,0,1.2,0,0,0,0,0,0.4,0,0.4,0,0,0,0,0,0,0,4.4,0,3.6,0,0.8,0,0,0,0,0,0,0,0,0,0,0,0,0,0,0,39.6,0,30.4,0,9.2,0,0,0,0,0,108,0,81.6,0,26,0,0,0,0,4.5755e-41,21,20171125094516,6.292,0,7.485,36.376)
写入成功读取完毕一个
write:16 03 00 38 00 34 C6 F7
write:1B 03 00 38 00 34 C7 EA
write:16 03 07 CF 00 78 77 84
77 77 77
heart:77 77 77 2E 75 73 72 2E 63 6E
write:1B 03 07 CF 00 78 76 99
write:16 03 01 0F 00 08 76 D4
write:1B 03 01 0F 00 08 77 C9
write:17 03 00 38 00 34 C7 26
77 77 77
heart:77 77 77 2E 75 73 72 2E 63 6E
write:1C 03 00 38 00 34 C6 5D
write:17 03 07 CF 00 78 76 55
write:1C 03 07 CF 00 78 77 2E
write:17 03 01 0F 00 08 77 05
write:1C 03 01 0F 00 08 76 7E
write:18 03 00 38 00 34 C7 D9
write:1D 03 00 38 00 34 C7 8C
write:18 03 07 CF 00 78 76 AA
77 77 77
heart:77 77 77 2E 75 73 72 2E 63 6E
77 77 77
heart:77 77 77 2E 75 73 72 2E 63 6E
received messag ?->? 
 124.160.213.198:43072 172.16.246.153:6002
write:12 03 00 38 00 34 C7 73
1B 03 68
2743 69 ED 50 43 6A 0B 85 43 6A 57 4C 43 CA 9B 44 43 CA C7 8D 43 CA BC 8B 41 C0 F5 C3 41 C4 CC CD 41 DD C2 8F 45 AC 80 00 45 B0 40 00 45 C6 C0 00 46 88 E0 00 44 70 00 00 44 70 00 00 44 B4 00 00 45 59 80 00 45 B0 40 00 45 B4 00 00 45 CA 80 00 46 8B B0 00 3F 7B E7 6D 3F 7C 28 F6 3F 79 99 9A 3F 7B 22 D1 42 48 2C E1
FF FE FF
heart:FF FE FF EF DA F9 CF F7 CF F9 E7 6F F7 FD E1 FF ED F9 C7 D9 8E 43 F6 99 9A 00 00 00 00 00 00 00 00 00 00 00 00 00 00 00 00 00 00 00 00 44 32 80 00 41 90 00 00 43 FA 33 33 00 00 00 00 43 43 00 00 00 00 00 00 00 00 00 00 00 00 00 00 00 00 00 00 00 00 00 00 45 10 D3 33 41 F9 99 9A 44 E5 33 33 00 00 00 00 43 E1 E6 66 00 00 00 00
00 00 00
heart:00 00 00 00 00 00 00 00 00 00 00 00 00 00 00 00 44 24 40 00 41 86 66 66 43 E5 CC CD 00 00 00 00 43 34 99 9A 00 00 00 00 00 00 00 00 00 00 00 00 00 00 00 00 00 00 00 00 45 1D 76 66 42 4E 66 66 44 F5 19 9A 00 00 00 00 43 FD 33 33 00 00 00 00 00 00 00 00 00 00 00 00 00 00 00 00 00 00 00 00 44 73 99 9A 42 34 00 00 44 1E 8C CD 00 00 00 00 43 93 4C CD 00 00 00 00 00 00 00 00 00 00 00 00 00 00 00 00 00 00 25 F2 12 03 68 00 00 43 69 A2 0C 43 69 E5 A2 43 69 FD B2 43 CA 63 D7 43 CA 85 1F 43 CA 6E D9 43 5B F5 C3 43 66 C2 8F 43 4A 8F 5C 47 3F 40 00 47 49 90 00 47 2F 50 00 48 0E 08 00 46 43 00 00 46 41 20 00 46 37 C0 00 47 0E F8 00 47 48 A0 00 47 52 F0 00 47 39 28 00 48 12 7C 00 3F 73 F7 CF 3F 74 BC 6A 3F 72 6E 98 3F 78 51 EC 42 48 CC 7C
write:1D 03 07 CF 00 78 76 FF
write:18 03 01 0F 00 08 77 FA
write:12 03 07 CF 00 78 76 00
write:1D 03 01 0F 00 08 77 AF
write:19 03 00 38 00 34 C6 08
write:12 03 01 0F 00 08 77 50
signal: killed
