nohup: ignoring input
Listening on :6002
received messag ?->? 
 124.160.213.228:5270 172.16.246.153:6002
write:12 03 00 38 00 34 C7 73
77 77 77
heart:77 77 77 2E 75 73 72 2E 63 6E
12 03 68
1843 6D E8 F6 43 6E 2E 98 43 6E 45 1F 43 CE 1D 2F 43 CE 3E 56 43 CE 28 31 43 31 3D 71 43 2E B8 52 43 3A B8 52 47 16 00 00 47 14 20 00 47 23 20 00 47 E8 44 00 45 E1 00 00 45 99 C0 00 45 8A C0 00 46 82 50 00 47 24 88 00 47 22 A8 00 47 2D E8 00 47 EA 9C 00 3F 6D D2 F2 3F 69 78 D5 3F 70 A3 D7 3F 7D 70 A4 42 48 77 C1
write:12 03 07 CF 00 78 76 00
12 03 F0
18totalsize 240
47 8A 9E 66 46 2F 5E 66 47 02 8B 66 00 00 00 00 46 CD B1 33 00 00 00 00 00 00 00 00 00 00 00 00 00 00 00 00 00 00 00 00 46 82 BE 66 45 1D 80 00 46 08 CC CD 00 00 00 00 45 AA 96 66 00 00 00 00 00 00 00 00 00 00 00 00 00 00 00 00 00 00 00 00 47 A9 B7 80 46 5C 9F 33 47 22 D6 CD 00 00 00 00 46 F2 DF 9A 00 00 00 00 00 00 00 00 00 00 00 00 00 00 00 00 00 00 00 00 46 B2 70 66 45 65 B9 9A 46 3A EB 33 00 00 00 00 45 E1 09 9A 00 00 00 00 00 00 00 00 00 00 00 00 00 00 00 00 00 00 00 00 47 82 8D CD 46 41 63 33 46 D4 77 33 00 00 00 00 46 D5 0E 66 00 00 00 00 00 00 00 00 00 00 00 00 00 00 00 00 00 00 00 00 46 95 B4 66 45 65 46 66 45 FB B3 33 00 00 00 00 45 E8 7B 33 00 00 00 00 00 00 00 00 00 00 00 00 00 00 00 00 00 00 40 F5
write:12 03 01 0F 00 08 77 50
12 03 10
1800 40 85 25 00 00 00 00 00 13 E2 02 00 00 3C 1B
43 6D E8 F6
237.91
43 6E 2E 98
238.182
43 6E 45 1F
238.27
43 CE 1D 2F
412.228
43 CE 3E 56
412.487
43 CE 28 31
412.314
43 31 3D 71
177.24
43 2E B8 52
174.72
43 3A B8 52
186.72
47 16 00 00
38400
47 14 20 00
37920
47 23 20 00
41760
47 E8 44 00
118920
45 E1 00 00
7200
45 99 C0 00
4920
45 8A C0 00
4440
46 82 50 00
16680
47 24 88 00
42120
47 22 A8 00
41640
47 2D E8 00
44520
47 EA 9C 00
120120
3F 6D D2 F2
0.929
3F 69 78 D5
0.912
3F 70 A3 D7
0.94
3F 7D 70 A4
0.99
42 48 77 C1
50.116947
47 8A 9E 66
70972.8
46 2F 5E 66
11223.6
47 02 8B 66
33419.4
00 00 00 00
0
46 CD B1 33
26328.6
00 00 00 00
0
00 00 00 00
0
00 00 00 00
0
00 00 00 00
0
00 00 00 00
0
46 82 BE 66
16735.2
45 1D 80 00
2520
46 08 CC CD
8755.2
00 00 00 00
0
45 AA 96 66
5458.8
00 00 00 00
0
00 00 00 00
0
00 00 00 00
0
00 00 00 00
0
00 00 00 00
0
47 A9 B7 80
86895
46 5C 9F 33
14119.8
47 22 D6 CD
41686.8
00 00 00 00
0
46 F2 DF 9A
31087.8
00 00 00 00
0
00 00 00 00
0
00 00 00 00
0
00 00 00 00
0
00 00 00 00
0
46 B2 70 66
22840.2
45 65 B9 9A
3675.6
46 3A EB 33
11962.8
00 00 00 00
0
45 E1 09 9A
7201.2
00 00 00 00
0
00 00 00 00
0
00 00 00 00
0
00 00 00 00
0
00 00 00 00
0
47 82 8D CD
66843.6
46 41 63 33
12376.8
46 D4 77 33
27195.6
00 00 00 00
0
46 D5 0E 66
27271.2
00 00 00 00
0
00 00 00 00
0
00 00 00 00
0
00 00 00 00
0
00 00 00 00
0
46 95 B4 66
19162.2
45 65 46 66
3668.4
45 FB B3 33
8054.4
00 00 00 00
0
45 E8 7B 33
7439.4
00 00 00 00
0
00 00 00 00
0
00 00 00 00
0
00 00 00 00
0
00 00 40 F5
2.3302e-41
00 40 85 25
4228389
00 00 00 00
0
00 13 E2 02
1303042
00 00 3C 1B
15387
237.91238.182238.27412.228412.487412.314177.24174.72186.72384003792041760118920720049204440166804212041640445201201200.9290.9120.940.9950.11694770972.811223.633419.4026328.60000016735.225208755.205458.8000008689514119.841686.8031087.80000022840.23675.611962.807201.20000066843.612376.827195.6027271.20000019162.23668.48054.407439.400002.3302e-4118201711242331274228.38901303.04215.387insert into tbl_power_info_v2(P_A_DIANYA,P_B_DIANYA,P_C_DIANYA,P_UAB_XIANDIANYA,P_UBC_XIANDIANYA,P_UCA_XIANDIANYA,P_A_DIANLIU,P_B_DIANLIU,P_C_DIANLIU,P_A_YGGL,P_B_YGGL,P_C_YGGL,P_HXYGGL,P_A_WGGL,P_B_WGGL,P_C_WGGL,P_HXWGGL,P_A_SZGL,P_B_SZGL,P_C_SZGL,P_HXSZGL,P_A_GLYS,P_B_GLYS,P_C_GLYS,P_HXGLYS,P_DWPL,P_BY_KwhZ,P_BY_KwhJ,P_BY_KwhF,P_BY_KwhP,P_BY_KwhG,P_BY_HKwhZ,P_BY_HKwhJ,P_BY_HKwhF,P_BY_HKwhP,P_BY_HKwhG, P_BY_KvarhZ,P_BY_KvarhJ,P_BY_KvarhF,P_BY_KvarhP,P_BY_KvarhG, P_BY_HKvarhZ,P_BY_HKvarhJ,P_BY_HKvarhF,P_BY_HKvarhP,P_BY_HKvarhG, P_SY_KwhZ,P_SY_KwhJ,P_SY_KwhF,P_SY_KwhP,P_SY_KwhG, P_SY_HKwhZ,P_SY_HKwhJ,P_SY_HKwhF,P_SY_HKwhP,P_SY_HKwhG, P_SY_KvarhZ,P_SY_KvarhJ,P_SY_KvarhF,P_SY_KvarhP,P_SY_KvarhG, P_SY_HKvarhZ,P_SY_HKvarhJ,P_SY_HKvarhF,P_SY_HKvarhP,P_SY_HKvarhG, P_SSY_KwhZ,P_SSY_KwhJ,P_SSY_KwhF,P_SSY_KwhP,P_SSY_KwhG, P_SSY_HKwhZ,P_SSY_HKwhJ,P_SSY_HKwhF,P_SSY_HKwhP,P_SSY_HKwhG, P_SSY_KvarhZ,P_SSY_KvarhJ,P_SSY_KvarhF,P_SSY_KvarhP,P_SSY_KvarhG, P_SSY_HKvarhZ,P_SSY_HKvarhJ,P_SSY_HKvarhF,P_SSY_HKvarhP,P_SSY_HKvarhG,P_CODE,P_TIME,P_ZXYGDN,P_FXYGDN,P_ZXWGDN,P_FXWGDN)values(237.91,238.182,238.27,412.228,412.487,412.314,177.24,174.72,186.72,38400,37920,41760,118920,7200,4920,4440,16680,42120,41640,44520,120120,0.929,0.912,0.94,0.99,50.116947,70972.8,11223.6,33419.4,0,26328.6,0,0,0,0,0,16735.2,2520,8755.2,0,5458.8,0,0,0,0,0,86895,14119.8,41686.8,0,31087.8,0,0,0,0,0,22840.2,3675.6,11962.8,0,7201.2,0,0,0,0,0,66843.6,12376.8,27195.6,0,27271.2,0,0,0,0,0,19162.2,3668.4,8054.4,0,7439.4,0,0,0,0,2.3302e-41,18,20171124233127,4228.389,0,1303.042,15.387)
写入成功读取完毕一个
write:13 03 00 38 00 34 C6 A2
13 03 68
1943 6E C3 12 43 6E FC EE 43 6F 42 0C 43 CE CE 77 43 CF 05 E3 43 CE EF BE 3F D7 0A 3D 3F 99 99 9A 40 0A 3D 71 43 A0 00 00 00 00 00 00 43 C8 00 00 44 48 00 00 43 70 00 00 43 70 00 00 43 70 00 00 44 48 00 00 43 C8 00 00 43 A0 00 00 43 F0 00 00 44 8C 00 00 3F 33 33 33 3E 61 47 AE 3F 5B E7 6D 3F 37 CE D9 42 48 D2 4B
write:13 03 07 CF 00 78 77 D1
write:13 03 01 0F 00 08 76 81
write:14 03 00 38 00 34 C7 15
77 77 77
heart:77 77 77 2E 75 73 72 2E 63 6E
13 03 F0
19totalsize 240
44 9E F3 33 42 D0 CC CD 44 47 E6 66 00 00 00 00 43 B7 99 9A 00 00 00 00 00 00 00 00 00 00 00 00 00 00 00 00 00 00 00 00 43 0F 33 33 3E CC CC CD 43 00 00 00 00 00 00 00 41 66 66 66 43 C9 66 66 42 8F 33 33 43 1D 99 9A 00 00 00 00 43 2D 99 9A 44 5A CC CD 42 BC 00 00 43 F7 66 66 00 00 00 00 43 8F 00 00 00 00 00 00 00 00 00 00 00 00 00 00 00 00 00 00 00 00 00 00 40 80 00 00 00 00 00 00 40 4C CC CD 00 00 00 00 3F 4C CC CD 44 1A 99 9A 42 C4 00 00 43 85 66 66 00 00 00 00 43 7D 33 33 44 DC A6 66 42 DB 33 33 44 8E CC CD 00 00 00 00 44 00 4C CD 00 00 00 00 00 00 00 00 00 00 00 00 00 00 00 00 00 00 00 00 42 5E 66 66 3E CC CC CD 42 21 99 9A 00 00 00 00 41 60 00 00 43 FE 00 00 42 B6 66 66 43 3F 99 9A 00 00 00 00 43 60 A5 27
13 03 10
1900 02 93 06 00 00 00 00 00 00 35 3F 00 00 B8 AD
43 6E C3 12
238.762
43 6E FC EE
238.988
43 6F 42 0C
239.258
43 CE CE 77
413.613
43 CF 05 E3
414.046
43 CE EF BE
413.873
3F D7 0A 3D
1.68
3F 99 99 9A
1.2
40 0A 3D 71
2.16
43 A0 00 00
320
00 00 00 00
0
43 C8 00 00
400
44 48 00 00
800
43 70 00 00
240
43 70 00 00
240
43 70 00 00
240
44 48 00 00
800
43 C8 00 00
400
43 A0 00 00
320
43 F0 00 00
480
44 8C 00 00
1120
3F 33 33 33
0.7
3E 61 47 AE
0.22
3F 5B E7 6D
0.859
3F 37 CE D9
0.718
42 48 D2 4B
50.205364
44 9E F3 33
1271.6
42 D0 CC CD
104.4
44 47 E6 66
799.6
00 00 00 00
0
43 B7 99 9A
367.2
00 00 00 00
0
00 00 00 00
0
00 00 00 00
0
00 00 00 00
0
00 00 00 00
0
43 0F 33 33
143.2
3E CC CC CD
0.4
43 00 00 00
128
00 00 00 00
0
41 66 66 66
14.4
43 C9 66 66
402.8
42 8F 33 33
71.6
43 1D 99 9A
157.6
00 00 00 00
0
43 2D 99 9A
173.6
44 5A CC CD
875.2
42 BC 00 00
94
43 F7 66 66
494.8
00 00 00 00
0
43 8F 00 00
286
00 00 00 00
0
00 00 00 00
0
00 00 00 00
0
00 00 00 00
0
00 00 00 00
0
40 80 00 00
4
00 00 00 00
0
40 4C CC CD
3.2
00 00 00 00
0
3F 4C CC CD
0.8
44 1A 99 9A
618.4
42 C4 00 00
98
43 85 66 66
266.8
00 00 00 00
0
43 7D 33 33
253.2
44 DC A6 66
1765.2
42 DB 33 33
109.6
44 8E CC CD
1142.4
00 00 00 00
0
44 00 4C CD
513.2
00 00 00 00
0
00 00 00 00
0
00 00 00 00
0
00 00 00 00
0
00 00 00 00
0
42 5E 66 66
55.6
3E CC CC CD
0.4
42 21 99 9A
40.4
00 00 00 00
0
41 60 00 00
14
43 FE 00 00
508
42 B6 66 66
91.2
43 3F 99 9A
191.6
00 00 00 00
0
43 60 A5 27
224.64513
00 02 93 06
168710
00 00 00 00
0
00 00 35 3F
13631
00 00 B8 AD
47277
238.762238.988239.258413.613414.046413.8731.681.22.16320040080024024024080040032048011200.70.220.8590.71850.2053641271.6104.4799.60367.200000143.20.4128014.4402.871.6157.60173.6875.294494.8028600000403.200.8618.498266.80253.21765.2109.61142.40513.20000055.60.440.401450891.2191.60224.645131920171124233248168.71013.63147.277insert into tbl_power_info_v2(P_A_DIANYA,P_B_DIANYA,P_C_DIANYA,P_UAB_XIANDIANYA,P_UBC_XIANDIANYA,P_UCA_XIANDIANYA,P_A_DIANLIU,P_B_DIANLIU,P_C_DIANLIU,P_A_YGGL,P_B_YGGL,P_C_YGGL,P_HXYGGL,P_A_WGGL,P_B_WGGL,P_C_WGGL,P_HXWGGL,P_A_SZGL,P_B_SZGL,P_C_SZGL,P_HXSZGL,P_A_GLYS,P_B_GLYS,P_C_GLYS,P_HXGLYS,P_DWPL,P_BY_KwhZ,P_BY_KwhJ,P_BY_KwhF,P_BY_KwhP,P_BY_KwhG,P_BY_HKwhZ,P_BY_HKwhJ,P_BY_HKwhF,P_BY_HKwhP,P_BY_HKwhG, P_BY_KvarhZ,P_BY_KvarhJ,P_BY_KvarhF,P_BY_KvarhP,P_BY_KvarhG, P_BY_HKvarhZ,P_BY_HKvarhJ,P_BY_HKvarhF,P_BY_HKvarhP,P_BY_HKvarhG, P_SY_KwhZ,P_SY_KwhJ,P_SY_KwhF,P_SY_KwhP,P_SY_KwhG, P_SY_HKwhZ,P_SY_HKwhJ,P_SY_HKwhF,P_SY_HKwhP,P_SY_HKwhG, P_SY_KvarhZ,P_SY_KvarhJ,P_SY_KvarhF,P_SY_KvarhP,P_SY_KvarhG, P_SY_HKvarhZ,P_SY_HKvarhJ,P_SY_HKvarhF,P_SY_HKvarhP,P_SY_HKvarhG, P_SSY_KwhZ,P_SSY_KwhJ,P_SSY_KwhF,P_SSY_KwhP,P_SSY_KwhG, P_SSY_HKwhZ,P_SSY_HKwhJ,P_SSY_HKwhF,P_SSY_HKwhP,P_SSY_HKwhG, P_SSY_KvarhZ,P_SSY_KvarhJ,P_SSY_KvarhF,P_SSY_KvarhP,P_SSY_KvarhG, P_SSY_HKvarhZ,P_SSY_HKvarhJ,P_SSY_HKvarhF,P_SSY_HKvarhP,P_SSY_HKvarhG,P_CODE,P_TIME,P_ZXYGDN,P_FXYGDN,P_ZXWGDN,P_FXWGDN)values(238.762,238.988,239.258,413.613,414.046,413.873,1.68,1.2,2.16,320,0,400,800,240,240,240,800,400,320,480,1120,0.7,0.22,0.859,0.718,50.205364,1271.6,104.4,799.6,0,367.2,0,0,0,0,0,143.2,0.4,128,0,14.4,402.8,71.6,157.6,0,173.6,875.2,94,494.8,0,286,0,0,0,0,0,4,0,3.2,0,0.8,618.4,98,266.8,0,253.2,1765.2,109.6,1142.4,0,513.2,0,0,0,0,0,55.6,0.4,40.4,0,14,508,91.2,191.6,0,224.64513,19,20171124233248,168.71,0,13.631,47.277)
写入成功读取完毕一个
14 03 68
2043 6D C3 12 43 6E 03 54 43 6E 44 5A 43 CD FB E7 43 CE 33 54 43 CE 12 0C 41 09 99 9A 40 D7 0A 3D 41 0F 5C 29 44 A5 00 00 44 70 00 00 44 AA 00 00 45 66 00 00 43 A0 00 00 43 8C 00 00 43 8C 00 00 44 5C 00 00 44 FF 00 00 44 C8 00 00 45 04 80 00 45 6B 00 00 3F 27 2B 02 3F 1C 6A 7F 3F 22 D0 E5 3F 79 16 87 42 48 5A 19
write:14 03 07 CF 00 78 76 66
14 03 F0
20totalsize 240
44 9D 39 9A 43 C6 B3 33 43 90 CC CD 00 00 00 00 44 0E A6 66 00 00 00 00 00 00 00 00 00 00 00 00 00 00 00 00 00 00 00 00 40 0C CC CD 00 00 00 00 40 0C CC CD 00 00 00 00 00 00 00 00 43 91 99 9A 42 BD 99 9A 42 7A 66 66 00 00 00 00 43 05 99 9A 44 AC 73 33 43 E0 33 33 43 9A 66 66 00 00 00 00 44 1B 8C CD 00 00 00 00 00 00 00 00 00 00 00 00 00 00 00 00 00 00 00 00 40 99 99 9A 00 00 00 00 40 93 33 33 00 00 00 00 00 00 00 00 43 9B 80 00 42 D2 66 66 42 76 66 66 00 00 00 00 43 10 00 00 44 A4 D9 9A 43 ED 99 9A 43 78 66 66 00 00 00 00 44 14 C0 00 00 00 00 00 00 00 00 00 00 00 00 00 00 00 00 00 00 00 00 00 3F 4C CC CD 00 00 00 00 3F 4C CC CD 00 00 00 00 00 00 00 00 43 8C 66 66 42 D1 33 33 42 3B 33 33 00 00 00 00 43 01 AD 30
write:14 03 01 0F 00 08 77 36
14 03 10
2000 04 18 2F 00 00 00 00 00 00 13 51 00 00 0C 73
43 6D C3 12
237.762
43 6E 03 54
238.013
43 6E 44 5A
238.267
43 CD FB E7
411.968
43 CE 33 54
412.401
43 CE 12 0C
412.141
41 09 99 9A
8.6
40 D7 0A 3D
6.72
41 0F 5C 29
8.96
44 A5 00 00
1320
44 70 00 00
960
44 AA 00 00
1360
45 66 00 00
3680
43 A0 00 00
320
43 8C 00 00
280
43 8C 00 00
280
44 5C 00 00
880
44 FF 00 00
2040
44 C8 00 00
1600
45 04 80 00
2120
45 6B 00 00
3760
3F 27 2B 02
0.653
3F 1C 6A 7F
0.611
3F 22 D0 E5
0.636
3F 79 16 87
0.973
42 48 5A 19
50.087986
44 9D 39 9A
1257.8
43 C6 B3 33
397.4
43 90 CC CD
289.6
00 00 00 00
0
44 0E A6 66
570.6
00 00 00 00
0
00 00 00 00
0
00 00 00 00
0
00 00 00 00
0
00 00 00 00
0
40 0C CC CD
2.2
00 00 00 00
0
40 0C CC CD
2.2
00 00 00 00
0
00 00 00 00
0
43 91 99 9A
291.2
42 BD 99 9A
94.8
42 7A 66 66
62.6
00 00 00 00
0
43 05 99 9A
133.6
44 AC 73 33
1379.6
43 E0 33 33
448.4
43 9A 66 66
308.8
00 00 00 00
0
44 1B 8C CD
622.2
00 00 00 00
0
00 00 00 00
0
00 00 00 00
0
00 00 00 00
0
00 00 00 00
0
40 99 99 9A
4.8
00 00 00 00
0
40 93 33 33
4.6
00 00 00 00
0
00 00 00 00
0
43 9B 80 00
311
42 D2 66 66
105.2
42 76 66 66
61.6
00 00 00 00
0
43 10 00 00
144
44 A4 D9 9A
1318.8
43 ED 99 9A
475.2
43 78 66 66
248.4
00 00 00 00
0
44 14 C0 00
595
00 00 00 00
0
00 00 00 00
0
00 00 00 00
0
00 00 00 00
0
00 00 00 00
0
3F 4C CC CD
0.8
00 00 00 00
0
3F 4C CC CD
0.8
00 00 00 00
0
00 00 00 00
0
43 8C 66 66
280.8
42 D1 33 33
104.6
42 3B 33 33
46.8
00 00 00 00
0
43 01 AD 30
129.67651
00 04 18 2F
268335
00 00 00 00
0
00 00 13 51
4945
00 00 0C 73
3187
237.762238.013238.267411.968412.401412.1418.66.728.9613209601360368032028028088020401600212037600.6530.6110.6360.97350.0879861257.8397.4289.60570.6000002.202.200291.294.862.60133.61379.6448.4308.80622.2000004.804.600311105.261.601441318.8475.2248.40595000000.800.800280.8104.646.80129.676512020171124233329268.33504.9453.187insert into tbl_power_info_v2(P_A_DIANYA,P_B_DIANYA,P_C_DIANYA,P_UAB_XIANDIANYA,P_UBC_XIANDIANYA,P_UCA_XIANDIANYA,P_A_DIANLIU,P_B_DIANLIU,P_C_DIANLIU,P_A_YGGL,P_B_YGGL,P_C_YGGL,P_HXYGGL,P_A_WGGL,P_B_WGGL,P_C_WGGL,P_HXWGGL,P_A_SZGL,P_B_SZGL,P_C_SZGL,P_HXSZGL,P_A_GLYS,P_B_GLYS,P_C_GLYS,P_HXGLYS,P_DWPL,P_BY_KwhZ,P_BY_KwhJ,P_BY_KwhF,P_BY_KwhP,P_BY_KwhG,P_BY_HKwhZ,P_BY_HKwhJ,P_BY_HKwhF,P_BY_HKwhP,P_BY_HKwhG, P_BY_KvarhZ,P_BY_KvarhJ,P_BY_KvarhF,P_BY_KvarhP,P_BY_KvarhG, P_BY_HKvarhZ,P_BY_HKvarhJ,P_BY_HKvarhF,P_BY_HKvarhP,P_BY_HKvarhG, P_SY_KwhZ,P_SY_KwhJ,P_SY_KwhF,P_SY_KwhP,P_SY_KwhG, P_SY_HKwhZ,P_SY_HKwhJ,P_SY_HKwhF,P_SY_HKwhP,P_SY_HKwhG, P_SY_KvarhZ,P_SY_KvarhJ,P_SY_KvarhF,P_SY_KvarhP,P_SY_KvarhG, P_SY_HKvarhZ,P_SY_HKvarhJ,P_SY_HKvarhF,P_SY_HKvarhP,P_SY_HKvarhG, P_SSY_KwhZ,P_SSY_KwhJ,P_SSY_KwhF,P_SSY_KwhP,P_SSY_KwhG, P_SSY_HKwhZ,P_SSY_HKwhJ,P_SSY_HKwhF,P_SSY_HKwhP,P_SSY_HKwhG, P_SSY_KvarhZ,P_SSY_KvarhJ,P_SSY_KvarhF,P_SSY_KvarhP,P_SSY_KvarhG, P_SSY_HKvarhZ,P_SSY_HKvarhJ,P_SSY_HKvarhF,P_SSY_HKvarhP,P_SSY_HKvarhG,P_CODE,P_TIME,P_ZXYGDN,P_FXYGDN,P_ZXWGDN,P_FXWGDN)values(237.762,238.013,238.267,411.968,412.401,412.141,8.6,6.72,8.96,1320,960,1360,3680,320,280,280,880,2040,1600,2120,3760,0.653,0.611,0.636,0.973,50.087986,1257.8,397.4,289.6,0,570.6,0,0,0,0,0,2.2,0,2.2,0,0,291.2,94.8,62.6,0,133.6,1379.6,448.4,308.8,0,622.2,0,0,0,0,0,4.8,0,4.6,0,0,311,105.2,61.6,0,144,1318.8,475.2,248.4,0,595,0,0,0,0,0,0.8,0,0.8,0,0,280.8,104.6,46.8,0,129.67651,20,20171124233329,268.335,0,4.945,3.187)
写入成功读取完毕一个
write:15 03 00 38 00 34 C6 C4
77 77 77
heart:77 77 77 2E 75 73 72 2E 63 6E
write:15 03 07 CF 00 78 77 B7
write:15 03 01 0F 00 08 76 E7
15 03 68
2143 6E 64 5A 43 6E 8F 9E 43 6E A5 1F 43 CE 75 C3 43 CE 97 00 00 00 00 00 00 00 00 00 00 00 00 00 00 00 00 00 00 00 00 00 00 00 00 00 00 00 00 00 00 00 00 00 00 00 00 00 00 00 00 00 00 00 00 00 00 00 00 00 00 00 00 00 00 00 00 00 00 00 00 00 00 00 00 00 00 00 00 00 00 00 00 00 00 00 00 00 00 00 00 00 00 00 00 00
0A 43 CE
heart:0A 43 CE 75 C3 00 00 00 00 00 00 00 00 00 00 00 00 00 00 00 00 00 00 00 00 00 00 00 00 00 00 00 00 00 00 00 00 00 00 00 00 00 00 00 00 00 00 00 00 00 00 00 00 00 00 00 00 00 00 00 00 00 00 00 00 00 00 00 00 00 00 00 00 00 00 00 00 00 00 00 00 42 48 88 AE
FB FD FF
heart:FB FD FF EF 8A 40 CC CC CD 00 00 00 00 40 A6 66 66 00 00 00 00 3F 99 99 9A 00 00 00 00 00 00 00 00 00 00 00 00 00 00 00 00 00 00 00 00 3E CC CC CD 00 00 00 00 3E CC CC CD 00 00 00 00 00 00 00 00 00 00 00 00 00 00 00 00 00 00 00 00 00 00 00 00 00 00 00 00 40 8C CC CD 00 00 00 00 40 66 66 66 00 00 00 00 3F 4C CC CD 00 00 00 00 00 00 00 00 00 00 00 00 00 00 00 00 00 00 00 00 00 00 00 00 00 00 00 00 00 00 00 00 00 00 00 00 00 00 00 00 00 00 00 00 00 00 00 00 00 00 00 00 00 00 00 00 00 00 00 00 42 1E 66 66 00 00 00 00 41 F3 33 33 00 00 00 00 41 13 33 33 00 00 00 00 00 00 00 00 00 00 00 00 00 00 00 00 00 00 00 00 42 D8 00 00 00 00 00 00 42 A3 33 33 00 00 00 00 41 D0 00 00 00 00 00 00 00 00 00 00 00 00 00 00 00 00 00 00 00 00 7F 8C
write:16 03 00 38 00 34 C6 F7
write:16 03 07 CF 00 78 77 84
write:16 03 01 0F 00 08 76 D4
write:17 03 00 38 00 34 C7 26
77 77 77
heart:77 77 77 2E 75 73 72 2E 63 6E
received messag ?->? 
 124.160.213.228:5615 172.16.246.153:6002
write:12 03 00 38 00 34 C7 73
77 77 77
heart:77 77 77 2E 75 73 72 2E 63 6E
17 03 68
2343 6D EA 3D 43 6E 25 E3 43 6E 5B 64 43 CE 1D 2F 43 CE 49 79 43 CE 33 54 3F 61 47 AE 3F 57 0A 3D 00 97 EF D7 5E F0 00 00 42 F0 00 00 00 00 00 00 43 70 00 00 42 A0 00 00 42 A0 00 00 00 00 00 00 42 F0 00 00 43 48 00 00 43 48 00 00 00 00 00 00 43 8C 00 00 3E FF 7C EE 3F 35 3F 7D 00 00 00 00 3F 63 95 81 42 47 08 39
write:17 03 07 CF 00 78 76 55
write:12 03 07 CF 00 78 76 00
17 03 F0
23write:17 03 01 0F 00 08 77 05
totalsize 260
44 9A B3 33 43 5B 99 9A 44 4A 4C CD 00 00 00 00 43 50 99 9A 00 00 00 00 00 00 00 00 00 00 00 00 00 00 00 00 00 00 00 00 BB 5F F7 40 4C CC CD 41 C8 00 00 00 00 00 00 40 86 66 66 42 58 CC CD 41 40 00 00 41 B3 33 33 00 00 00 00 41 9C CC CD 44 AC 0C CD 43 8E E6 66 44 54 80 00 00 00 00 00 43 70 33 33 00 00 00 00 00 00 00 00 00 00 00 00 00 00 00 00 00 00 00 00 41 16 66 66 3E CC CC CD 40 D9 99 9A 00 00 00 00 3F E6 66 66 42 D5 33 33 41 BB 33 33 42 46 66 66 00 00 00 00 42 05 99 9A 44 EF 33 33 43 86 66 66 44 9D 8C CD 00 00 00 00 43 C0 19 9A 00 00 00 00 00 00 00 00 00 00 00 00 00 00 00 00 00 00 00 00 41 66 66 66 3F 19 99 9A 41 20 00 00 00 00 00 00 40 73 33 33 42 8D 99 9A 41 56 66 66 41 F6 66 66 00 00 00 00 41 D3 47 DA 17 03 10 00 00 00 03 E7 B4 00 00 00 00 00 00 E7 64 00 00 EE 7D
write:12 03 01 0F 00 08 77 50
12 03 10
1800 40 85 76 00 00 00 00 00 13 E2 10 00 00 92 5B
write:18 03 00 38 00 34 C7 D9
18 03 68
2443 6E 2E 14 43 6E 73 F8 43 6E AF 5C 43 CE 54 9C 43 CE 8C 08 43 CE 6A C1 3F 80 00 00 3F 4C CC CD 00 00 00 00 43 20 00 00 42 A0 00 00 42 A0 00 00 43 A0 00 00 00 00 00 00 42 A0 00 00 42 A0 00 00 42 A0 00 00 43 70 00 00 43 48 00 00 42 F0 00 00 43 B4 00 00 3F 25 1E B8 3E F8 51 EC 3F 44 5A 1D 3F 78 D4 FE 42 48 41 32
write:13 03 00 38 00 34 C6 A2
13 03 68
1943 6E 53 B6 43 6E 68 B4 43 6E A9 37 43 CE 6A C1 43 CE 8C 08 43 CE 80 E5 3F D7 0A 3D 3F 99 99 9A 40 0A 3D 71 43 70 00 00 00 00 00 00 43 C8 00 00 44 48 00 00 43 70 00 00 43 70 00 00 43 70 00 00 44 48 00 00 43 C8 00 00 43 A0 00 00 43 F0 00 00 44 8C 00 00 3F 32 6E 98 3E 60 41 89 3F 5B A5 E3 3F 36 C8 B4 42 48 13 EC
write:18 03 07 CF 00 78 76 AA
write:13 03 07 CF 00 78 77 D1
18 03 F0
24totalsize 240
44 5E 40 00 43 54 33 33 43 F2 99 9A 00 00 00 00 43 3F 99 9A 00 00 00 00 00 00 00 00 00 00 00 00 00 00 00 00 00 00 00 00 43 33 00 00 41 DE 66 66 42 D4 00 00 00 00 00 00 42 34 00 00 41 D3 33 33 40 F3 33 33 41 73 33 33 00 00 00 00 40 66 66 66 44 19 99 9A 43 00 00 00 43 A7 CC CD 00 00 00 00 43 16 99 9A 00 00 00 00 00 00 00 00 00 00 00 00 00 00 00 00 00 00 00 00 42 45 99 9A 3F 80 00 00 42 09 99 9A 00 00 00 00 41 60 00 00 42 0A 66 66 41 00 00 00 41 AC CC CD 00 00 00 00 40 99 99 9A 44 3F E6 66 43 0C 33 33 43 D9 E6 66 00 00 00 00 43 3F 66 66 00 00 00 00 00 00 00 00 00 00 00 00 00 00 00 00 00 00 00 00 43 A3 99 9A 41 A8 00 00 43 6C 99 FE F1 FC 91 00 42 8A CC CD 42 1B 33 33 41 23 33 33 41 A6 66 66 00 00 00 00 40 F9 F3 38
write:18 03 01 0F 00 08 77 FA
write:13 03 01 0F 00 08 76 81
18 03 10
2400 02 01 98 00 00 00 00 00 00 C6 12 00 00 4E 69
43 6E 2E 14
238.18
43 6E 73 F8
238.453
43 6E AF 5C
238.685
43 CE 54 9C
412.661
43 CE 8C 08
413.094
43 CE 6A C1
412.834
3F 80 00 00
1
3F 4C CC CD
0.8
00 00 00 00
0
43 20 00 00
160
42 A0 00 00
80
42 A0 00 00
80
43 A0 00 00
320
00 00 00 00
0
42 A0 00 00
80
42 A0 00 00
80
42 A0 00 00
80
43 70 00 00
240
43 48 00 00
200
42 F0 00 00
120
43 B4 00 00
360
3F 25 1E B8
0.645
3E F8 51 EC
0.485
3F 44 5A 1D
0.767
3F 78 D4 FE
0.972
42 48 41 32
50.063667
44 5E 40 00
889
43 54 33 33
212.2
43 F2 99 9A
485.2
00 00 00 00
0
43 3F 99 9A
191.6
00 00 00 00
0
00 00 00 00
0
00 00 00 00
0
00 00 00 00
0
00 00 00 00
0
43 33 00 00
179
41 DE 66 66
27.8
42 D4 00 00
106
00 00 00 00
0
42 34 00 00
45
41 D3 33 33
26.4
40 F3 33 33
7.6
41 73 33 33
15.2
00 00 00 00
0
40 66 66 66
3.6
44 19 99 9A
614.4
43 00 00 00
128
43 A7 CC CD
335.6
00 00 00 00
0
43 16 99 9A
150.6
00 00 00 00
0
00 00 00 00
0
00 00 00 00
0
00 00 00 00
0
00 00 00 00
0
42 45 99 9A
49.4
3F 80 00 00
1
42 09 99 9A
34.4
00 00 00 00
0
41 60 00 00
14
42 0A 66 66
34.6
41 00 00 00
8
41 AC CC CD
21.6
00 00 00 00
0
40 99 99 9A
4.8
44 3F E6 66
767.6
43 0C 33 33
140.2
43 D9 E6 66
435.8
00 00 00 00
0
43 3F 66 66
191.4
00 00 00 00
0
00 00 00 00
0
00 00 00 00
0
00 00 00 00
0
00 00 00 00
0
43 A3 99 9A
327.2
41 A8 00 00
21
43 6C 99 FE
236.60153
F1 FC 91 00
-2.5012965e+30
42 8A CC CD
69.4
42 1B 33 33
38.8
41 23 33 33
10.2
41 A6 66 66
20.8
00 00 00 00
0
40 F9 F3 38
7.81094
00 02 01 98
131480
00 00 00 00
0
00 00 C6 12
50706
00 00 4E 69
20073
238.18238.453238.685412.661413.094412.83410.80160808032008080802402001203600.6450.4850.7670.97250.063667889212.2485.20191.60000017927.810604526.47.615.203.6614.4128335.60150.60000049.4134.401434.6821.604.8767.6140.2435.80191.400000327.221236.60153-2.5012965e+3069.438.810.220.807.810942420171124233730131.48050.70620.073insert into tbl_power_info_v2(P_A_DIANYA,P_B_DIANYA,P_C_DIANYA,P_UAB_XIANDIANYA,P_UBC_XIANDIANYA,P_UCA_XIANDIANYA,P_A_DIANLIU,P_B_DIANLIU,P_C_DIANLIU,P_A_YGGL,P_B_YGGL,P_C_YGGL,P_HXYGGL,P_A_WGGL,P_B_WGGL,P_C_WGGL,P_HXWGGL,P_A_SZGL,P_B_SZGL,P_C_SZGL,P_HXSZGL,P_A_GLYS,P_B_GLYS,P_C_GLYS,P_HXGLYS,P_DWPL,P_BY_KwhZ,P_BY_KwhJ,P_BY_KwhF,P_BY_KwhP,P_BY_KwhG,P_BY_HKwhZ,P_BY_HKwhJ,P_BY_HKwhF,P_BY_HKwhP,P_BY_HKwhG, P_BY_KvarhZ,P_BY_KvarhJ,P_BY_KvarhF,P_BY_KvarhP,P_BY_KvarhG, P_BY_HKvarhZ,P_BY_HKvarhJ,P_BY_HKvarhF,P_BY_HKvarhP,P_BY_HKvarhG, P_SY_KwhZ,P_SY_KwhJ,P_SY_KwhF,P_SY_KwhP,P_SY_KwhG, P_SY_HKwhZ,P_SY_HKwhJ,P_SY_HKwhF,P_SY_HKwhP,P_SY_HKwhG, P_SY_KvarhZ,P_SY_KvarhJ,P_SY_KvarhF,P_SY_KvarhP,P_SY_KvarhG, P_SY_HKvarhZ,P_SY_HKvarhJ,P_SY_HKvarhF,P_SY_HKvarhP,P_SY_HKvarhG, P_SSY_KwhZ,P_SSY_KwhJ,P_SSY_KwhF,P_SSY_KwhP,P_SSY_KwhG, P_SSY_HKwhZ,P_SSY_HKwhJ,P_SSY_HKwhF,P_SSY_HKwhP,P_SSY_HKwhG, P_SSY_KvarhZ,P_SSY_KvarhJ,P_SSY_KvarhF,P_SSY_KvarhP,P_SSY_KvarhG, P_SSY_HKvarhZ,P_SSY_HKvarhJ,P_SSY_HKvarhF,P_SSY_HKvarhP,P_SSY_HKvarhG,P_CODE,P_TIME,P_ZXYGDN,P_FXYGDN,P_ZXWGDN,P_FXWGDN)values(238.18,238.453,238.685,412.661,413.094,412.834,1,0.8,0,160,80,80,320,0,80,80,80,240,200,120,360,0.645,0.485,0.767,0.972,50.063667,889,212.2,485.2,0,191.6,0,0,0,0,0,179,27.8,106,0,45,26.4,7.6,15.2,0,3.6,614.4,128,335.6,0,150.6,0,0,0,0,0,49.4,1,34.4,0,14,34.6,8,21.6,0,4.8,767.6,140.2,435.8,0,191.4,0,0,0,0,0,327.2,21,236.60153,-2.5012965e+30,69.4,38.8,10.2,20.8,0,7.81094,24,20171124233730,131.48,0,50.706,20.073)
写入成功读取完毕一个
13 03 10
1900 02 93 06 00 00 00 00 00 00 35 3F 00 00 B8 AD
write:19 03 00 38 00 34 C6 08
write:14 03 00 38 00 34 C7 15
19 03 68
2543 6E 7D B2 43 6E 86 A8 43 6E C4 5A 43 CE 80 E5 F9 CF FD 7D 43 CE 97 0A 00 00 00 00 3F 61 47 AE 3F 4C CC CD 42 A0 00 00 43 20 00 00 43 20 00 00 43 B4 00 00 00 00 00 00 42 A0 00 00 42 F0 00 00 00 00 00 00 42 A0 00 00 43 48 00 00 43 48 00 00 43 B4 00 00 3F 6E 14 7B 3F 2C 49 BA 3F 43 D7 0A 3F 80 00 00 42 48 5B 11
write:19 03 07 CF 00 78 77 7B
write:14 03 07 CF 00 78 76 66
write:19 03 01 0F 00 08 76 2B
write:14 03 01 0F 00 08 77 36
write:1A 03 00 38 00 34 C6 3B
write:15 03 00 38 00 34 C6 C4
14 03 F0
20totalsize 240
44 9D 46 66 43 C6 E6 66 43 90 CC CD 00 00 00 00 44 0E A6 66 00 00 00 00 00 00 00 00 00 00 00 00 00 00 00 00 00 00 00 00 40 0C CC CD 00 00 00 00 40 0C CC CD 00 00 00 00 00 00 00 00 43 91 99 9A 42 BD 99 9A 42 7A 66 66 00 00 00 00 43 05 99 9A 44 AC 73 33 43 E0 33 33 43 9A 66 66 00 00 00 00 44 1B 8C CD 00 00 00 00 00 00 19 03 F0 00 00 43 B5 E6 66 42 25 99 9A 43 4F 66 66 00 00 00 00 42 E5 99 9A 00 00 00 00 00 00 00 00 00 00 00 00 00 00 00 00 00 00 00 00 41 6C CC CD 00 00 00 00 41 5C CC CD 00 00 00 00 3F 80 00 00 42 1D 99 9A 40 EC CC CD 41 79 99 9A 00 00 00 00 41 81 99 9A 43 B7 B3 33 42 3F 33 33 43 3E 00 00 00 00 00 00 43 01 66 66 00 00 00 00 00 00 00 00 00 00 00 00 00 00 00 00 00 00 00 00 01 00 00 00 00 00 00 00 00
00 00 00
heart:00 00 00 FF 00 00 00 00 00 00 00 00 FF 00 02 22 00 00 00 00 00 00 00 00 00 00 00 00 00 00 00 00 02 40 00 80 00 00 00 00 02 00 00 00 00 00 00 00 00 00 00 00 00 00 00 00 00 00 00 00 00 00 00 00 00 00 00 00 00 00 00 00 00 00 00 00 00 00 00 00 00 00 00 00 1A 00 00 00 00 00 00 00 00 00 FF 21 11 00 00 00 00 00 00 FF 00 00 03 00 00 00 00 41 20 27 24 42 3B 33 33 00 00 00 00 43 01 97 8A 19 03 10 00 00 00 00 F3 10 00 00 00 00 00 00 06 92 00 00 70 5B 77 77 77 2E 75 73 72 2E 63 6E
14 03 10
2000 04 18 38 00 00 00 00 00 00 13 51 00 00 42 C7
1A 03 68
2643 6D 8B 85 43 6D EE 56 43 6D C3 D7 43 CD DA A0 43 CD F0 C5 43 CD C4 7B 00 00 00 00 40 21 47 AE 40 5E B8 52 00 00 00 00 43 B4 00 00 43 F0 00 00 44 52 00 00 43 B4 00 00 43 F0 00 00 44 16 00 00 44 B4 00 00 43 B4 00 00 44 16 00 00 44 52 00 00 44 D2 00 00 3E 22 D0 E5 3F 15 3F 7D 3F 06 66 66 3F 01 06 25 42 47 CD C3
15 03 68
2143 6D 8C 08 43 6E 02 D1 43 6D E0 C5 43 CD E5 C3 43 CE 06 E9 43 CD CF 7D 00 00 00 00 00 00 00 00 00 00 00 00 00 00 00 00 00 00 00 00 00 00 00 00 00 00 00 00 00 00 00 00 00 00 00 00 00 00 00 00 00 00 00 00 00 00 00 00 00 00 00 00 00 00 00 00 00 00 00 00 00 00 00 00 00 00 00 00 00 00 00 00 00 00 00 00 42 47 D5 75
write:1A 03 07 CF 00 78 77 48
1A 03 F0
26totalsize 240
44 DD 8C CD 43 38 CC CD 44 7A 33 33 00 00 00 00 44 12 66 66 00 00 00 00 00 00 00 00 00 00 00 00 00 00 00 00 00 00 00 00 42 97 33 33 40 99 99 9A 42 1C 00 00 00 00 00 00 41 F9 99 9A 44 50 CC CD 43 07 00 00 43 B4 99 9A 00 00 00 00 43 A9 33 33 44 AC E0 00 43 0E CC CD 44 4A 33 33 00 00 00 00 43 D7 19 9A 00 00 00 00 00 00 00 00 00 00 00 00 00 00 00 00 00 00 00 00 40 C0 00 00 3F E6 66 66 40 19 99 9A 00 00 00 00 3F 99 99 9A 44 70 00 00 43 11 33 33 43 D5 4C CD 00 00 00 00 43 C1 CC CD 44 E4 00 00 42 EE CC CD 44 94 20 00 00 00 00 00 44 01 E6 66 00 00 00 00 00 00 00 00 00 00 00 00 00 00 00 00 00 00 00 00 42 0B 33 33 00 00 00 00 41 D3 33 33 00 00 00 00 41 06 66 66 44 3E F3 33 42 F7 33 33 43 9F E6 66 00 00 00 00 43 9F B1 C7
write:15 03 07 CF 00 78 77 B7
15 03 F0
21totalsize 240
40 CC CC CD 00 00 00 00 40 A6 66 66 00 00 00 00 3F 99 99 9A 00 00 00 00 00 00 00 00 00 00 00 00 00 00 00 00 00 00 00 00 3E CC CC CD 00 00 00 00 3E CC CC CD 00 00 00 00 00 00 00 00 00 00 00 00 00 00 00 00 00 00 00 00 00 00 00 00 00 00 00 00 40 8C CC CD 00 00 00 00 40 66 66 66 00 00 00 00 3F 4C CC CD 00 00 00 00 00 00 00 00 00 00 00 00 00 00 00 00 00 00 00 00 00 00 00 00 00 00 00 00 00 00 00 00 00 00 00 00 00 00 00 00 00 00 00 00 00 00 00 00 00 00 00 00 00 00 00 00 00 00 00 00 42 1E 66 66 00 00 00 00 41 F3 33 33 00 00 00 00 41 13 33 33 00 00 00 00 00 00 00 00 00 00 00 00 00 00 00 00 00 00 00 00 42 D8 00 00 00 00 00 00 42 A3 33 33 00 00 00 00 41 D0 00 00 00 00 00 00 00 00 00 00 00 00 00 00 00 00 00 00 00 00 7F 8C
write:1A 03 01 0F 00 08 76 18
1A 03 10
2600 00 00 00 00 00 00 00 00 00 00 00 00 00 00 00
43 6D 8B 85
237.545
43 6D EE 56
237.931
43 6D C3 D7
237.765
43 CD DA A0
411.708
43 CD F0 C5
411.881
43 CD C4 7B
411.535
00 00 00 00
0
40 21 47 AE
2.52
40 5E B8 52
3.48
00 00 00 00
0
43 B4 00 00
360
43 F0 00 00
480
44 52 00 00
840
43 B4 00 00
360
43 F0 00 00
480
44 16 00 00
600
44 B4 00 00
1440
43 B4 00 00
360
44 16 00 00
600
44 52 00 00
840
44 D2 00 00
1680
3E 22 D0 E5
0.159
3F 15 3F 7D
0.583
3F 06 66 66
0.525
3F 01 06 25
0.504
42 47 CD C3
49.95094
44 DD 8C CD
1772.4
43 38 CC CD
184.8
44 7A 33 33
1000.8
00 00 00 00
0
44 12 66 66
585.6
00 00 00 00
0
00 00 00 00
0
00 00 00 00
0
00 00 00 00
0
00 00 00 00
0
42 97 33 33
75.6
40 99 99 9A
4.8
42 1C 00 00
39
00 00 00 00
0
41 F9 99 9A
31.2
44 50 CC CD
835.2
43 07 00 00
135
43 B4 99 9A
361.2
00 00 00 00
0
43 A9 33 33
338.4
44 AC E0 00
1383
43 0E CC CD
142.8
44 4A 33 33
808.8
00 00 00 00
0
43 D7 19 9A
430.2
00 00 00 00
0
00 00 00 00
0
00 00 00 00
0
00 00 00 00
0
00 00 00 00
0
40 C0 00 00
6
3F E6 66 66
1.8
40 19 99 9A
2.4
00 00 00 00
0
3F 99 99 9A
1.2
44 70 00 00
960
43 11 33 33
145.2
43 D5 4C CD
426.6
00 00 00 00
0
43 C1 CC CD
387.6
44 E4 00 00
1824
42 EE CC CD
119.4
44 94 20 00
1185
00 00 00 00
0
44 01 E6 66
519.6
00 00 00 00
0
00 00 00 00
0
00 00 00 00
0
00 00 00 00
0
00 00 00 00
0
42 0B 33 33
34.8
00 00 00 00
0
41 D3 33 33
26.4
00 00 00 00
0
41 06 66 66
8.4
44 3E F3 33
763.8
42 F7 33 33
123.6
43 9F E6 66
319.8
00 00 00 00
0
43 9F B1 C7
319.3889
00 00 00 00
0
00 00 00 00
0
00 00 00 00
0
00 00 00 00
0
237.545237.931237.765411.708411.881411.53502.523.480360480840360480600144036060084016800.1590.5830.5250.50449.950941772.4184.81000.80585.60000075.64.839031.2835.2135361.20338.41383142.8808.80430.20000061.82.401.2960145.2426.60387.61824119.411850519.60000034.8026.408.4763.8123.6319.80319.388926201711242339260000insert into tbl_power_info_v2(P_A_DIANYA,P_B_DIANYA,P_C_DIANYA,P_UAB_XIANDIANYA,P_UBC_XIANDIANYA,P_UCA_XIANDIANYA,P_A_DIANLIU,P_B_DIANLIU,P_C_DIANLIU,P_A_YGGL,P_B_YGGL,P_C_YGGL,P_HXYGGL,P_A_WGGL,P_B_WGGL,P_C_WGGL,P_HXWGGL,P_A_SZGL,P_B_SZGL,P_C_SZGL,P_HXSZGL,P_A_GLYS,P_B_GLYS,P_C_GLYS,P_HXGLYS,P_DWPL,P_BY_KwhZ,P_BY_KwhJ,P_BY_KwhF,P_BY_KwhP,P_BY_KwhG,P_BY_HKwhZ,P_BY_HKwhJ,P_BY_HKwhF,P_BY_HKwhP,P_BY_HKwhG, P_BY_KvarhZ,P_BY_KvarhJ,P_BY_KvarhF,P_BY_KvarhP,P_BY_KvarhG, P_BY_HKvarhZ,P_BY_HKvarhJ,P_BY_HKvarhF,P_BY_HKvarhP,P_BY_HKvarhG, P_SY_KwhZ,P_SY_KwhJ,P_SY_KwhF,P_SY_KwhP,P_SY_KwhG, P_SY_HKwhZ,P_SY_HKwhJ,P_SY_HKwhF,P_SY_HKwhP,P_SY_HKwhG, P_SY_KvarhZ,P_SY_KvarhJ,P_SY_KvarhF,P_SY_KvarhP,P_SY_KvarhG, P_SY_HKvarhZ,P_SY_HKvarhJ,P_SY_HKvarhF,P_SY_HKvarhP,P_SY_HKvarhG, P_SSY_KwhZ,P_SSY_KwhJ,P_SSY_KwhF,P_SSY_KwhP,P_SSY_KwhG, P_SSY_HKwhZ,P_SSY_HKwhJ,P_SSY_HKwhF,P_SSY_HKwhP,P_SSY_HKwhG, P_SSY_KvarhZ,P_SSY_KvarhJ,P_SSY_KvarhF,P_SSY_KvarhP,P_SSY_KvarhG, P_SSY_HKvarhZ,P_SSY_HKvarhJ,P_SSY_HKvarhF,P_SSY_HKvarhP,P_SSY_HKvarhG,P_CODE,P_TIME,P_ZXYGDN,P_FXYGDN,P_ZXWGDN,P_FXWGDN)values(237.545,237.931,237.765,411.708,411.881,411.535,0,2.52,3.48,0,360,480,840,360,480,600,1440,360,600,840,1680,0.159,0.583,0.525,0.504,49.95094,1772.4,184.8,1000.8,0,585.6,0,0,0,0,0,75.6,4.8,39,0,31.2,835.2,135,361.2,0,338.4,1383,142.8,808.8,0,430.2,0,0,0,0,0,6,1.8,2.4,0,1.2,960,145.2,426.6,0,387.6,1824,119.4,1185,0,519.6,0,0,0,0,0,34.8,0,26.4,0,8.4,763.8,123.6,319.8,0,319.3889,26,20171124233926,0,0,0,0)
写入成功读取完毕一个
02 87 44
heart:02 87 44 00 00 00 00 00 00 3D F8 00 00 BA E4
write:15 03 01 0F 00 08 76 E7
15 03 10
2100 00 18 94 00 00 00 00 00 00 1D 3D 00 00 8E 18
43 6D 8C 08
237.547
43 6E 02 D1
238.011
43 6D E0 C5
237.878
43 CD E5 C3
411.795
43 CE 06 E9
412.054
43 CD CF 7D
411.621
00 00 00 00
0
00 00 00 00
0
00 00 00 00
0
00 00 00 00
0
00 00 00 00
0
00 00 00 00
0
00 00 00 00
0
00 00 00 00
0
00 00 00 00
0
00 00 00 00
0
00 00 00 00
0
00 00 00 00
0
00 00 00 00
0
00 00 00 00
0
00 00 00 00
0
00 00 00 00
0
00 00 00 00
0
00 00 00 00
0
00 00 00 00
0
42 47 D5 75
49.958454
40 CC CC CD
6.4
00 00 00 00
0
40 A6 66 66
5.2
00 00 00 00
0
3F 99 99 9A
1.2
00 00 00 00
0
00 00 00 00
0
00 00 00 00
0
00 00 00 00
0
00 00 00 00
0
3E CC CC CD
0.4
00 00 00 00
0
3E CC CC CD
0.4
00 00 00 00
0
00 00 00 00
0
00 00 00 00
0
00 00 00 00
0
00 00 00 00
0
00 00 00 00
0
00 00 00 00
0
40 8C CC CD
4.4
00 00 00 00
0
40 66 66 66
3.6
00 00 00 00
0
3F 4C CC CD
0.8
00 00 00 00
0
00 00 00 00
0
00 00 00 00
0
00 00 00 00
0
00 00 00 00
0
00 00 00 00
0
00 00 00 00
0
00 00 00 00
0
00 00 00 00
0
00 00 00 00
0
00 00 00 00
0
00 00 00 00
0
00 00 00 00
0
00 00 00 00
0
00 00 00 00
0
42 1E 66 66
39.6
00 00 00 00
0
41 F3 33 33
30.4
00 00 00 00
0
41 13 33 33
9.2
00 00 00 00
0
00 00 00 00
0
00 00 00 00
0
00 00 00 00
0
00 00 00 00
0
42 D8 00 00
108
00 00 00 00
0
42 A3 33 33
81.6
00 00 00 00
0
41 D0 00 00
26
00 00 00 00
0
00 00 00 00
0
00 00 00 00
0
00 00 00 00
0
00 00 7F 8C
4.5755e-41
00 00 18 94
6292
00 00 00 00
0
00 00 1D 3D
7485
00 00 8E 18
36376
237.547238.011237.878411.795412.054411.621000000000000000000049.9584546.405.201.2000000.400.400000004.403.600.800000000000000039.6030.409.200000108081.602600004.5755e-4121201711242339306.29207.48536.376insert into tbl_power_info_v2(P_A_DIANYA,P_B_DIANYA,P_C_DIANYA,P_UAB_XIANDIANYA,P_UBC_XIANDIANYA,P_UCA_XIANDIANYA,P_A_DIANLIU,P_B_DIANLIU,P_C_DIANLIU,P_A_YGGL,P_B_YGGL,P_C_YGGL,P_HXYGGL,P_A_WGGL,P_B_WGGL,P_C_WGGL,P_HXWGGL,P_A_SZGL,P_B_SZGL,P_C_SZGL,P_HXSZGL,P_A_GLYS,P_B_GLYS,P_C_GLYS,P_HXGLYS,P_DWPL,P_BY_KwhZ,P_BY_KwhJ,P_BY_KwhF,P_BY_KwhP,P_BY_KwhG,P_BY_HKwhZ,P_BY_HKwhJ,P_BY_HKwhF,P_BY_HKwhP,P_BY_HKwhG, P_BY_KvarhZ,P_BY_KvarhJ,P_BY_KvarhF,P_BY_KvarhP,P_BY_KvarhG, P_BY_HKvarhZ,P_BY_HKvarhJ,P_BY_HKvarhF,P_BY_HKvarhP,P_BY_HKvarhG, P_SY_KwhZ,P_SY_KwhJ,P_SY_KwhF,P_SY_KwhP,P_SY_KwhG, P_SY_HKwhZ,P_SY_HKwhJ,P_SY_HKwhF,P_SY_HKwhP,P_SY_HKwhG, P_SY_KvarhZ,P_SY_KvarhJ,P_SY_KvarhF,P_SY_KvarhP,P_SY_KvarhG, P_SY_HKvarhZ,P_SY_HKvarhJ,P_SY_HKvarhF,P_SY_HKvarhP,P_SY_HKvarhG, P_SSY_KwhZ,P_SSY_KwhJ,P_SSY_KwhF,P_SSY_KwhP,P_SSY_KwhG, P_SSY_HKwhZ,P_SSY_HKwhJ,P_SSY_HKwhF,P_SSY_HKwhP,P_SSY_HKwhG, P_SSY_KvarhZ,P_SSY_KvarhJ,P_SSY_KvarhF,P_SSY_KvarhP,P_SSY_KvarhG, P_SSY_HKvarhZ,P_SSY_HKvarhJ,P_SSY_HKvarhF,P_SSY_HKvarhP,P_SSY_HKvarhG,P_CODE,P_TIME,P_ZXYGDN,P_FXYGDN,P_ZXWGDN,P_FXWGDN)values(237.547,238.011,237.878,411.795,412.054,411.621,0,0,0,0,0,0,0,0,0,0,0,0,0,0,0,0,0,0,0,49.958454,6.4,0,5.2,0,1.2,0,0,0,0,0,0.4,0,0.4,0,0,0,0,0,0,0,4.4,0,3.6,0,0.8,0,0,0,0,0,0,0,0,0,0,0,0,0,0,0,39.6,0,30.4,0,9.2,0,0,0,0,0,108,0,81.6,0,26,0,0,0,0,4.5755e-41,21,20171124233930,6.292,0,7.485,36.376)
写入成功读取完毕一个
write:1B 03 00 38 00 34 C7 EA
1B 03 68
2743 6D E8 73 43 6E 17 8D 43 6E 53 33 43 CE 12 0C 43 CE 3E 56 43 CE 33 54 40 11 EB 85 00 00 00 00 00 00 00 00 43 B4 00 00 00 00 00 00 43 70 00 00 44 16 00 00 43 F0 00 00 00 00 00 00 00 00 00 00 00 00 00 00 00 00 00 00 00 00 00 00 00 00 00 00 00 00 00 00 00 00 00 00 00 00 00 00 00 00 00 00 00 00 00 00 00 00 00 00
44 16 00
heart:44 16 00 00 44 16 00 00 00 00 00 00 43 70 00 00 44 52 00 00 3F 1C 28 F6 00 00 00 00 3F 4E 14 7B 3F 38 D4 FE 42 47 F8 1B
write:16 03 00 38 00 34 C6 F7
write:1B 03 07 CF 00 78 76 99
1B 03 F0
27totalsize 240
45 0F A9 9A 41 CE 66 66 44 DE E6 66 00 00 00 00 43 F4 80 00 00 00 00 00 00 00 00 00 00 00 00 00 00 00 00 00 00 00 00 00 44 31 00 00 41 90 00 00 43 F8 B3 33 00 00 00 00 43 40 00 00 00 00 00 00 00 00 00 00 00 00 00 00 00 00 00 00 00 00 00 00 45 10 D3 33 41 F9 99 9A 44 E5 33 33 00 00 00 00 43 E1 E6 66 00 00 00 00 00 00 00 00 00 00 00 00 00 00 00 00 00 00 00 00 44 24 40 00 41 86 66 66 43 E5 CC CD 00 00 00 00 43 34 99 9A 00 00 00 00 00 00 00 00 00 00 00 00 00 00 00 00 00 00 00 00 45 1D 76 66 42 4E 66 66 44 F5 19 9A 00 00 00 00 43 FD 33 33 00 00 00 00 00 00 00 00 00 00 00 00 00 00 00 00 00 00 00 00 44 73 99 9A 42 34 00 00 44 1E 8C CD 00 00 00 00 43 93 4C CD 00 00 00 00 00 00 00 00 00 00 00 00 00 00 00 00 00 00 42 75
write:16 03 07 CF 00 78 77 84
write:1B 03 01 0F 00 08 77 C9
write:16 03 01 0F 00 08 76 D4
77 77 77
heart:77 77 77 2E 75 73 72 2E 63 6E
write:1C 03 00 38 00 34 C6 5D
write:17 03 00 38 00 34 C7 26
write:1C 03 07 CF 00 78 77 2E
FF FF FE
heart:FF FF FE D7 14 00 02 2F 9D 00 00 00 00 00 00 D9 B6 00 00 35 BE
write:17 03 07 CF 00 78 76 55
17 03 F0
23totalsize 240
44 9A B9 9A 43 5B CC CD 44 4A 4C CD 00 00 00 00 43 50 99 9A 00 00 00 00 00 00 00 00 00 00 00 00 00 00 00 00 00 00 00 00 42 02 66 66 40 4C CC CD 41 C8 00 00 00 00 00 00 40 86 66 66 42 58 CC CD 41 40 00 00 41 B3 33 33 00 00 00 00 41 9C CC CD 44 AC 0C CD 43 8E E6 66 44 54 80 00 00 00 00 00 43 70 33 33 00 00 00 00 00 00 00 00 00 00 00 00 00 00 00 00 00 00 00 00 41 16 66 66 3E CC CC CD 40 D9 99 9A 00 00 00 00 3F E6 66 66 42 D5 33 33 41 BB 33 33 42 46 66 66 00 00 00 00 42 05 99 9A 44 EF 33 33 43 86 66 66 44 9D 8C CD 00 00 00 00 43 C0 19 9A 00 00 00 00 00 00 00 00 00 00 00 00 00 00 00 00 00 00 00 00 41 66 66 66 3F 19 99 9A 41 20 00 00 00 00 00 00 40 73 33 33 42 8D 99 9A 41 56 66 66 41 F6 66 66 00 00 00 00 41 D3 AA DE
write:1C 03 01 0F 00 08 76 7E
write:17 03 01 0F 00 08 77 05
17 03 10
2300 03 E7 B8 00 00 00 00 00 00 E7 64 00 00 D1 2D
43 6D EA 3D
237.915
43 6E 25 E3
238.148
43 6E 5B 64
238.357
43 CE 1D 2F
412.228
43 CE 49 79
412.574
43 CE 33 54
412.401
3F 61 47 AE
0.88
3F 57 0A 3D
0.84
00 97 EF D7
1.3953198e-38
5E F0 00 00
8.6469113e+18
42 F0 00 00
120
00 00 00 00
0
43 70 00 00
240
42 A0 00 00
80
42 A0 00 00
80
00 00 00 00
0
42 F0 00 00
120
43 48 00 00
200
43 48 00 00
200
00 00 00 00
0
43 8C 00 00
280
3E FF 7C EE
0.499
3F 35 3F 7D
0.708
00 00 00 00
0
3F 63 95 81
0.889
42 47 08 39
49.75803
44 9A B9 9A
1237.8
43 5B CC CD
219.8
44 4A 4C CD
809.2
00 00 00 00
0
43 50 99 9A
208.6
00 00 00 00
0
00 00 00 00
0
00 00 00 00
0
00 00 00 00
0
00 00 00 00
0
42 02 66 66
32.6
40 4C CC CD
3.2
41 C8 00 00
25
00 00 00 00
0
40 86 66 66
4.2
42 58 CC CD
54.2
41 40 00 00
12
41 B3 33 33
22.4
00 00 00 00
0
41 9C CC CD
19.6
44 AC 0C CD
1376.4
43 8E E6 66
285.8
44 54 80 00
850
00 00 00 00
0
43 70 33 33
240.2
00 00 00 00
0
00 00 00 00
0
00 00 00 00
0
00 00 00 00
0
00 00 00 00
0
41 16 66 66
9.4
3E CC CC CD
0.4
40 D9 99 9A
6.8
00 00 00 00
0
3F E6 66 66
1.8
42 D5 33 33
106.6
41 BB 33 33
23.4
42 46 66 66
49.6
00 00 00 00
0
42 05 99 9A
33.4
44 EF 33 33
1913.6
43 86 66 66
268.8
44 9D 8C CD
1260.4
00 00 00 00
0
43 C0 19 9A
384.2
00 00 00 00
0
00 00 00 00
0
00 00 00 00
0
00 00 00 00
0
00 00 00 00
0
41 66 66 66
14.4
3F 19 99 9A
0.6
41 20 00 00
10
00 00 00 00
0
40 73 33 33
3.8
42 8D 99 9A
70.8
41 56 66 66
13.4
41 F6 66 66
30.8
00 00 00 00
0
41 D3 AA DE
26.458431
00 03 E7 B8
255928
00 00 00 00
0
00 00 E7 64
59236
00 00 D1 2D
53549
237.915238.148238.357412.228412.574412.4010.880.841.3953198e-388.6469113e+1812002408080012020020002800.4990.70800.88949.758031237.8219.8809.20208.60000032.63.22504.254.21222.4019.61376.4285.88500240.2000009.40.46.801.8106.623.449.6033.41913.6268.81260.40384.20000014.40.61003.870.813.430.8026.4584312320171124234135255.928059.23653.549insert into tbl_power_info_v2(P_A_DIANYA,P_B_DIANYA,P_C_DIANYA,P_UAB_XIANDIANYA,P_UBC_XIANDIANYA,P_UCA_XIANDIANYA,P_A_DIANLIU,P_B_DIANLIU,P_C_DIANLIU,P_A_YGGL,P_B_YGGL,P_C_YGGL,P_HXYGGL,P_A_WGGL,P_B_WGGL,P_C_WGGL,P_HXWGGL,P_A_SZGL,P_B_SZGL,P_C_SZGL,P_HXSZGL,P_A_GLYS,P_B_GLYS,P_C_GLYS,P_HXGLYS,P_DWPL,P_BY_KwhZ,P_BY_KwhJ,P_BY_KwhF,P_BY_KwhP,P_BY_KwhG,P_BY_HKwhZ,P_BY_HKwhJ,P_BY_HKwhF,P_BY_HKwhP,P_BY_HKwhG, P_BY_KvarhZ,P_BY_KvarhJ,P_BY_KvarhF,P_BY_KvarhP,P_BY_KvarhG, P_BY_HKvarhZ,P_BY_HKvarhJ,P_BY_HKvarhF,P_BY_HKvarhP,P_BY_HKvarhG, P_SY_KwhZ,P_SY_KwhJ,P_SY_KwhF,P_SY_KwhP,P_SY_KwhG, P_SY_HKwhZ,P_SY_HKwhJ,P_SY_HKwhF,P_SY_HKwhP,P_SY_HKwhG, P_SY_KvarhZ,P_SY_KvarhJ,P_SY_KvarhF,P_SY_KvarhP,P_SY_KvarhG, P_SY_HKvarhZ,P_SY_HKvarhJ,P_SY_HKvarhF,P_SY_HKvarhP,P_SY_HKvarhG, P_SSY_KwhZ,P_SSY_KwhJ,P_SSY_KwhF,P_SSY_KwhP,P_SSY_KwhG, P_SSY_HKwhZ,P_SSY_HKwhJ,P_SSY_HKwhF,P_SSY_HKwhP,P_SSY_HKwhG, P_SSY_KvarhZ,P_SSY_KvarhJ,P_SSY_KvarhF,P_SSY_KvarhP,P_SSY_KvarhG, P_SSY_HKvarhZ,P_SSY_HKvarhJ,P_SSY_HKvarhF,P_SSY_HKvarhP,P_SSY_HKvarhG,P_CODE,P_TIME,P_ZXYGDN,P_FXYGDN,P_ZXWGDN,P_FXWGDN)values(237.915,238.148,238.357,412.228,412.574,412.401,0.88,0.84,1.3953198e-38,8.6469113e+18,120,0,240,80,80,0,120,200,200,0,280,0.499,0.708,0,0.889,49.75803,1237.8,219.8,809.2,0,208.6,0,0,0,0,0,32.6,3.2,25,0,4.2,54.2,12,22.4,0,19.6,1376.4,285.8,850,0,240.2,0,0,0,0,0,9.4,0.4,6.8,0,1.8,106.6,23.4,49.6,0,33.4,1913.6,268.8,1260.4,0,384.2,0,0,0,0,0,14.4,0.6,10,0,3.8,70.8,13.4,30.8,0,26.458431,23,20171124234135,255.928,0,59.236,53.549)
写入成功读取完毕一个
write:1D 03 00 38 00 34 C7 8C
write:18 03 00 38 00 34 C7 D9
18 03 68
2443 6E 92 F2 43 6E BA A0 43 6E F3 33 43 CE A2 2D 43 CE CE 77 43 CE B8 52 3F 75 C2 8F 3F 4C CC CD 00 00 00 00 43 20 00 00 42 A0 00 00 42 A0 00 00 43 A0 00 00 00 00 00 00 42 A0 00 00 42 A0 00 00 42 A0 00 00 43 70 00 00 43 48 00 00 42 F0 00 00 43 B4 00 00 3F 25 A1 CB 3E F7 CE D9 3F 43 D7 0A 3F 78 93 75 42 48 EF DF
write:1D 03 07 CF 00 78 76 FF
write:18 03 07 CF 00 78 76 AA
77 77 77
heart:77 77 77 2E 75 73 72 2E 63 6E
write:1D 03 01 0F 00 08 77 AF
18 03 F0
24totalsize 240
44 5E 40 00 43 54 33 33 43 F2 99 9A 00 00 00 00 43 3F 99 9A 00 00 00 00 00 00 00 00 00 00 00 00 00 00 00 00 00 00 00 00 43 33 00 00 41 DE 66 66 42 D4 00 00 00 00 00 00 42 34 00 00 41 D3 33 33 40 F3 33 33 41 73 33 33 00 00 00 00 40 66 66 66 44 19 99 9A 43 00 00 00 43 A7 CC CD 00 00 00 00 43 16 99 9A 00 00 00 00 00 00 00 00 00 00 00 00 00 00 00 00 00 00 00 00 42 45 99 9A 3F 80 00 00 42 09 99 9A 00 00 00 00 41 60 00 00 42 0A 66 66 41 00 00 00 41 AC CC CD 00 00 00 00 40 99 99 9A 44 3F E6 66 43 0C 33 33 43 D9 E6 66 00 00 00 00 43 3F 66 66 00 00 00 00 00 00 00 00 00 00 00 00 00 00 00 00 00 00 00 00 43 A3 99 9A 41 A8 00 00 43 6C 99 9A 00 00 00 00 42 8A CC CD 42 1B 33 33 41 23 33 33 41 A6 66 66 00 00 00 00 40 F9 F3 38
write:18 03 01 0F 00 08 77 FA
write:1E 03 00 38 00 34 C7 BF
write:19 03 00 38 00 34 C6 08
write:1E 03 07 CF 00 78 76 CC
write:19 03 07 CF 00 78 77 7B
write:1E 03 01 0F 00 08 77 9C
write:19 03 01 0F 00 08 76 2B
write:1F 03 00 38 00 34 C6 6E
write:1A 03 00 38 00 34 C6 3B
write:1F 03 07 CF 00 78 77 1D
write:1A 03 07 CF 00 78 77 48
77 77 77
heart:77 77 77 2E 75 73 72 2E 63 6E
write:1F 03 01 0F 00 08 76 4D
write:1A 03 01 0F 00 08 76 18
write:20 03 00 38 00 34 C3 61
write:1B 03 00 38 00 34 C7 EA
77 77 77
heart:77 77 77 2E 75 73 72 2E 63 6E 18 03 10 00 00 00 02 01 99 00 00 00 00 00 00 C6 12 00 00 4A 95 1A 03 68 00 00 43 6F 0D D3 43 6F 3F 7D 43 6F 3C 6A 43 CF 11 06 43 CF 27 2B 43 CF 11 06 00 00 00 00 40 21 47 AE 40 5E B8 52 00 00 00 00 43 B4 00 00 43 F0 00 00 44 52 00 00 43 B4 00 00 43 F0 00 00 44 16 00 00 44 B4 19 00 43 B4 00 00 44 16 00 00 44 52 00 00 44 D2 00 00 3E 1A 9F BE 3F 15 81 06 3F 05 60 42 3F 00 41 89 42 48 1E FA 1A 03 F0 00 00 44 DD 8C CD 43 38 CC CD 44 7A 33 33 00 00 00 00 44 12 66 66 00 00 00 00 00 00 00 00 00 00 00 00 00 00 00 00 00 00 00 00 42 97 33 33 40 99 99 9A 42 1C 00 00 00 00 00 00 41 F9 99 9A 44 50 CC CD 43 07 00 00 43 B4 99 9A 00 00 00 00 43 A9 33 33 44 AC E0 00 43 0E CC CD 44 4A 33 33 00 00 00 00 43 D7 19 9A 00 00 00 00 00 00 00 00 00 00 00 00 00 00 00 00 00 00 00 00 40 C0 00 00 3F E6 66 66 40 19 99 9A 00 00 00 00 3F 99 99 9A 44 70 00 00 43 11 33 33 43 D5 4C CD 00 00 00 00 43 C1 CC CD 44 E4 00 00 42 EE CC CD 44 94 20 00 00 00 00 00 44 01 E6 66 00 00 00 00 00 00 00 00 00 00 00 00 00 00 00 00 00 00 00 00 42 0B 33 33 00 00 00 00 41 D3 33 33 00 00 00 00 41 06 66 66 44 3E F3 33 42 F7 33 33 43 9F E6 66 00 00 00 00 43 9F B1 C7 1A 03 10 00 00 00 02 87 45 00 00 00 00 00 00 3D F8 00 00 BE 18
1B 03 68
2743 6E 47 AE 43 6E 96 87 43 6E E9 BA 43 CE 6A C1 43 CE B8 52 43 CE 97 0A 00 00 00 00 00 00 00 00 00 00 00 00 43 70 00 00 00 00 00 00 43 70 00 00 43 F0 00 00 43 70 00 00 00 00 00 00 00 00 00 00 43 F0 00 00 43 B4 00 00 00 00 00 00 43 70 00 00 44 16 00 00 3F 22 8F 5C 00 00 00 00 3F 4E 14 7B 3F 42 D0 E5 42 48 60 7D
write:20 03 07 CF 00 78 72 12
write:1B 03 07 CF 00 78 76 99
1B 03 F0
27totalsize 240
45 0F A9 9A 41 CE 66 66 44 DE E6 66 00 00 00 00 43 F4 80 00 00 00 00 00 00 00 00 00 00 00 00 00 00 00 00 00 00 00 00 00 44 31 00 00 41 90 00 00 43 F8 B3 33 00 00 00 00 43 40 00 00 00 00 00 00 00 00 00 00 00 00 00 00 00 00 00 00 00 00 00 00 45 10 D3 33 41 F9 99 9A 44 E5 33 33 00 00 00 00 43 E1 E6 66 00 00 00 00 00 00 00 00 00 00 00 00 00 00 00 00 00 00 00 00 44 24 40 00 41 86 66 66 43 E5 CC CD 00 00 00 00 43 34 99 9A 00 00 00 00 00 00 00 00 00 00 00 00 00 00 00 00 00 00 00 00 45 1D 76 66 42 4E 66 66 44 F5 19 9A 00 00 00 00 43 FD 33 33 00 00 00 00 00 00 00 00 00 00 00 00 00 00 00 00 00 00 00 00 44 73 99 9A 42 34 00 00 44 1E 8C CD 00 00 00 00 43 93 4C CD 00 00 00 00 00 00 00 00 00 00 00 00 00 00 00 00 00 00 42 75
write:20 03 01 0F 00 08 73 42
write:1B 03 01 0F 00 08 77 C9
write:1C 03 00 38 00 34 C6 5D
write:12 03 00 38 00 34 C7 73
write:1C 03 07 CF 00 78 77 2E
write:12 03 07 CF 00 78 76 00
77 77 77
heart:77 77 77 2E 75 73 72 2E 63 6E 1B 03 10 00 00 00 02 2F 9E 00 00 00 00 00 00 D9 B7 00 00 6B 3A 12 03 68 00 00 43 6E 13 33 43 6E 97 4C 43 6E B0 E5 43 CE 54 9C 43 CE 97 0A 43 CE 80 E5 43 3D F5 C3 43 3D 7A E1 43 2F 33 33 47 24 10 00 47 23 20 00 47 15 10 00 47 ED E4 00 45 FB 40 00 45 A8 C0 00 45 68 80 00 46 86 10 00 47 2F C8 00 47 30 B8 00 47 23 98 00 47 F2 58 00 3F 6F 5C 29 3F 6B 02 0C 3F 6F 1A A0 3F 7D 70 A4 42 48 9E 5A
12 03 F0
18totalsize 240
47 8A AD 1A 46 2F D6 66 47 02 8B 66 00 00 00 00 46 CD B1 33 00 00 00 00 00 00 00 00 00 00 00 00 00 00 00 00 00 00 00 00 46 82 C8 00 45 1D D6 66 46 08 CC CD 00 00 00 00 45 AA 96 66 00 00 00 00 00 00 00 00 00 00 00 00 00 00 00 00 00 00 00 00 47 A9 B7 80 46 5C 9F 33 47 22 D6 CD 00 00 00 00 46 F2 DF 9A 00 00 00 00 00 00 00 00 00 00 00 00 00 00 00 00 00 00 00 00 46 B2 70 66 45 65 B9 9A 46 3A EB 33 00 00 00 00 45 E1 09 9A 00 00 00 00 00 00 00 00 00 00 00 00 00 00 00 00 00 00 00 00 47 82 8D CD 46 41 63 33 46 D4 77 33 00 00 00 00 46 D5 0E 66 00 00 00 00 00 00 00 00 00 00 00 00 00 00 00 00 00 00 00 00 46 95 B4 66 45 65 46 66 45 FB B3 33 00 00 00 00 45 E8 7B 33 00 00 00 00 00 00 00 00 00 00 00 00 00 00 00 00 00 00 2E BF
write:1C 03 01 0F 00 08 76 7E
write:12 03 01 0F 00 08 77 50
12 03 10
1800 40 86 1B 00 00 00 00 00 13 E2 2D 00 00 C2 3E
write:1D 03 00 38 00 34 C7 8C
write:13 03 00 38 00 34 C6 A2
13 03 68
1943 6E E3 D7 43 6F 31 68 43 6F C2 4E 43 CE EF BE 43 CF 53 96 43 CF 32 4E 3F D7 0A 3D 3F 99 99 9A 40 0A 3D 71 43 70 00 00 00 00 00 00 43 F0 00 00 44 48 00 00 43 70 00 00 43 70 00 00 43 70 00 00 44 48 00 00 43 C8 00 00 43 A0 00 00 43 F0 00 00 44 8C 00 00 3F 31 EB 85 3E 6C 8B 44 3F 5A E1 48 3F 36 87 2B 42 48 C6 72
write:1D 03 07 CF 00 78 76 FF
write:13 03 07 CF 00 78 77 D1
77 77 77
heart:77 77 77 2E 75 73 72 2E 63 6E
write:1D 03 01 0F 00 08 77 AF
write:13 03 01 0F 00 08 76 81
write:1E 03 00 38 00 34 C7 BF
write:14 03 00 38 00 34 C7 15
13 14 03
heart:13 14 03 68 00 00 43 6D FF 7D 43 6E 44 9C 43 6E 8F 9E 43 CE 28 31 43 CE 6A C1 43 CE 49 79 41 09 99 9A 40 D9 99 9A 41 0E B8 52 44 A5 00 00 44 70 00 00 44 AA 00 00 45 66 00 00 43 A0 00 00 43 8C 00 00 43 8C 00 00 44 5C 00 00 44 FF 00 00 44 C8 00 00 45 04 80 00 45 6B 00 00 3F 26 E9 79 3F 1A E1 48 3F 23 12 6F 3F 78 93 75 42 48 22 4B
write:1E 03 07 CF 00 78 76 CC
write:14 03 07 CF 00 78 76 66
14 03 F0
20totalsize 240
44 9D 59 9A 43 C7 33 33 43 90 CC CD 00 00 00 00 44 0E A6 66 00 00 00 00 00 00 00 00 00 00 00 00 00 00 00 00 00 00 00 00 40 0C CC CD 00 00 00 00 40 0C CC CD 00 00 00 00 00 00 00 00 43 91 B3 33 42 BE 00 00 42 7A 66 66 00 00 00 00 43 05 99 9A 44 AC 73 33 43 E0 33 33 43 9A 66 66 00 00 00 00 44 1B 8C CD 00 00 00 00 00 00 00 00 00 00 00 00 00 00 00 00 00 00 00 00 40 99 99 9A 00 00 00 00 40 93 33 33 00 00 00 00 00 00 00 00 43 9B 80 00 42 D2 66 66 42 76 66 66 00 00 00 00 43 10 00 00 44 A4 D9 9A 43 ED 99 9A 43 78 66 66 00 00 00 00 44 14 C0 00 00 00 00 00 00 00 00 00 00 00 00 00 00 00 00 00 00 00 00 00 3F 4C CC CD 00 00 00 00 3F 4C CC CD 00 00 00 00 00 00 00 00 43 8C 66 66 42 D1 33 33 42 3B 33 33 00 00 00 00 43 01 5A 7B
write:1E 03 01 0F 00 08 77 9C
write:14 03 01 0F 00 08 77 36
77 77 77
heart:77 77 77 2E 75 73 72 2E 63 6E
14 03 10
2000 04 18 47 00 00 00 00 00 00 13 51 00 00 D8 12
write:1F 03 00 38 00 34 C6 6E
write:15 03 00 38 00 34 C6 C4
15 03 68
2143 6E 37 4C 43 6E 94 39 43 6E C5 E3 43 CE 6A C1 43 CE A2 2D 43 CE 80 E5 00 00 00 00 00 00 00 00 00 00 00 00 00 00 00 00 00 00 00 00 00 00 00 00 00 00 00 00 00 00 00 00 00 00 00 00 00 00 00 00 00 00 00 00 00 00 00 00 00 00 00 00 00 00 00 00 00 00 00 00 00 00 00 00 00 00 00 00 00 00 00 00 00 00 00 00 42 48 A5 53
write:1F 03 07 CF 00 78 77 1D
write:15 03 07 CF 00 78 77 B7
15 03 F0
21totalsize 240
40 CC CC CD 00 00 00 00 40 A6 66 66 00 00 00 00 3F 99 99 9A 00 00 00 00 00 00 00 00 00 00 00 00 00 00 00 00 00 00 00 00 3E CC CC CD 00 00 00 00 3E CC CC CD 00 00 00 00 00 00 00 00 00 00 00 00 00 00 00 00 00 00 00 00 00 00 00 00 00 00 00 00 40 8C CC CD 00 00 00 00 40 66 66 66 00 00 00 00 3F 4C CC CD 00 00 00 00 00 00 00 00 00 00 00 00 00 00 00 00 00 00 00 00 00 00 00 00 00 00 00 00 00 00 00 00 00 00 00 00 00 00 00 00 00 00 00 00 00 00 00 00 00 00 00 00 00 00 00 00 00 00 00 00 42 1E 66 66 00 00 00 00 41 F3 33 33 00 00 00 00 41 13 33 33 00 00 00 00 00 00 00 00 00 00 00 00 00 00 00 00 00 00 00 00 42 D8 00 00 00 00 00 00 42 A3 33 33 00 00 00 00 41 D0 00 00 00 00 00 00 00 00 00 00 00 00 00 00 00 00 00 00 00 00 7F 8C
write:1F 03 01 0F 00 08 76 4D
write:15 03 01 0F 00 08 76 E7
15 03 10
2100 00 18 94 00 00 00 00 00 00 1D 3D 00 00 8E 18
43 6E 37 4C
238.216
43 6E 94 39
238.579
43 6E C5 E3
238.773
43 CE 6A C1
412.834
43 CE A2 2D
413.267
43 CE 80 E5
413.007
00 00 00 00
0
00 00 00 00
0
00 00 00 00
0
00 00 00 00
0
00 00 00 00
0
00 00 00 00
0
00 00 00 00
0
00 00 00 00
0
00 00 00 00
0
00 00 00 00
0
00 00 00 00
0
00 00 00 00
0
00 00 00 00
0
00 00 00 00
0
00 00 00 00
0
00 00 00 00
0
00 00 00 00
0
00 00 00 00
0
00 00 00 00
0
42 48 A5 53
50.16145
40 CC CC CD
6.4
00 00 00 00
0
40 A6 66 66
5.2
00 00 00 00
0
3F 99 99 9A
1.2
00 00 00 00
0
00 00 00 00
0
00 00 00 00
0
00 00 00 00
0
00 00 00 00
0
3E CC CC CD
0.4
00 00 00 00
0
3E CC CC CD
0.4
00 00 00 00
0
00 00 00 00
0
00 00 00 00
0
00 00 00 00
0
00 00 00 00
0
00 00 00 00
0
00 00 00 00
0
40 8C CC CD
4.4
00 00 00 00
0
40 66 66 66
3.6
00 00 00 00
0
3F 4C CC CD
0.8
00 00 00 00
0
00 00 00 00
0
00 00 00 00
0
00 00 00 00
0
00 00 00 00
0
00 00 00 00
0
00 00 00 00
0
00 00 00 00
0
00 00 00 00
0
00 00 00 00
0
00 00 00 00
0
00 00 00 00
0
00 00 00 00
0
00 00 00 00
0
00 00 00 00
0
42 1E 66 66
39.6
00 00 00 00
0
41 F3 33 33
30.4
00 00 00 00
0
41 13 33 33
9.2
00 00 00 00
0
00 00 00 00
0
00 00 00 00
0
00 00 00 00
0
00 00 00 00
0
42 D8 00 00
108
00 00 00 00
0
42 A3 33 33
81.6
00 00 00 00
0
41 D0 00 00
26
00 00 00 00
0
00 00 00 00
0
00 00 00 00
0
00 00 00 00
0
00 00 7F 8C
4.5755e-41
00 00 18 94
6292
00 00 00 00
0
00 00 1D 3D
7485
00 00 8E 18
36376
238.216238.579238.773412.834413.267413.007000000000000000000050.161456.405.201.2000000.400.400000004.403.600.800000000000000039.6030.409.200000108081.602600004.5755e-4121201711242349316.29207.48536.376insert into tbl_power_info_v2(P_A_DIANYA,P_B_DIANYA,P_C_DIANYA,P_UAB_XIANDIANYA,P_UBC_XIANDIANYA,P_UCA_XIANDIANYA,P_A_DIANLIU,P_B_DIANLIU,P_C_DIANLIU,P_A_YGGL,P_B_YGGL,P_C_YGGL,P_HXYGGL,P_A_WGGL,P_B_WGGL,P_C_WGGL,P_HXWGGL,P_A_SZGL,P_B_SZGL,P_C_SZGL,P_HXSZGL,P_A_GLYS,P_B_GLYS,P_C_GLYS,P_HXGLYS,P_DWPL,P_BY_KwhZ,P_BY_KwhJ,P_BY_KwhF,P_BY_KwhP,P_BY_KwhG,P_BY_HKwhZ,P_BY_HKwhJ,P_BY_HKwhF,P_BY_HKwhP,P_BY_HKwhG, P_BY_KvarhZ,P_BY_KvarhJ,P_BY_KvarhF,P_BY_KvarhP,P_BY_KvarhG, P_BY_HKvarhZ,P_BY_HKvarhJ,P_BY_HKvarhF,P_BY_HKvarhP,P_BY_HKvarhG, P_SY_KwhZ,P_SY_KwhJ,P_SY_KwhF,P_SY_KwhP,P_SY_KwhG, P_SY_HKwhZ,P_SY_HKwhJ,P_SY_HKwhF,P_SY_HKwhP,P_SY_HKwhG, P_SY_KvarhZ,P_SY_KvarhJ,P_SY_KvarhF,P_SY_KvarhP,P_SY_KvarhG, P_SY_HKvarhZ,P_SY_HKvarhJ,P_SY_HKvarhF,P_SY_HKvarhP,P_SY_HKvarhG, P_SSY_KwhZ,P_SSY_KwhJ,P_SSY_KwhF,P_SSY_KwhP,P_SSY_KwhG, P_SSY_HKwhZ,P_SSY_HKwhJ,P_SSY_HKwhF,P_SSY_HKwhP,P_SSY_HKwhG, P_SSY_KvarhZ,P_SSY_KvarhJ,P_SSY_KvarhF,P_SSY_KvarhP,P_SSY_KvarhG, P_SSY_HKvarhZ,P_SSY_HKvarhJ,P_SSY_HKvarhF,P_SSY_HKvarhP,P_SSY_HKvarhG,P_CODE,P_TIME,P_ZXYGDN,P_FXYGDN,P_ZXWGDN,P_FXWGDN)values(238.216,238.579,238.773,412.834,413.267,413.007,0,0,0,0,0,0,0,0,0,0,0,0,0,0,0,0,0,0,0,50.16145,6.4,0,5.2,0,1.2,0,0,0,0,0,0.4,0,0.4,0,0,0,0,0,0,0,4.4,0,3.6,0,0.8,0,0,0,0,0,0,0,0,0,0,0,0,0,0,0,39.6,0,30.4,0,9.2,0,0,0,0,0,108,0,81.6,0,26,0,0,0,0,4.5755e-41,21,20171124234931,6.292,0,7.485,36.376)
写入成功读取完毕一个
write:20 03 00 38 00 34 C3 61
write:16 03 00 38 00 34 C6 F7
77 77 77
heart:77 77 77 2E 75 73 72 2E 63 6E
write:20 03 07 CF 00 78 72 12
write:16 03 07 CF 00 78 77 84
write:20 03 01 0F 00 08 73 42
write:16 03 01 0F 00 08 76 D4
77 77 77
heart:77 77 77 2E 75 73 72 2E 63 6E
write:17 03 00 38 00 34 C7 26
write:12 03 00 38 00 34 C7 73
77 77 77
heart:77 77 77 2E 75 73 72 2E 63 6E
write:17 03 07 CF 00 78 76 55
write:12 03 07 CF 00 78 76 00
write:17 03 01 0F 00 08 77 05
write:12 03 01 0F 00 08 77 50
77 77 77
heart:77 77 77 2E 75 73 72 2E 63 6E
write:18 03 00 38 00 34 C7 D9
write:13 03 00 38 00 34 C6 A2
13 03 68
1943 6E 52 6F 43 6E BE FA 43 6F 2D 91 43 CE CF E3 FF EE FD FF FF B8 52 3F CC CC CD 3F 99 99 9A 40 0A 3D 71 43 70 00 00 00 00 00 00 43 C8 00 00 44 34 00 00 43 70 00 00 43 70 00 00 43 70 00 00 44 48 00 00 43 C8 00 00 43 A0 00 00 43 F0 00 00 44 82 12 00 00 3F 28 72 B0 3E 5C 28 F6 3F 5B 22 D1 3F 32 B0 21 42 48 04 B1
write:18 03 07 CF 00 78 76 AA
D7 18 03
heart:D7 18 03 F0 00 00 44 5E 40 00 43 54 33 33 43 F2 99 9A 00 00 00 00 43 3F 99 9A 00 00 00 00 00 00 00 00 00 00 00 00 00 00 00 00 00 00 00 00 43 33 00 00 41 DE 66 66 42 D4 00 00 00 00 00 00 42 34 00 00 41 D3 33 33 40 F3 33 33 41 73 33 33 00 00 00 00 40 66 66 66 44 19 99 9A 43 00 00 00 43 A7 CC CD 00 00 00 00 43 16 99 9A 00 00 00 00 00 00 00 00 00 00 00 00 00 00 00 00 00 00 00 00 42 45 99 9A 3F 80 00 00 42 09 99 9A 00 00 00 00 41 60 00 00 42 0A 66 66 41 00 00 00 41 AC CC CD 00 00 00 00 40 99 99 9A 44 3F E6 66 43 0C 33 33 43 D9 E6 66 00 00 00 00 43 3F 66 66 00 00 00 00 00 00 00 00 00 00 00 00 00 00
00 00 00
heart:00 00 00 00 00 00 43 A3 99 9A 41 A8 00 00 43 6C 99 9A 00 00 00 00 42 8A CC CD 42 1B 33 33 41 23 33 33 41 A6 66 66 00 00 00 00 40 F9 F3 38
write:13 03 07 CF 00 78 77 D1
13 03 F0
19totalsize 240
44 9F 00 00 42 D1 99 9A 44 47 E6 66 00 00 00 00 43 B7 99 9A 00 00 00 00 00 00 00 00 00 00 00 00 00 00 00 00 00 00 00 00 43 0F 33 33 3E CC CC CD 43 00 00 00 00 00 00 00 41 66 66 66 43 C9 99 9A 42 8F 33 33 43 1D 99 9A 00 00 00 00 43 2D 99 9A 44 5A CC CD 42 BC 00 00 43 F7 66 66 00 00 00 00 43 8F 00 00 00 00 00 00 00 00 00 00 00 00 00 00 00 00 00 00 00 00 00 00 40 80 00 00 00 00 00 00 40 4C CC CD 00 00 00 00 3F 4C CC CD 44 1A 99 9A 42 C4 00 00 43 85 66 66 00 00 00 00 43 7D 33 33 44 DC A6 66 42 DB 33 33 44 8E CC CD 00 00 00 00 44 00 4C CD 00 00 00 00 00 00 00 00 00 00 00 00 00 00 00 00 00 00 00 00 42 5E 66 66 3E CC CC CD 42 21 99 9A 00 00 00 00 41 60 00 00 43 FE 00 00 42 B6 66 66 43 3F 99 9A 00 00 00 00 43 60 3D A3
write:18 03 01 0F 00 08 77 FA
18 03 10
2400 02 01 9B 00 00 00 00 00 00 C6 13 00 00 10 ED
43 6E 92 F2
238.574
43 6E BA A0
238.729
43 6E F3 33
238.95
43 CE A2 2D
413.267
43 CE CE 77
413.613
43 CE B8 52
413.44
3F 75 C2 8F
0.96
3F 4C CC CD
0.8
00 00 00 00
0
43 20 00 00
160
42 A0 00 00
80
42 A0 00 00
80
43 A0 00 00
320
00 00 00 00
0
42 A0 00 00
80
42 A0 00 00
80
42 A0 00 00
80
43 70 00 00
240
43 48 00 00
200
42 F0 00 00
120
43 B4 00 00
360
3F 25 A1 CB
0.647
3E F7 CE D9
0.484
3F 43 D7 0A
0.765
3F 78 93 75
0.971
42 48 EF DF
50.23425
44 5E 40 00
889
43 54 33 33
212.2
43 F2 99 9A
485.2
00 00 00 00
0
43 3F 99 9A
191.6
00 00 00 00
0
00 00 00 00
0
00 00 00 00
0
00 00 00 00
0
00 00 00 00
0
43 33 00 00
179
41 DE 66 66
27.8
42 D4 00 00
106
00 00 00 00
0
42 34 00 00
45
41 D3 33 33
26.4
40 F3 33 33
7.6
41 73 33 33
15.2
00 00 00 00
0
40 66 66 66
3.6
44 19 99 9A
614.4
43 00 00 00
128
43 A7 CC CD
335.6
00 00 00 00
0
43 16 99 9A
150.6
00 00 00 00
0
00 00 00 00
0
00 00 00 00
0
00 00 00 00
0
00 00 00 00
0
42 45 99 9A
49.4
3F 80 00 00
1
42 09 99 9A
34.4
00 00 00 00
0
41 60 00 00
14
42 0A 66 66
34.6
41 00 00 00
8
41 AC CC CD
21.6
00 00 00 00
0
40 99 99 9A
4.8
44 3F E6 66
767.6
43 0C 33 33
140.2
43 D9 E6 66
435.8
00 00 00 00
0
43 3F 66 66
191.4
00 00 00 00
0
00 00 00 00
0
00 00 00 00
0
00 00 00 00
0
00 00 00 00
0
43 A3 99 9A
327.2
41 A8 00 00
21
43 6C 99 9A
236.6
00 00 00 00
0
42 8A CC CD
69.4
42 1B 33 33
38.8
41 23 33 33
10.2
41 A6 66 66
20.8
00 00 00 00
0
40 F9 F3 38
7.81094
00 02 01 9B
131483
00 00 00 00
0
00 00 C6 13
50707
00 00 10 ED
4333
238.574238.729238.95413.267413.613413.440.960.80160808032008080802402001203600.6470.4840.7650.97150.23425889212.2485.20191.60000017927.810604526.47.615.203.6614.4128335.60150.60000049.4134.401434.6821.604.8767.6140.2435.80191.400000327.221236.6069.438.810.220.807.810942420171124235230131.483050.7074.333insert into tbl_power_info_v2(P_A_DIANYA,P_B_DIANYA,P_C_DIANYA,P_UAB_XIANDIANYA,P_UBC_XIANDIANYA,P_UCA_XIANDIANYA,P_A_DIANLIU,P_B_DIANLIU,P_C_DIANLIU,P_A_YGGL,P_B_YGGL,P_C_YGGL,P_HXYGGL,P_A_WGGL,P_B_WGGL,P_C_WGGL,P_HXWGGL,P_A_SZGL,P_B_SZGL,P_C_SZGL,P_HXSZGL,P_A_GLYS,P_B_GLYS,P_C_GLYS,P_HXGLYS,P_DWPL,P_BY_KwhZ,P_BY_KwhJ,P_BY_KwhF,P_BY_KwhP,P_BY_KwhG,P_BY_HKwhZ,P_BY_HKwhJ,P_BY_HKwhF,P_BY_HKwhP,P_BY_HKwhG, P_BY_KvarhZ,P_BY_KvarhJ,P_BY_KvarhF,P_BY_KvarhP,P_BY_KvarhG, P_BY_HKvarhZ,P_BY_HKvarhJ,P_BY_HKvarhF,P_BY_HKvarhP,P_BY_HKvarhG, P_SY_KwhZ,P_SY_KwhJ,P_SY_KwhF,P_SY_KwhP,P_SY_KwhG, P_SY_HKwhZ,P_SY_HKwhJ,P_SY_HKwhF,P_SY_HKwhP,P_SY_HKwhG, P_SY_KvarhZ,P_SY_KvarhJ,P_SY_KvarhF,P_SY_KvarhP,P_SY_KvarhG, P_SY_HKvarhZ,P_SY_HKvarhJ,P_SY_HKvarhF,P_SY_HKvarhP,P_SY_HKvarhG, P_SSY_KwhZ,P_SSY_KwhJ,P_SSY_KwhF,P_SSY_KwhP,P_SSY_KwhG, P_SSY_HKwhZ,P_SSY_HKwhJ,P_SSY_HKwhF,P_SSY_HKwhP,P_SSY_HKwhG, P_SSY_KvarhZ,P_SSY_KvarhJ,P_SSY_KvarhF,P_SSY_KvarhP,P_SSY_KvarhG, P_SSY_HKvarhZ,P_SSY_HKvarhJ,P_SSY_HKvarhF,P_SSY_HKvarhP,P_SSY_HKvarhG,P_CODE,P_TIME,P_ZXYGDN,P_FXYGDN,P_ZXWGDN,P_FXWGDN)values(238.574,238.729,238.95,413.267,413.613,413.44,0.96,0.8,0,160,80,80,320,0,80,80,80,240,200,120,360,0.647,0.484,0.765,0.971,50.23425,889,212.2,485.2,0,191.6,0,0,0,0,0,179,27.8,106,0,45,26.4,7.6,15.2,0,3.6,614.4,128,335.6,0,150.6,0,0,0,0,0,49.4,1,34.4,0,14,34.6,8,21.6,0,4.8,767.6,140.2,435.8,0,191.4,0,0,0,0,0,327.2,21,236.6,0,69.4,38.8,10.2,20.8,0,7.81094,24,20171124235230,131.483,0,50.707,4.333)
写入成功读取完毕一个
write:13 03 01 0F 00 08 76 81
write:19 03 00 38 00 34 C6 08
13 03 10
1900 02 93 09 00 00 00 00 00 00 35 3F 00 00 88 B9
43 6E 52 6F
238.322
43 6E BE FA
238.746
43 6F 2D 91
239.178
43 CE CF E3
413.6241
FF EE FD FF
NaN
FF B8 52 3F
NaN
CC CC CD 3F
-1.07375096e+08
99 99 9A 40
-1.588213e-23
0A 3D 71 43
9.121321e-33
70 00 00 00
1.5845633e+29
00 00 00 43
9.4e-44
C8 00 00 44
-131073.06
34 00 00 43
1.1921024e-07
70 00 00 43
1.584576e+29
70 00 00 43
1.584576e+29
70 00 00 44
1.5845761e+29
48 00 00 43
131073.05
C8 00 00 43
-131073.05
A0 00 00 43
-1.0842108e-19
F0 00 00 44
-1.5845761e+29
82 12 00 00
-1.0726386e-37
3F 28 72 B0
0.658
3E 5C 28 F6
0.215
3F 5B 22 D1
0.856
3F 32 B0 21
0.698
42 48 04 B1
50.00458
44 9F 00 00
1272
42 D1 99 9A
104.8
44 47 E6 66
799.6
00 00 00 00
0
43 B7 99 9A
367.2
00 00 00 00
0
00 00 00 00
0
00 00 00 00
0
00 00 00 00
0
00 00 00 00
0
43 0F 33 33
143.2
3E CC CC CD
0.4
43 00 00 00
128
00 00 00 00
0
41 66 66 66
14.4
43 C9 99 9A
403.2
42 8F 33 33
71.6
43 1D 99 9A
157.6
00 00 00 00
0
43 2D 99 9A
173.6
44 5A CC CD
875.2
42 BC 00 00
94
43 F7 66 66
494.8
00 00 00 00
0
43 8F 00 00
286
00 00 00 00
0
00 00 00 00
0
00 00 00 00
0
00 00 00 00
0
00 00 00 00
0
40 80 00 00
4
00 00 00 00
0
40 4C CC CD
3.2
00 00 00 00
0
3F 4C CC CD
0.8
44 1A 99 9A
618.4
42 C4 00 00
98
43 85 66 66
266.8
00 00 00 00
0
43 7D 33 33
253.2
44 DC A6 66
1765.2
42 DB 33 33
109.6
44 8E CC CD
1142.4
00 00 00 00
0
44 00 4C CD
513.2
00 00 00 00
0
00 00 00 00
0
00 00 00 00
0
00 00 00 00
0
00 00 00 00
0
42 5E 66 66
55.6
3E CC CC CD
0.4
42 21 99 9A
40.4
00 00 00 00
0
41 60 00 00
14
43 FE 00 00
508
42 B6 66 66
91.2
43 3F 99 9A
191.6
00 00 00 00
0
43 60 3D A3
224.24077
00 02 93 09
168713
00 00 00 00
0
00 00 35 3F
13631
00 00 88 B9
35001
238.322238.746239.178413.6241NaNNaN-1.07375096e+08-1.588213e-239.121321e-331.5845633e+299.4e-44-131073.061.1921024e-071.584576e+291.584576e+291.5845761e+29131073.05-131073.05-1.0842108e-19-1.5845761e+29-1.0726386e-370.6580.2150.8560.69850.004581272104.8799.60367.200000143.20.4128014.4403.271.6157.60173.6875.294494.8028600000403.200.8618.498266.80253.21765.2109.61142.40513.20000055.60.440.401450891.2191.60224.240771920171124235254168.713013.63135.001insert into tbl_power_info_v2(P_A_DIANYA,P_B_DIANYA,P_C_DIANYA,P_UAB_XIANDIANYA,P_UBC_XIANDIANYA,P_UCA_XIANDIANYA,P_A_DIANLIU,P_B_DIANLIU,P_C_DIANLIU,P_A_YGGL,P_B_YGGL,P_C_YGGL,P_HXYGGL,P_A_WGGL,P_B_WGGL,P_C_WGGL,P_HXWGGL,P_A_SZGL,P_B_SZGL,P_C_SZGL,P_HXSZGL,P_A_GLYS,P_B_GLYS,P_C_GLYS,P_HXGLYS,P_DWPL,P_BY_KwhZ,P_BY_KwhJ,P_BY_KwhF,P_BY_KwhP,P_BY_KwhG,P_BY_HKwhZ,P_BY_HKwhJ,P_BY_HKwhF,P_BY_HKwhP,P_BY_HKwhG, P_BY_KvarhZ,P_BY_KvarhJ,P_BY_KvarhF,P_BY_KvarhP,P_BY_KvarhG, P_BY_HKvarhZ,P_BY_HKvarhJ,P_BY_HKvarhF,P_BY_HKvarhP,P_BY_HKvarhG, P_SY_KwhZ,P_SY_KwhJ,P_SY_KwhF,P_SY_KwhP,P_SY_KwhG, P_SY_HKwhZ,P_SY_HKwhJ,P_SY_HKwhF,P_SY_HKwhP,P_SY_HKwhG, P_SY_KvarhZ,P_SY_KvarhJ,P_SY_KvarhF,P_SY_KvarhP,P_SY_KvarhG, P_SY_HKvarhZ,P_SY_HKvarhJ,P_SY_HKvarhF,P_SY_HKvarhP,P_SY_HKvarhG, P_SSY_KwhZ,P_SSY_KwhJ,P_SSY_KwhF,P_SSY_KwhP,P_SSY_KwhG, P_SSY_HKwhZ,P_SSY_HKwhJ,P_SSY_HKwhF,P_SSY_HKwhP,P_SSY_HKwhG, P_SSY_KvarhZ,P_SSY_KvarhJ,P_SSY_KvarhF,P_SSY_KvarhP,P_SSY_KvarhG, P_SSY_HKvarhZ,P_SSY_HKvarhJ,P_SSY_HKvarhF,P_SSY_HKvarhP,P_SSY_HKvarhG,P_CODE,P_TIME,P_ZXYGDN,P_FXYGDN,P_ZXWGDN,P_FXWGDN)values(238.322,238.746,239.178,413.6241,NaN,NaN,-1.07375096e+08,-1.588213e-23,9.121321e-33,1.5845633e+29,9.4e-44,-131073.06,1.1921024e-07,1.584576e+29,1.584576e+29,1.5845761e+29,131073.05,-131073.05,-1.0842108e-19,-1.5845761e+29,-1.0726386e-37,0.658,0.215,0.856,0.698,50.00458,1272,104.8,799.6,0,367.2,0,0,0,0,0,143.2,0.4,128,0,14.4,403.2,71.6,157.6,0,173.6,875.2,94,494.8,0,286,0,0,0,0,0,4,0,3.2,0,0.8,618.4,98,266.8,0,253.2,1765.2,109.6,1142.4,0,513.2,0,0,0,0,0,55.6,0.4,40.4,0,14,508,91.2,191.6,0,224.24077,19,20171124235254,168.713,0,13.631,35.001)
panic: Error 1054: Unknown column 'NaN' in 'field list'
	panic: runtime error: invalid memory address or nil pointer dereference
[signal SIGSEGV: segmentation violation code=0x1 addr=0x0 pc=0x5125a5]

goroutine 26 [running]:
database/sql.(*Rows).close(0x0, 0x0, 0x0, 0x0, 0x0)
	/usr/local/soft/go/src/database/sql/sql.go:2742 +0x75
database/sql.(*Rows).Close(0x0, 0x0, 0x0)
	/usr/local/soft/go/src/database/sql/sql.go:2738 +0x3d
panic(0x5e8360, 0xc420249720)
	/usr/local/soft/go/src/runtime/panic.go:491 +0x283
main.insert(0xc42024a450)
	/root/work/go/readwrite/gostu/src/main/main2006.go:96 +0x464
main.HandData(0x5ead13, 0xc4200686c0)
	/root/work/go/readwrite/gostu/src/main/main2006.go:153 +0x36e
main.handleRead(0x719c80, 0xc4200b0040)
	/root/work/go/readwrite/gostu/src/main/main2006.go:245 +0xc39
created by main.main
	/root/work/go/readwrite/gostu/src/main/main2006.go:130 +0x409
exit status 2
