nohup: ignoring input
Listening on :6002
received messag ?->? 
 124.160.217.235:51649 172.16.246.153:6002
write:12 03 00 38 00 34 C7 73
77 77 77
heart:77 77 77 2E 75 73 72 2E 63 6E
12 03 68
18totalsize 104
43 6D C7 6D 43 6E 4E 98 43 6D C3 D7 43 CE 1D 2F 43 CE 1D 2F 43 CD DA A0 43 4C 7A E1 43 3B 51 EC 43 2B F5 C3 47 31 A8 00 47 1E 70 00 47 12 B8 00 47 F1 68 00 45 E4 C0 00 45 A1 40 00 45 68 80 00 46 80 70 00 47 2D 70 00 47 15 10 00 47 1A B0 00 47 DA AC 00 3F 6B 85 1F 3F 60 83 12 3F 6B 43 96 3F 7D 2F 1B 42 48 59 B6
write:12 03 07 CF 00 78 76 00
12 03 F0
18totalsize 240
47 94 9F CD 46 3B 33 33 47 0C 8F 33 00 00 00 00 46 DB C6 00 00 00 00 00 00 00 00 00 00 00 00 00 00 00 00 00 00 00 00 00 46 8B 4D 9A 45 27 66 66 46 12 38 CD 00 00 00 00 45 B5 0C CD 00 00 00 00 00 00 00 00 00 00 00 00 00 00 00 00 00 00 00 00 47 A9 B7 80 46 5C 9F 33 47 22 D6 CD 00 00 00 00 46 F2 DF 9A 00 00 00 00 00 00 00 00 00 00 00 00 00 00 00 00 00 00 00 00 46 B2 70 66 45 65 B9 9A 46 3A EB 33 00 00 00 00 45 E1 09 9A 00 00 00 00 00 00 00 00 00 00 00 00 00 00 00 00 00 00 00 00 47 82 8D CD 46 41 63 33 46 D4 77 33 00 00 00 00 46 D5 0E 66 00 00 00 00 00 00 00 00 00 00 00 00 00 00 00 00 00 00 00 00 46 95 B4 66 45 65 46 66 45 FB B3 33 00 00 00 00 45 E8 7B 33 00 00 00 00 00 00 00 00 00 00 00 00 00 00 00 00 00 00 9E F8
write:12 03 01 0F 00 08 77 50
12 03 10
1800 41 2B EA 00 00 00 00 00 14 05 AE 00 00 DB CE
43 6D C7 6D
237.779
43 6E 4E 98
238.307
43 6D C3 D7
237.765
43 CE 1D 2F
412.228
43 CE 1D 2F
412.228
43 CD DA A0
411.708
43 4C 7A E1
204.48
43 3B 51 EC
187.32
43 2B F5 C3
171.96
47 31 A8 00
45480
47 1E 70 00
40560
47 12 B8 00
37560
47 F1 68 00
123600
45 E4 C0 00
7320
45 A1 40 00
5160
45 68 80 00
3720
46 80 70 00
16440
47 2D 70 00
44400
47 15 10 00
38160
47 1A B0 00
39600
47 DA AC 00
111960
3F 6B 85 1F
0.92
3F 60 83 12
0.877
3F 6B 43 96
0.919
3F 7D 2F 1B
0.989
42 48 59 B6
50.08761
47 94 9F CD
76095.6
46 3B 33 33
11980.8
47 0C 8F 33
35983.2
00 00 00 00
0
46 DB C6 00
28131
00 00 00 00
0
00 00 00 00
0
00 00 00 00
0
00 00 00 00
0
00 00 00 00
0
46 8B 4D 9A
17830.8
45 27 66 66
2678.4
46 12 38 CD
9358.2
00 00 00 00
0
45 B5 0C CD
5793.6
00 00 00 00
0
00 00 00 00
0
00 00 00 00
0
00 00 00 00
0
00 00 00 00
0
47 A9 B7 80
86895
46 5C 9F 33
14119.8
47 22 D6 CD
41686.8
00 00 00 00
0
46 F2 DF 9A
31087.8
00 00 00 00
0
00 00 00 00
0
00 00 00 00
0
00 00 00 00
0
00 00 00 00
0
46 B2 70 66
22840.2
45 65 B9 9A
3675.6
46 3A EB 33
11962.8
00 00 00 00
0
45 E1 09 9A
7201.2
00 00 00 00
0
00 00 00 00
0
00 00 00 00
0
00 00 00 00
0
00 00 00 00
0
47 82 8D CD
66843.6
46 41 63 33
12376.8
46 D4 77 33
27195.6
00 00 00 00
0
46 D5 0E 66
27271.2
00 00 00 00
0
00 00 00 00
0
00 00 00 00
0
00 00 00 00
0
00 00 00 00
0
46 95 B4 66
19162.2
45 65 46 66
3668.4
45 FB B3 33
8054.4
00 00 00 00
0
45 E8 7B 33
7439.4
00 00 00 00
0
00 00 00 00
0
00 00 00 00
0
00 00 00 00
0
00 00 9E F8
5.7027e-41
00 41 2B EA
4271082
00 00 00 00
0
00 14 05 AE
1312174
00 00 DB CE
56270
237.779238.307237.765412.228412.228411.708204.48187.32171.96454804056037560123600732051603720164404440038160396001119600.920.8770.9190.98950.0876176095.611980.835983.20281310000017830.82678.49358.205793.6000008689514119.841686.8031087.80000022840.23675.611962.807201.20000066843.612376.827195.6027271.20000019162.23668.48054.407439.400005.7027e-4118201711262225294271.08201312.17456.27insert into tbl_power_info_v2(P_A_DIANYA,P_B_DIANYA,P_C_DIANYA,P_UAB_XIANDIANYA,P_UBC_XIANDIANYA,P_UCA_XIANDIANYA,P_A_DIANLIU,P_B_DIANLIU,P_C_DIANLIU,P_A_YGGL,P_B_YGGL,P_C_YGGL,P_HXYGGL,P_A_WGGL,P_B_WGGL,P_C_WGGL,P_HXWGGL,P_A_SZGL,P_B_SZGL,P_C_SZGL,P_HXSZGL,P_A_GLYS,P_B_GLYS,P_C_GLYS,P_HXGLYS,P_DWPL,P_BY_KwhZ,P_BY_KwhJ,P_BY_KwhF,P_BY_KwhP,P_BY_KwhG,P_BY_HKwhZ,P_BY_HKwhJ,P_BY_HKwhF,P_BY_HKwhP,P_BY_HKwhG, P_BY_KvarhZ,P_BY_KvarhJ,P_BY_KvarhF,P_BY_KvarhP,P_BY_KvarhG, P_BY_HKvarhZ,P_BY_HKvarhJ,P_BY_HKvarhF,P_BY_HKvarhP,P_BY_HKvarhG, P_SY_KwhZ,P_SY_KwhJ,P_SY_KwhF,P_SY_KwhP,P_SY_KwhG, P_SY_HKwhZ,P_SY_HKwhJ,P_SY_HKwhF,P_SY_HKwhP,P_SY_HKwhG, P_SY_KvarhZ,P_SY_KvarhJ,P_SY_KvarhF,P_SY_KvarhP,P_SY_KvarhG, P_SY_HKvarhZ,P_SY_HKvarhJ,P_SY_HKvarhF,P_SY_HKvarhP,P_SY_HKvarhG, P_SSY_KwhZ,P_SSY_KwhJ,P_SSY_KwhF,P_SSY_KwhP,P_SSY_KwhG, P_SSY_HKwhZ,P_SSY_HKwhJ,P_SSY_HKwhF,P_SSY_HKwhP,P_SSY_HKwhG, P_SSY_KvarhZ,P_SSY_KvarhJ,P_SSY_KvarhF,P_SSY_KvarhP,P_SSY_KvarhG, P_SSY_HKvarhZ,P_SSY_HKvarhJ,P_SSY_HKvarhF,P_SSY_HKvarhP,P_SSY_HKvarhG,P_CODE,P_TIME,P_ZXYGDN,P_FXYGDN,P_ZXWGDN,P_FXWGDN)values(237.779,238.307,237.765,412.228,412.228,411.708,204.48,187.32,171.96,45480,40560,37560,123600,7320,5160,3720,16440,44400,38160,39600,111960,0.92,0.877,0.919,0.989,50.08761,76095.6,11980.8,35983.2,0,28131,0,0,0,0,0,17830.8,2678.4,9358.2,0,5793.6,0,0,0,0,0,86895,14119.8,41686.8,0,31087.8,0,0,0,0,0,22840.2,3675.6,11962.8,0,7201.2,0,0,0,0,0,66843.6,12376.8,27195.6,0,27271.2,0,0,0,0,0,19162.2,3668.4,8054.4,0,7439.4,0,0,0,0,5.7027e-41,18,20171126222529,4271.082,0,1312.174,56.27)
写入成功读取完毕一个
write:13 03 00 38 00 34 C6 A2
13 03 68
19totalsize 104
43 6D EC CD 43 6E A3 96 43 6D EF 9E 43 CE 54 9C 43 CE 54 9C 43 CE 06 E9 00 00 00 00 00 00 00 00 40 0A 3D 71 00 00 00 00 00 00 00 00 43 C8 00 00 43 F0 00 00 43 70 00 00 43 70 00 00 43 70 00 00 44 34 00 00 43 70 00 00 43 70 00 00 43 F0 00 00 44 5C 00 00 3E 25 E3 54 3D EF 9D B2 3F 59 58 10 3F 10 20 C5 42 48 9B B7
write:13 03 07 CF 00 78 77 D1
13 03 F0
19totalsize 240
44 A2 D9 9A 42 DB 33 33 44 4A E6 66 00 00 00 00 43 BE 99 9A 00 00 00 00 00 00 00 00 00 00 00 00 00 00 00 00 00 00 00 00 43 0F 33 33 3E CC CC CD 43 00 00 00 00 00 00 00 41 66 66 66 43 DB 00 00 42 99 99 9A 43 2C 00 00 00 00 00 00 43 3C CC CD 44 5A CC CD 42 BC 00 00 43 F7 66 66 00 00 00 00 43 8F 00 00 00 00 00 00 00 00 00 00 00 00 00 00 00 00 00 00 00 00 00 00 40 80 00 00 00 00 00 00 40 4C CC CD 00 00 00 00 3F 4C CC CD 44 1A 99 9A 42 C4 00 00 43 85 66 66 00 00 00 00 43 7D 33 33 44 DC A6 66 42 DB 33 33 44 8E CC CD 00 00 00 00 44 00 4C CD 00 00 00 00 00 00 00 00 00 00 00 00 00 00 00 00 00 00 00 00 42 5E 66 66 3E CC CC CD 42 21 99 9A 00 00 00 00 41 60 00 00 43 FE 00 00 42 B6 66 66 43 3F 99 9A 00 00 00 00 43 60 51 4E
write:13 03 01 0F 00 08 76 81
write:14 03 00 38 00 34 C7 15
write:14 03 07 CF 00 78 76 66
13 03 10
1900 02 94 8A 00 00 00 00 00 00 35 3F 00 00 DB F4
43 6D EC CD
237.925
43 6E A3 96
238.639
43 6D EF 9E
237.936
43 CE 54 9C
412.661
43 CE 54 9C
412.661
43 CE 06 E9
412.054
00 00 00 00
0
00 00 00 00
0
40 0A 3D 71
2.16
00 00 00 00
0
00 00 00 00
0
43 C8 00 00
400
43 F0 00 00
480
43 70 00 00
240
43 70 00 00
240
43 70 00 00
240
44 34 00 00
720
43 70 00 00
240
43 70 00 00
240
43 F0 00 00
480
44 5C 00 00
880
3E 25 E3 54
0.162
3D EF 9D B2
0.117
3F 59 58 10
0.849
3F 10 20 C5
0.563
42 48 9B B7
50.152065
44 A2 D9 9A
1302.8
42 DB 33 33
109.6
44 4A E6 66
811.6
00 00 00 00
0
43 BE 99 9A
381.2
00 00 00 00
0
00 00 00 00
0
00 00 00 00
0
00 00 00 00
0
00 00 00 00
0
43 0F 33 33
143.2
3E CC CC CD
0.4
43 00 00 00
128
00 00 00 00
0
41 66 66 66
14.4
43 DB 00 00
438
42 99 99 9A
76.8
43 2C 00 00
172
00 00 00 00
0
43 3C CC CD
188.8
44 5A CC CD
875.2
42 BC 00 00
94
43 F7 66 66
494.8
00 00 00 00
0
43 8F 00 00
286
00 00 00 00
0
00 00 00 00
0
00 00 00 00
0
00 00 00 00
0
00 00 00 00
0
40 80 00 00
4
00 00 00 00
0
40 4C CC CD
3.2
00 00 00 00
0
3F 4C CC CD
0.8
44 1A 99 9A
618.4
42 C4 00 00
98
43 85 66 66
266.8
00 00 00 00
0
43 7D 33 33
253.2
44 DC A6 66
1765.2
42 DB 33 33
109.6
44 8E CC CD
1142.4
00 00 00 00
0
44 00 4C CD
513.2
00 00 00 00
0
00 00 00 00
0
00 00 00 00
0
00 00 00 00
0
00 00 00 00
0
42 5E 66 66
55.6
3E CC CC CD
0.4
42 21 99 9A
40.4
00 00 00 00
0
41 60 00 00
14
43 FE 00 00
508
42 B6 66 66
91.2
43 3F 99 9A
191.6
00 00 00 00
0
43 60 51 4E
224.3176
00 02 94 8A
169098
00 00 00 00
0
00 00 35 3F
13631
00 00 DB F4
56308
237.925238.639237.936412.661412.661412.054002.16004004802402402407202402404808800.1620.1170.8490.56350.1520651302.8109.6811.60381.200000143.20.4128014.443876.81720188.8875.294494.8028600000403.200.8618.498266.80253.21765.2109.61142.40513.20000055.60.440.401450891.2191.60224.31761920171126222712169.098013.63156.308insert into tbl_power_info_v2(P_A_DIANYA,P_B_DIANYA,P_C_DIANYA,P_UAB_XIANDIANYA,P_UBC_XIANDIANYA,P_UCA_XIANDIANYA,P_A_DIANLIU,P_B_DIANLIU,P_C_DIANLIU,P_A_YGGL,P_B_YGGL,P_C_YGGL,P_HXYGGL,P_A_WGGL,P_B_WGGL,P_C_WGGL,P_HXWGGL,P_A_SZGL,P_B_SZGL,P_C_SZGL,P_HXSZGL,P_A_GLYS,P_B_GLYS,P_C_GLYS,P_HXGLYS,P_DWPL,P_BY_KwhZ,P_BY_KwhJ,P_BY_KwhF,P_BY_KwhP,P_BY_KwhG,P_BY_HKwhZ,P_BY_HKwhJ,P_BY_HKwhF,P_BY_HKwhP,P_BY_HKwhG, P_BY_KvarhZ,P_BY_KvarhJ,P_BY_KvarhF,P_BY_KvarhP,P_BY_KvarhG, P_BY_HKvarhZ,P_BY_HKvarhJ,P_BY_HKvarhF,P_BY_HKvarhP,P_BY_HKvarhG, P_SY_KwhZ,P_SY_KwhJ,P_SY_KwhF,P_SY_KwhP,P_SY_KwhG, P_SY_HKwhZ,P_SY_HKwhJ,P_SY_HKwhF,P_SY_HKwhP,P_SY_HKwhG, P_SY_KvarhZ,P_SY_KvarhJ,P_SY_KvarhF,P_SY_KvarhP,P_SY_KvarhG, P_SY_HKvarhZ,P_SY_HKvarhJ,P_SY_HKvarhF,P_SY_HKvarhP,P_SY_HKvarhG, P_SSY_KwhZ,P_SSY_KwhJ,P_SSY_KwhF,P_SSY_KwhP,P_SSY_KwhG, P_SSY_HKwhZ,P_SSY_HKwhJ,P_SSY_HKwhF,P_SSY_HKwhP,P_SSY_HKwhG, P_SSY_KvarhZ,P_SSY_KvarhJ,P_SSY_KvarhF,P_SSY_KvarhP,P_SSY_KvarhG, P_SSY_HKvarhZ,P_SSY_HKvarhJ,P_SSY_HKvarhF,P_SSY_HKvarhP,P_SSY_HKvarhG,P_CODE,P_TIME,P_ZXYGDN,P_FXYGDN,P_ZXWGDN,P_FXWGDN)values(237.925,238.639,237.936,412.661,412.661,412.054,0,0,2.16,0,0,400,480,240,240,240,720,240,240,480,880,0.162,0.117,0.849,0.563,50.152065,1302.8,109.6,811.6,0,381.2,0,0,0,0,0,143.2,0.4,128,0,14.4,438,76.8,172,0,188.8,875.2,94,494.8,0,286,0,0,0,0,0,4,0,3.2,0,0.8,618.4,98,266.8,0,253.2,1765.2,109.6,1142.4,0,513.2,0,0,0,0,0,55.6,0.4,40.4,0,14,508,91.2,191.6,0,224.3176,19,20171126222712,169.098,0,13.631,56.308)
写入成功读取完毕一个
14 03 68
20totalsize 104
43 6D BA A0 43 6E 79 9A 43 6D B4 FE 43 CE 28 31 43 CE 28 31 43 CD DA A0 41 0F 5C 29 40 D8 51 EC 41 11 47 AE 44 A5 00 00 44 70 00 00 44 AA 00 00 45 63 80 00 43 A0 00 00 43 8C 00 00 43 A0 00 00 44 66 00 00 45 04 80 00 44 C8 00 00 45 07 00 00 45 6B 00 00 3F 20 00 00 3F 1A E1 48 3F 1F BE 77 3F 78 93 75 42 48 80 E1
14 03 F0
20totalsize 240
44 A8 73 33 43 D3 66 66 43 9C 66 66 00 00 00 00 44 18 F3 33 00 00 00 00 00 00 00 00 00 00 00 00 00 00 00 00 00 00 00 00 40 0C CC CD 00 00 00 00 40 0C CC CD 00 00 00 00 00 00 00 00 43 9C 33 33 42 C9 99 9A 42 87 99 9A 00 00 00 00 43 0F 99 9A 44 AC 73 33 43 E0 33 33 43 9A 66 66 00 00 00 00 44 1B 8C CD 00 00 00 00 00 00 00 00 00 00 00 00 00 00 00 00 00 00 00 00 40 99 99 9A 00 00 00 00 40 93 33 33 00 00 00 00 00 00 00 00 43 9B 80 00 42 D2 66 66 42 76 66 66 00 00 00 00 43 10 00 00 44 A4 D9 9A 43 ED 99 9A 43 78 66 66 00 00 00 00 44 14 C0 00 00 00 00 00 00 00 00 00 00 00 00 00 00 00 00 00 00 00 00 00 3F 4C CC CD 00 00 00 00 3F 4C CC CD 00 00 00 00 00 00 00 00 43 8C 66 66 42 D1 33 33 42 3B 33 33 00 00 00 00 43 01 23 79
write:14 03 01 0F 00 08 77 36
14 03 10
2000 04 20 F4 00 00 00 00 00 00 13 51 00 00 20 0B
43 6D BA A0
237.729
43 6E 79 9A
238.475
43 6D B4 FE
237.707
43 CE 28 31
412.314
43 CE 28 31
412.314
43 CD DA A0
411.708
41 0F 5C 29
8.96
40 D8 51 EC
6.76
41 11 47 AE
9.08
44 A5 00 00
1320
44 70 00 00
960
44 AA 00 00
1360
45 63 80 00
3640
43 A0 00 00
320
43 8C 00 00
280
43 A0 00 00
320
44 66 00 00
920
45 04 80 00
2120
44 C8 00 00
1600
45 07 00 00
2160
45 6B 00 00
3760
3F 20 00 00
0.625
3F 1A E1 48
0.605
3F 1F BE 77
0.624
3F 78 93 75
0.971
42 48 80 E1
50.12586
44 A8 73 33
1347.6
43 D3 66 66
422.8
43 9C 66 66
312.8
00 00 00 00
0
44 18 F3 33
611.8
00 00 00 00
0
00 00 00 00
0
00 00 00 00
0
00 00 00 00
0
00 00 00 00
0
40 0C CC CD
2.2
00 00 00 00
0
40 0C CC CD
2.2
00 00 00 00
0
00 00 00 00
0
43 9C 33 33
312.4
42 C9 99 9A
100.8
42 87 99 9A
67.8
00 00 00 00
0
43 0F 99 9A
143.6
44 AC 73 33
1379.6
43 E0 33 33
448.4
43 9A 66 66
308.8
00 00 00 00
0
44 1B 8C CD
622.2
00 00 00 00
0
00 00 00 00
0
00 00 00 00
0
00 00 00 00
0
00 00 00 00
0
40 99 99 9A
4.8
00 00 00 00
0
40 93 33 33
4.6
00 00 00 00
0
00 00 00 00
0
43 9B 80 00
311
42 D2 66 66
105.2
42 76 66 66
61.6
00 00 00 00
0
43 10 00 00
144
44 A4 D9 9A
1318.8
43 ED 99 9A
475.2
43 78 66 66
248.4
00 00 00 00
0
44 14 C0 00
595
00 00 00 00
0
00 00 00 00
0
00 00 00 00
0
00 00 00 00
0
00 00 00 00
0
3F 4C CC CD
0.8
00 00 00 00
0
3F 4C CC CD
0.8
00 00 00 00
0
00 00 00 00
0
43 8C 66 66
280.8
42 D1 33 33
104.6
42 3B 33 33
46.8
00 00 00 00
0
43 01 23 79
129.13857
00 04 20 F4
270580
00 00 00 00
0
00 00 13 51
4945
00 00 20 0B
8203
237.729238.475237.707412.314412.314411.7088.966.769.0813209601360364032028032092021201600216037600.6250.6050.6240.97150.125861347.6422.8312.80611.8000002.202.200312.4100.867.80143.61379.6448.4308.80622.2000004.804.600311105.261.601441318.8475.2248.40595000000.800.800280.8104.646.80129.138572020171126222737270.5804.9458.203insert into tbl_power_info_v2(P_A_DIANYA,P_B_DIANYA,P_C_DIANYA,P_UAB_XIANDIANYA,P_UBC_XIANDIANYA,P_UCA_XIANDIANYA,P_A_DIANLIU,P_B_DIANLIU,P_C_DIANLIU,P_A_YGGL,P_B_YGGL,P_C_YGGL,P_HXYGGL,P_A_WGGL,P_B_WGGL,P_C_WGGL,P_HXWGGL,P_A_SZGL,P_B_SZGL,P_C_SZGL,P_HXSZGL,P_A_GLYS,P_B_GLYS,P_C_GLYS,P_HXGLYS,P_DWPL,P_BY_KwhZ,P_BY_KwhJ,P_BY_KwhF,P_BY_KwhP,P_BY_KwhG,P_BY_HKwhZ,P_BY_HKwhJ,P_BY_HKwhF,P_BY_HKwhP,P_BY_HKwhG, P_BY_KvarhZ,P_BY_KvarhJ,P_BY_KvarhF,P_BY_KvarhP,P_BY_KvarhG, P_BY_HKvarhZ,P_BY_HKvarhJ,P_BY_HKvarhF,P_BY_HKvarhP,P_BY_HKvarhG, P_SY_KwhZ,P_SY_KwhJ,P_SY_KwhF,P_SY_KwhP,P_SY_KwhG, P_SY_HKwhZ,P_SY_HKwhJ,P_SY_HKwhF,P_SY_HKwhP,P_SY_HKwhG, P_SY_KvarhZ,P_SY_KvarhJ,P_SY_KvarhF,P_SY_KvarhP,P_SY_KvarhG, P_SY_HKvarhZ,P_SY_HKvarhJ,P_SY_HKvarhF,P_SY_HKvarhP,P_SY_HKvarhG, P_SSY_KwhZ,P_SSY_KwhJ,P_SSY_KwhF,P_SSY_KwhP,P_SSY_KwhG, P_SSY_HKwhZ,P_SSY_HKwhJ,P_SSY_HKwhF,P_SSY_HKwhP,P_SSY_HKwhG, P_SSY_KvarhZ,P_SSY_KvarhJ,P_SSY_KvarhF,P_SSY_KvarhP,P_SSY_KvarhG, P_SSY_HKvarhZ,P_SSY_HKvarhJ,P_SSY_HKvarhF,P_SSY_HKvarhP,P_SSY_HKvarhG,P_CODE,P_TIME,P_ZXYGDN,P_FXYGDN,P_ZXWGDN,P_FXWGDN)values(237.729,238.475,237.707,412.314,412.314,411.708,8.96,6.76,9.08,1320,960,1360,3640,320,280,320,920,2120,1600,2160,3760,0.625,0.605,0.624,0.971,50.12586,1347.6,422.8,312.8,0,611.8,0,0,0,0,0,2.2,0,2.2,0,0,312.4,100.8,67.8,0,143.6,1379.6,448.4,308.8,0,622.2,0,0,0,0,0,4.8,0,4.6,0,0,311,105.2,61.6,0,144,1318.8,475.2,248.4,0,595,0,0,0,0,0,0.8,0,0.8,0,0,280.8,104.6,46.8,0,129.13857,20,20171126222737,270.58,0,4.945,8.203)
写入成功读取完毕一个
write:15 03 00 38 00 34 C6 C4
15 03 68
21totalsize 104
43 6D A1 89 43 6E 24 9C 43 6D 70 21 43 CD FB E7 43 CD E5 C3 43 CD AE 56 00 00 00 00 00 00 00 00 00 00 00 00 00 00 00 00 00 00 00 00 00 00 00 00 00 00 00 00 00 00 00 00 00 00 00 00 00 00 00 00 00 00 00 00 00 00 00 00 00 00 00 00 00 00 00 00 00 00 00 00 00 00 00 00 00 00 00 00 00 00 00 00 00 00 00 00 42 48 54 B5
write:15 03 07 CF 00 78 77 B7
15 03 F0
21totalsize 240
40 CC CC CD 00 00 00 00 40 A6 66 66 00 00 00 00 3F 99 99 9A 00 00 00 00 00 00 00 00 00 00 00 00 00 00 00 00 00 00 00 00 3E CC CC CD 00 00 00 00 3E CC CC CD 00 00 00 00 00 00 00 00 00 00 00 00 00 00 00 00 00 00 00 00 00 00 00 00 00 00 00 00 40 8C CC CD 00 00 00 00 40 66 66 66 00 00 00 00 3F 4C CC CD 00 00 00 00 00 00 00 00 00 00 00 00 00 00 00 00 00 00 00 00 00 00 00 00 00 00 00 00 00 00 00 00 00 00 00 00 00 00 00 00 00 00 00 00 00 00 00 00 00 00 00 00 00 00 00 00 00 00 00 00 42 1E 66 66 00 00 00 00 41 F3 33 33 00 00 00 00 41 13 33 33 00 00 00 00 00 00 00 00 00 00 00 00 00 00 00 00 00 00 00 00 42 D8 00 00 00 00 00 00 42 A3 33 33 00 00 00 00 41 D0 00 00 00 00 00 00 00 00 00 00 00 00 00 00 00 00 00 00 00 00 7F 8C
write:15 03 01 0F 00 08 76 E7
15 03 10
2100 00 18 95 00 00 00 00 00 00 1D 3D 00 00 8A E4
43 6D A1 89
237.631
43 6E 24 9C
238.143
43 6D 70 21
237.438
43 CD FB E7
411.968
43 CD E5 C3
411.795
43 CD AE 56
411.362
00 00 00 00
0
00 00 00 00
0
00 00 00 00
0
00 00 00 00
0
00 00 00 00
0
00 00 00 00
0
00 00 00 00
0
00 00 00 00
0
00 00 00 00
0
00 00 00 00
0
00 00 00 00
0
00 00 00 00
0
00 00 00 00
0
00 00 00 00
0
00 00 00 00
0
00 00 00 00
0
00 00 00 00
0
00 00 00 00
0
00 00 00 00
0
42 48 54 B5
50.08272
40 CC CC CD
6.4
00 00 00 00
0
40 A6 66 66
5.2
00 00 00 00
0
3F 99 99 9A
1.2
00 00 00 00
0
00 00 00 00
0
00 00 00 00
0
00 00 00 00
0
00 00 00 00
0
3E CC CC CD
0.4
00 00 00 00
0
3E CC CC CD
0.4
00 00 00 00
0
00 00 00 00
0
00 00 00 00
0
00 00 00 00
0
00 00 00 00
0
00 00 00 00
0
00 00 00 00
0
40 8C CC CD
4.4
00 00 00 00
0
40 66 66 66
3.6
00 00 00 00
0
3F 4C CC CD
0.8
00 00 00 00
0
00 00 00 00
0
00 00 00 00
0
00 00 00 00
0
00 00 00 00
0
00 00 00 00
0
00 00 00 00
0
00 00 00 00
0
00 00 00 00
0
00 00 00 00
0
00 00 00 00
0
00 00 00 00
0
00 00 00 00
0
00 00 00 00
0
00 00 00 00
0
42 1E 66 66
39.6
00 00 00 00
0
41 F3 33 33
30.4
00 00 00 00
0
41 13 33 33
9.2
00 00 00 00
0
00 00 00 00
0
00 00 00 00
0
00 00 00 00
0
00 00 00 00
0
42 D8 00 00
108
00 00 00 00
0
42 A3 33 33
81.6
00 00 00 00
0
41 D0 00 00
26
00 00 00 00
0
00 00 00 00
0
00 00 00 00
0
00 00 00 00
0
00 00 7F 8C
4.5755e-41
00 00 18 95
6293
00 00 00 00
0
00 00 1D 3D
7485
00 00 8A E4
35556
237.631238.143237.438411.968411.795411.362000000000000000000050.082726.405.201.2000000.400.400000004.403.600.800000000000000039.6030.409.200000108081.602600004.5755e-4121201711262228306.29307.48535.556insert into tbl_power_info_v2(P_A_DIANYA,P_B_DIANYA,P_C_DIANYA,P_UAB_XIANDIANYA,P_UBC_XIANDIANYA,P_UCA_XIANDIANYA,P_A_DIANLIU,P_B_DIANLIU,P_C_DIANLIU,P_A_YGGL,P_B_YGGL,P_C_YGGL,P_HXYGGL,P_A_WGGL,P_B_WGGL,P_C_WGGL,P_HXWGGL,P_A_SZGL,P_B_SZGL,P_C_SZGL,P_HXSZGL,P_A_GLYS,P_B_GLYS,P_C_GLYS,P_HXGLYS,P_DWPL,P_BY_KwhZ,P_BY_KwhJ,P_BY_KwhF,P_BY_KwhP,P_BY_KwhG,P_BY_HKwhZ,P_BY_HKwhJ,P_BY_HKwhF,P_BY_HKwhP,P_BY_HKwhG, P_BY_KvarhZ,P_BY_KvarhJ,P_BY_KvarhF,P_BY_KvarhP,P_BY_KvarhG, P_BY_HKvarhZ,P_BY_HKvarhJ,P_BY_HKvarhF,P_BY_HKvarhP,P_BY_HKvarhG, P_SY_KwhZ,P_SY_KwhJ,P_SY_KwhF,P_SY_KwhP,P_SY_KwhG, P_SY_HKwhZ,P_SY_HKwhJ,P_SY_HKwhF,P_SY_HKwhP,P_SY_HKwhG, P_SY_KvarhZ,P_SY_KvarhJ,P_SY_KvarhF,P_SY_KvarhP,P_SY_KvarhG, P_SY_HKvarhZ,P_SY_HKvarhJ,P_SY_HKvarhF,P_SY_HKvarhP,P_SY_HKvarhG, P_SSY_KwhZ,P_SSY_KwhJ,P_SSY_KwhF,P_SSY_KwhP,P_SSY_KwhG, P_SSY_HKwhZ,P_SSY_HKwhJ,P_SSY_HKwhF,P_SSY_HKwhP,P_SSY_HKwhG, P_SSY_KvarhZ,P_SSY_KvarhJ,P_SSY_KvarhF,P_SSY_KvarhP,P_SSY_KvarhG, P_SSY_HKvarhZ,P_SSY_HKvarhJ,P_SSY_HKvarhF,P_SSY_HKvarhP,P_SSY_HKvarhG,P_CODE,P_TIME,P_ZXYGDN,P_FXYGDN,P_ZXWGDN,P_FXWGDN)values(237.631,238.143,237.438,411.968,411.795,411.362,0,0,0,0,0,0,0,0,0,0,0,0,0,0,0,0,0,0,0,50.08272,6.4,0,5.2,0,1.2,0,0,0,0,0,0.4,0,0.4,0,0,0,0,0,0,0,4.4,0,3.6,0,0.8,0,0,0,0,0,0,0,0,0,0,0,0,0,0,0,39.6,0,30.4,0,9.2,0,0,0,0,0,108,0,81.6,0,26,0,0,0,0,4.5755e-41,21,20171126222830,6.293,0,7.485,35.556)
写入成功读取完毕一个
write:16 03 00 38 00 34 C6 F7
77 77 77
heart:77 77 77 2E 75 73 72 2E 63 6E
write:16 03 07 CF 00 78 77 84
write:16 03 01 0F 00 08 76 D4
write:17 03 00 38 00 34 C7 26
77 77 77
heart:77 77 77 2E 75 73 72 2E 63 6E
17 03 68
23totalsize 104
43 6D AC 4A 43 6E 1B 23 43 6D 70 E5 43 CD FB E7 43 CD E5 C3 43 CD AE 56 40 02 8F 5C 40 07 AE 14 40 73 33 33 43 B4 00 00 43 DC 00 00 44 52 00 00 44 CD 00 00 00 00 00 00 00 00 00 00 42 A0 00 00 43 20 00 00 43 F0 00 00 44 02 00 00 44 66 00 00 44 CD 00 00 3F 39 58 10 3F 5E B8 52 3F 6E 14 7B 3F 7E F9 DB 42 48 21 52
write:17 03 07 CF 00 78 76 55
17 03 F0
23totalsize 240
44 AA A6 66 43 70 CC CD 44 5D D9 9A 00 00 00 00 43 6D 00 00 00 00 00 00 00 00 00 00 00 00 00 00 00 00 00 00 00 00 00 00 42 19 99 9A 40 80 00 00 41 E9 99 9A 00 00 00 00 40 99 99 9A 42 67 33 33 41 49 99 9A 41 BB 33 33 00 00 00 00 41 AE 66 66 44 AC 0C CD 43 8E E6 66 44 54 80 00 00 00 00 00 43 70 33 33 00 00 00 00 00 00 00 00 00 00 00 00 00 00 00 00 00 00 00 00 41 16 66 66 3E CC CC CD 40 D9 99 9A 00 00 00 00 3F E6 66 66 42 D5 33 33 41 BB 33 33 42 46 66 66 00 00 00 00 42 05 99 9A 44 EF 33 33 43 86 66 66 44 9D 8C CD 00 00 00 00 43 C0 19 9A 00 00 00 00 00 00 00 00 00 00 00 00 00 00 00 00 00 00 00 00 41 66 66 66 3F 19 99 9A 41 20 00 00 00 00 00 00 40 73 33 33 42 8D 99 9A 41 56 66 66 41 F6 66 66 00 00 00 00 41 D3 52 9C
write:17 03 01 0F 00 08 77 05
17 03 10
2300 03 F4 2B 00 00 00 00 00 00 E7 F6 00 00 47 7D
43 6D AC 4A
237.673
43 6E 1B 23
238.106
43 6D 70 E5
237.441
43 CD FB E7
411.968
43 CD E5 C3
411.795
43 CD AE 56
411.362
40 02 8F 5C
2.04
40 07 AE 14
2.12
40 73 33 33
3.8
43 B4 00 00
360
43 DC 00 00
440
44 52 00 00
840
44 CD 00 00
1640
00 00 00 00
0
00 00 00 00
0
42 A0 00 00
80
43 20 00 00
160
43 F0 00 00
480
44 02 00 00
520
44 66 00 00
920
44 CD 00 00
1640
3F 39 58 10
0.724
3F 5E B8 52
0.87
3F 6E 14 7B
0.93
3F 7E F9 DB
0.996
42 48 21 52
50.03254
44 AA A6 66
1365.2
43 70 CC CD
240.8
44 5D D9 9A
887.4
00 00 00 00
0
43 6D 00 00
237
00 00 00 00
0
00 00 00 00
0
00 00 00 00
0
00 00 00 00
0
00 00 00 00
0
42 19 99 9A
38.4
40 80 00 00
4
41 E9 99 9A
29.2
00 00 00 00
0
40 99 99 9A
4.8
42 67 33 33
57.8
41 49 99 9A
12.6
41 BB 33 33
23.4
00 00 00 00
0
41 AE 66 66
21.8
44 AC 0C CD
1376.4
43 8E E6 66
285.8
44 54 80 00
850
00 00 00 00
0
43 70 33 33
240.2
00 00 00 00
0
00 00 00 00
0
00 00 00 00
0
00 00 00 00
0
00 00 00 00
0
41 16 66 66
9.4
3E CC CC CD
0.4
40 D9 99 9A
6.8
00 00 00 00
0
3F E6 66 66
1.8
42 D5 33 33
106.6
41 BB 33 33
23.4
42 46 66 66
49.6
00 00 00 00
0
42 05 99 9A
33.4
44 EF 33 33
1913.6
43 86 66 66
268.8
44 9D 8C CD
1260.4
00 00 00 00
0
43 C0 19 9A
384.2
00 00 00 00
0
00 00 00 00
0
00 00 00 00
0
00 00 00 00
0
00 00 00 00
0
41 66 66 66
14.4
3F 19 99 9A
0.6
41 20 00 00
10
00 00 00 00
0
40 73 33 33
3.8
42 8D 99 9A
70.8
41 56 66 66
13.4
41 F6 66 66
30.8
00 00 00 00
0
41 D3 52 9C
26.415337
00 03 F4 2B
259115
00 00 00 00
0
00 00 E7 F6
59382
00 00 47 7D
18301
237.673238.106237.441411.968411.795411.3622.042.123.83604408401640008016048052092016400.7240.870.930.99650.032541365.2240.8887.402370000038.4429.204.857.812.623.4021.81376.4285.88500240.2000009.40.46.801.8106.623.449.6033.41913.6268.81260.40384.20000014.40.61003.870.813.430.8026.4153372320171126223030259.115059.38218.301insert into tbl_power_info_v2(P_A_DIANYA,P_B_DIANYA,P_C_DIANYA,P_UAB_XIANDIANYA,P_UBC_XIANDIANYA,P_UCA_XIANDIANYA,P_A_DIANLIU,P_B_DIANLIU,P_C_DIANLIU,P_A_YGGL,P_B_YGGL,P_C_YGGL,P_HXYGGL,P_A_WGGL,P_B_WGGL,P_C_WGGL,P_HXWGGL,P_A_SZGL,P_B_SZGL,P_C_SZGL,P_HXSZGL,P_A_GLYS,P_B_GLYS,P_C_GLYS,P_HXGLYS,P_DWPL,P_BY_KwhZ,P_BY_KwhJ,P_BY_KwhF,P_BY_KwhP,P_BY_KwhG,P_BY_HKwhZ,P_BY_HKwhJ,P_BY_HKwhF,P_BY_HKwhP,P_BY_HKwhG, P_BY_KvarhZ,P_BY_KvarhJ,P_BY_KvarhF,P_BY_KvarhP,P_BY_KvarhG, P_BY_HKvarhZ,P_BY_HKvarhJ,P_BY_HKvarhF,P_BY_HKvarhP,P_BY_HKvarhG, P_SY_KwhZ,P_SY_KwhJ,P_SY_KwhF,P_SY_KwhP,P_SY_KwhG, P_SY_HKwhZ,P_SY_HKwhJ,P_SY_HKwhF,P_SY_HKwhP,P_SY_HKwhG, P_SY_KvarhZ,P_SY_KvarhJ,P_SY_KvarhF,P_SY_KvarhP,P_SY_KvarhG, P_SY_HKvarhZ,P_SY_HKvarhJ,P_SY_HKvarhF,P_SY_HKvarhP,P_SY_HKvarhG, P_SSY_KwhZ,P_SSY_KwhJ,P_SSY_KwhF,P_SSY_KwhP,P_SSY_KwhG, P_SSY_HKwhZ,P_SSY_HKwhJ,P_SSY_HKwhF,P_SSY_HKwhP,P_SSY_HKwhG, P_SSY_KvarhZ,P_SSY_KvarhJ,P_SSY_KvarhF,P_SSY_KvarhP,P_SSY_KvarhG, P_SSY_HKvarhZ,P_SSY_HKvarhJ,P_SSY_HKvarhF,P_SSY_HKvarhP,P_SSY_HKvarhG,P_CODE,P_TIME,P_ZXYGDN,P_FXYGDN,P_ZXWGDN,P_FXWGDN)values(237.673,238.106,237.441,411.968,411.795,411.362,2.04,2.12,3.8,360,440,840,1640,0,0,80,160,480,520,920,1640,0.724,0.87,0.93,0.996,50.03254,1365.2,240.8,887.4,0,237,0,0,0,0,0,38.4,4,29.2,0,4.8,57.8,12.6,23.4,0,21.8,1376.4,285.8,850,0,240.2,0,0,0,0,0,9.4,0.4,6.8,0,1.8,106.6,23.4,49.6,0,33.4,1913.6,268.8,1260.4,0,384.2,0,0,0,0,0,14.4,0.6,10,0,3.8,70.8,13.4,30.8,0,26.415337,23,20171126223030,259.115,0,59.382,18.301)
写入成功读取完毕一个
write:18 03 00 38 00 34 C7 D9
18 03 68
24totalsize 104
43 6D 75 81 43 6E 06 66 43 6D 8B C7 43 CD DA A0 43 CD E5 C3 43 CD A3 33 40 0C CC CD 3F AE 14 7B 40 17 0A 3D 43 A0 00 00 43 20 00 00 44 02 00 00 44 82 00 00 42 A0 00 00 42 A0 00 00 00 00 00 00 00 00 00 00 44 02 00 00 43 A0 00 00 44 0C 00 00 44 82 00 00 3F 27 AE 14 3E F1 A9 FC 3F 73 74 BC 3F 80 00 00 42 48 20 AD
write:18 03 07 CF 00 78 76 AA
18 03 F0
24totalsize 240
44 6F C0 00 43 64 66 66 44 03 A6 66 00 00 00 00 43 4C 00 00 00 00 00 00 00 00 00 00 00 00 00 00 00 00 00 00 00 00 00 00 43 49 66 66 42 08 CC CD 42 EF 33 33 00 00 00 00 42 3D 99 9A 41 D4 CC CD 40 F3 33 33 41 73 33 33 00 00 00 00 40 66 66 66 44 19 99 9A 43 00 00 00 43 A7 CC CD 00 00 00 00 43 16 99 9A 00 00 00 00 00 00 00 00 00 00 00 00 00 00 00 00 00 00 00 00 42 45 99 9A 3F 80 00 00 42 09 99 9A 00 00 00 00 41 60 00 00 42 0A 66 66 41 00 00 00 41 AC CC CD 00 00 00 00 40 99 99 9A 44 3F E6 66 43 0C 33 33 43 D9 E6 66 00 00 00 00 43 3F 66 66 00 00 00 00 00 00 00 00 00 00 00 00 00 00 00 00 00 00 00 00 43 A3 99 9A 41 A8 00 00 43 6C 99 9A 00 00 00 00 42 8A CC CD 42 1B 33 33 41 23 33 33 41 A6 66 66 00 00 00 00 40 F9 D0 CE
write:18 03 01 0F 00 08 77 FA
18 03 10
2400 02 08 71 00 00 00 00 00 00 C8 41 00 00 D9 D3
43 6D 75 81
237.459
43 6E 06 66
238.025
43 6D 8B C7
237.546
43 CD DA A0
411.708
43 CD E5 C3
411.795
43 CD A3 33
411.275
40 0C CC CD
2.2
3F AE 14 7B
1.36
40 17 0A 3D
2.36
43 A0 00 00
320
43 20 00 00
160
44 02 00 00
520
44 82 00 00
1040
42 A0 00 00
80
42 A0 00 00
80
00 00 00 00
0
00 00 00 00
0
44 02 00 00
520
43 A0 00 00
320
44 0C 00 00
560
44 82 00 00
1040
3F 27 AE 14
0.655
3E F1 A9 FC
0.472
3F 73 74 BC
0.951
3F 80 00 00
1
42 48 20 AD
50.03191
44 6F C0 00
959
43 64 66 66
228.4
44 03 A6 66
526.6
00 00 00 00
0
43 4C 00 00
204
00 00 00 00
0
00 00 00 00
0
00 00 00 00
0
00 00 00 00
0
00 00 00 00
0
43 49 66 66
201.4
42 08 CC CD
34.2
42 EF 33 33
119.6
00 00 00 00
0
42 3D 99 9A
47.4
41 D4 CC CD
26.6
40 F3 33 33
7.6
41 73 33 33
15.2
00 00 00 00
0
40 66 66 66
3.6
44 19 99 9A
614.4
43 00 00 00
128
43 A7 CC CD
335.6
00 00 00 00
0
43 16 99 9A
150.6
00 00 00 00
0
00 00 00 00
0
00 00 00 00
0
00 00 00 00
0
00 00 00 00
0
42 45 99 9A
49.4
3F 80 00 00
1
42 09 99 9A
34.4
00 00 00 00
0
41 60 00 00
14
42 0A 66 66
34.6
41 00 00 00
8
41 AC CC CD
21.6
00 00 00 00
0
40 99 99 9A
4.8
44 3F E6 66
767.6
43 0C 33 33
140.2
43 D9 E6 66
435.8
00 00 00 00
0
43 3F 66 66
191.4
00 00 00 00
0
00 00 00 00
0
00 00 00 00
0
00 00 00 00
0
00 00 00 00
0
43 A3 99 9A
327.2
41 A8 00 00
21
43 6C 99 9A
236.6
00 00 00 00
0
42 8A CC CD
69.4
42 1B 33 33
38.8
41 23 33 33
10.2
41 A6 66 66
20.8
00 00 00 00
0
40 F9 D0 CE
7.806739
00 02 08 71
133233
00 00 00 00
0
00 00 C8 41
51265
00 00 D9 D3
55763
237.459238.025237.546411.708411.795411.2752.21.362.36320160520104080800052032056010400.6550.4720.951150.03191959228.4526.6020400000201.434.2119.6047.426.67.615.203.6614.4128335.60150.60000049.4134.401434.6821.604.8767.6140.2435.80191.400000327.221236.6069.438.810.220.807.8067392420171126223129133.233051.26555.763insert into tbl_power_info_v2(P_A_DIANYA,P_B_DIANYA,P_C_DIANYA,P_UAB_XIANDIANYA,P_UBC_XIANDIANYA,P_UCA_XIANDIANYA,P_A_DIANLIU,P_B_DIANLIU,P_C_DIANLIU,P_A_YGGL,P_B_YGGL,P_C_YGGL,P_HXYGGL,P_A_WGGL,P_B_WGGL,P_C_WGGL,P_HXWGGL,P_A_SZGL,P_B_SZGL,P_C_SZGL,P_HXSZGL,P_A_GLYS,P_B_GLYS,P_C_GLYS,P_HXGLYS,P_DWPL,P_BY_KwhZ,P_BY_KwhJ,P_BY_KwhF,P_BY_KwhP,P_BY_KwhG,P_BY_HKwhZ,P_BY_HKwhJ,P_BY_HKwhF,P_BY_HKwhP,P_BY_HKwhG, P_BY_KvarhZ,P_BY_KvarhJ,P_BY_KvarhF,P_BY_KvarhP,P_BY_KvarhG, P_BY_HKvarhZ,P_BY_HKvarhJ,P_BY_HKvarhF,P_BY_HKvarhP,P_BY_HKvarhG, P_SY_KwhZ,P_SY_KwhJ,P_SY_KwhF,P_SY_KwhP,P_SY_KwhG, P_SY_HKwhZ,P_SY_HKwhJ,P_SY_HKwhF,P_SY_HKwhP,P_SY_HKwhG, P_SY_KvarhZ,P_SY_KvarhJ,P_SY_KvarhF,P_SY_KvarhP,P_SY_KvarhG, P_SY_HKvarhZ,P_SY_HKvarhJ,P_SY_HKvarhF,P_SY_HKvarhP,P_SY_HKvarhG, P_SSY_KwhZ,P_SSY_KwhJ,P_SSY_KwhF,P_SSY_KwhP,P_SSY_KwhG, P_SSY_HKwhZ,P_SSY_HKwhJ,P_SSY_HKwhF,P_SSY_HKwhP,P_SSY_HKwhG, P_SSY_KvarhZ,P_SSY_KvarhJ,P_SSY_KvarhF,P_SSY_KvarhP,P_SSY_KvarhG, P_SSY_HKvarhZ,P_SSY_HKvarhJ,P_SSY_HKvarhF,P_SSY_HKvarhP,P_SSY_HKvarhG,P_CODE,P_TIME,P_ZXYGDN,P_FXYGDN,P_ZXWGDN,P_FXWGDN)values(237.459,238.025,237.546,411.708,411.795,411.275,2.2,1.36,2.36,320,160,520,1040,80,80,0,0,520,320,560,1040,0.655,0.472,0.951,1,50.03191,959,228.4,526.6,0,204,0,0,0,0,0,201.4,34.2,119.6,0,47.4,26.6,7.6,15.2,0,3.6,614.4,128,335.6,0,150.6,0,0,0,0,0,49.4,1,34.4,0,14,34.6,8,21.6,0,4.8,767.6,140.2,435.8,0,191.4,0,0,0,0,0,327.2,21,236.6,0,69.4,38.8,10.2,20.8,0,7.806739,24,20171126223129,133.233,0,51.265,55.763)
写入成功读取完毕一个
write:19 03 00 38 00 34 C6 08
19 03 68
25totalsize 104
43 6D 7A 5E 43 6E 00 00 43 6D 88 73 43 CD DA A0 43 CD E5 C3 43 CD A3 33 00 00 00 00 3F 75 C2 8F 00 00 00 00 42 A0 00 00 43 20 00 00 42 A0 00 00 43 A0 00 00 00 00 00 00 42 A0 00 00 00 00 00 00 42 F0 00 00 42 A0 00 00 43 70 00 00 42 A0 00 00 43 A0 00 00 3F 6F 5C 29 3F 25 60 42 3F 40 83 12 3F 73 33 33 42 48 73 3C
write:19 03 07 CF 00 78 77 7B
19 03 F0
25totalsize 240
43 C3 4C CD 42 34 00 00 43 5F 00 00 00 00 00 00 42 F4 CC CD 00 00 00 00 00 00 00 00 00 00 00 00 00 00 00 00 00 00 00 00 41 79 99 9A 00 00 00 00 41 63 33 33 00 00 00 00 3F 99 99 9A 42 24 00 00 40 F3 33 33 41 83 33 33 00 00 00 00 41 88 00 00 43 B7 B3 33 42 3F 33 33 43 3E 00 00 00 00 00 00 43 01 66 66 00 00 00 00 00 00 00 00 00 00 00 00 00 00 00 00 00 00 00 00 41 10 00 00 00 00 00 00 40 C6 66 66 00 00 00 00 40 26 66 66 42 63 33 33 41 29 99 9A 41 BC CC CD 00 00 00 00 41 B3 33 33 43 A0 E6 66 42 0F 33 33 43 2B CC CD 00 00 00 00 42 E4 00 00 00 00 00 00 00 00 00 00 00 00 00 00 00 00 00 00 00 00 00 00 3E CC CC CD 00 00 00 00 3E 4C CC CD 00 00 00 00 00 00 00 00 42 21 99 9A 40 B9 99 9A 41 A3 33 33 00 00 00 00 41 60 DE 42
write:19 03 01 0F 00 08 76 2B
19 03 10
2500 00 F5 AC 00 00 00 00 00 00 06 A3 00 00 40 0E
43 6D 7A 5E
237.478
43 6E 00 00
238
43 6D 88 73
237.533
43 CD DA A0
411.708
43 CD E5 C3
411.795
43 CD A3 33
411.275
00 00 00 00
0
3F 75 C2 8F
0.96
00 00 00 00
0
42 A0 00 00
80
43 20 00 00
160
42 A0 00 00
80
43 A0 00 00
320
00 00 00 00
0
42 A0 00 00
80
00 00 00 00
0
42 F0 00 00
120
42 A0 00 00
80
43 70 00 00
240
42 A0 00 00
80
43 A0 00 00
320
3F 6F 5C 29
0.935
3F 25 60 42
0.646
3F 40 83 12
0.752
3F 73 33 33
0.95
42 48 73 3C
50.112534
43 C3 4C CD
390.6
42 34 00 00
45
43 5F 00 00
223
00 00 00 00
0
42 F4 CC CD
122.4
00 00 00 00
0
00 00 00 00
0
00 00 00 00
0
00 00 00 00
0
00 00 00 00
0
41 79 99 9A
15.6
00 00 00 00
0
41 63 33 33
14.2
00 00 00 00
0
3F 99 99 9A
1.2
42 24 00 00
41
40 F3 33 33
7.6
41 83 33 33
16.4
00 00 00 00
0
41 88 00 00
17
43 B7 B3 33
367.4
42 3F 33 33
47.8
43 3E 00 00
190
00 00 00 00
0
43 01 66 66
129.4
00 00 00 00
0
00 00 00 00
0
00 00 00 00
0
00 00 00 00
0
00 00 00 00
0
41 10 00 00
9
00 00 00 00
0
40 C6 66 66
6.2
00 00 00 00
0
40 26 66 66
2.6
42 63 33 33
56.8
41 29 99 9A
10.6
41 BC CC CD
23.6
00 00 00 00
0
41 B3 33 33
22.4
43 A0 E6 66
321.8
42 0F 33 33
35.8
43 2B CC CD
171.8
00 00 00 00
0
42 E4 00 00
114
00 00 00 00
0
00 00 00 00
0
00 00 00 00
0
00 00 00 00
0
00 00 00 00
0
3E CC CC CD
0.4
00 00 00 00
0
3E 4C CC CD
0.2
00 00 00 00
0
00 00 00 00
0
42 21 99 9A
40.4
40 B9 99 9A
5.8
41 A3 33 33
20.4
00 00 00 00
0
41 60 DE 42
14.054262
00 00 F5 AC
62892
00 00 00 00
0
00 00 06 A3
1699
00 00 40 0E
16398
237.478238237.533411.708411.795411.27500.9608016080320080012080240803200.9350.6460.7520.9550.112534390.6452230122.40000015.6014.201.2417.616.4017367.447.81900129.400000906.202.656.810.623.6022.4321.835.8171.80114000000.400.20040.45.820.4014.054262252017112622322962.89201.69916.398insert into tbl_power_info_v2(P_A_DIANYA,P_B_DIANYA,P_C_DIANYA,P_UAB_XIANDIANYA,P_UBC_XIANDIANYA,P_UCA_XIANDIANYA,P_A_DIANLIU,P_B_DIANLIU,P_C_DIANLIU,P_A_YGGL,P_B_YGGL,P_C_YGGL,P_HXYGGL,P_A_WGGL,P_B_WGGL,P_C_WGGL,P_HXWGGL,P_A_SZGL,P_B_SZGL,P_C_SZGL,P_HXSZGL,P_A_GLYS,P_B_GLYS,P_C_GLYS,P_HXGLYS,P_DWPL,P_BY_KwhZ,P_BY_KwhJ,P_BY_KwhF,P_BY_KwhP,P_BY_KwhG,P_BY_HKwhZ,P_BY_HKwhJ,P_BY_HKwhF,P_BY_HKwhP,P_BY_HKwhG, P_BY_KvarhZ,P_BY_KvarhJ,P_BY_KvarhF,P_BY_KvarhP,P_BY_KvarhG, P_BY_HKvarhZ,P_BY_HKvarhJ,P_BY_HKvarhF,P_BY_HKvarhP,P_BY_HKvarhG, P_SY_KwhZ,P_SY_KwhJ,P_SY_KwhF,P_SY_KwhP,P_SY_KwhG, P_SY_HKwhZ,P_SY_HKwhJ,P_SY_HKwhF,P_SY_HKwhP,P_SY_HKwhG, P_SY_KvarhZ,P_SY_KvarhJ,P_SY_KvarhF,P_SY_KvarhP,P_SY_KvarhG, P_SY_HKvarhZ,P_SY_HKvarhJ,P_SY_HKvarhF,P_SY_HKvarhP,P_SY_HKvarhG, P_SSY_KwhZ,P_SSY_KwhJ,P_SSY_KwhF,P_SSY_KwhP,P_SSY_KwhG, P_SSY_HKwhZ,P_SSY_HKwhJ,P_SSY_HKwhF,P_SSY_HKwhP,P_SSY_HKwhG, P_SSY_KvarhZ,P_SSY_KvarhJ,P_SSY_KvarhF,P_SSY_KvarhP,P_SSY_KvarhG, P_SSY_HKvarhZ,P_SSY_HKvarhJ,P_SSY_HKvarhF,P_SSY_HKvarhP,P_SSY_HKvarhG,P_CODE,P_TIME,P_ZXYGDN,P_FXYGDN,P_ZXWGDN,P_FXWGDN)values(237.478,238,237.533,411.708,411.795,411.275,0,0.96,0,80,160,80,320,0,80,0,120,80,240,80,320,0.935,0.646,0.752,0.95,50.112534,390.6,45,223,0,122.4,0,0,0,0,0,15.6,0,14.2,0,1.2,41,7.6,16.4,0,17,367.4,47.8,190,0,129.4,0,0,0,0,0,9,0,6.2,0,2.6,56.8,10.6,23.6,0,22.4,321.8,35.8,171.8,0,114,0,0,0,0,0,0.4,0,0.2,0,0,40.4,5.8,20.4,0,14.054262,25,20171126223229,62.892,0,1.699,16.398)
写入成功读取完毕一个
write:1A 03 00 38 00 34 C6 3B
1A 03 68
26totalsize 104
43 6D EF 9E 43 6E 6D D3 43 6D FD B2 43 CE 3E 77 43 CE 3E 77 43 CE 06 E9 3F E6 66 66 40 C3 D7 0A 40 9D 70 A4 00 00 00 00 44 70 00 00 44 34 00 00 44 D2 00 00 43 B4 00 00 44 16 00 00 44 34 00 00 44 C3 00 00 43 B4 00 00 44 B4 00 00 44 96 00 00 45 16 00 00 3E 87 AE 14 3F 1E 76 C9 3F 1C ED 91 3F 3B A5 E3 42 48 18 CE
write:1A 03 07 CF 00 78 77 48
1A 03 F0
26totalsize 240
44 E3 B3 33 43 41 33 33 44 7F 99 9A 00 00 00 00 44 17 59 9A 00 00 00 00 00 00 00 00 00 00 00 00 00 00 00 00 00 00 00 00 42 97 33 33 40 99 99 9A 42 1C 00 00 00 00 00 00 41 F9 99 9A 44 61 E6 66 43 11 33 33 43 C3 00 00 00 00 00 00 43 B7 99 9A 44 AC E0 00 43 0E CC CD 44 4A 33 33 00 00 00 00 43 D7 19 9A 00 00 00 00 00 00 00 00 00 00 00 00 00 00 00 00 00 00 00 00 40 C0 00 00 3F E6 66 66 40 19 99 9A 00 00 00 00 3F 99 99 9A 44 70 00 00 43 11 33 33 43 D5 4C CD 00 00 00 00 43 C1 CC CD 44 E4 00 00 42 EE CC CD 44 94 20 00 00 00 00 00 44 01 E6 66 00 00 00 00 00 00 00 00 00 00 00 00 00 00 00 00 00 00 00 00 42 0B 33 33 00 00 00 00 41 D3 33 33 00 00 00 00 41 06 66 66 44 3E F3 33 42 F7 33 33 43 9F E6 66 00 00 00 00 43 9F 15 EB
write:1A 03 01 0F 00 08 76 18
1A 03 10
2600 02 88 DE 00 00 00 00 00 00 3D F8 00 00 72 2A
43 6D EF 9E
237.936
43 6E 6D D3
238.429
43 6D FD B2
237.991
43 CE 3E 77
412.488
43 CE 3E 77
412.488
43 CE 06 E9
412.054
3F E6 66 66
1.8
40 C3 D7 0A
6.12
40 9D 70 A4
4.92
00 00 00 00
0
44 70 00 00
960
44 34 00 00
720
44 D2 00 00
1680
43 B4 00 00
360
44 16 00 00
600
44 34 00 00
720
44 C3 00 00
1560
43 B4 00 00
360
44 B4 00 00
1440
44 96 00 00
1200
45 16 00 00
2400
3E 87 AE 14
0.265
3F 1E 76 C9
0.619
3F 1C ED 91
0.613
3F 3B A5 E3
0.733
42 48 18 CE
50.024223
44 E3 B3 33
1821.6
43 41 33 33
193.2
44 7F 99 9A
1022.4
00 00 00 00
0
44 17 59 9A
605.4
00 00 00 00
0
00 00 00 00
0
00 00 00 00
0
00 00 00 00
0
00 00 00 00
0
42 97 33 33
75.6
40 99 99 9A
4.8
42 1C 00 00
39
00 00 00 00
0
41 F9 99 9A
31.2
44 61 E6 66
903.6
43 11 33 33
145.2
43 C3 00 00
390
00 00 00 00
0
43 B7 99 9A
367.2
44 AC E0 00
1383
43 0E CC CD
142.8
44 4A 33 33
808.8
00 00 00 00
0
43 D7 19 9A
430.2
00 00 00 00
0
00 00 00 00
0
00 00 00 00
0
00 00 00 00
0
00 00 00 00
0
40 C0 00 00
6
3F E6 66 66
1.8
40 19 99 9A
2.4
00 00 00 00
0
3F 99 99 9A
1.2
44 70 00 00
960
43 11 33 33
145.2
43 D5 4C CD
426.6
00 00 00 00
0
43 C1 CC CD
387.6
44 E4 00 00
1824
42 EE CC CD
119.4
44 94 20 00
1185
00 00 00 00
0
44 01 E6 66
519.6
00 00 00 00
0
00 00 00 00
0
00 00 00 00
0
00 00 00 00
0
00 00 00 00
0
42 0B 33 33
34.8
00 00 00 00
0
41 D3 33 33
26.4
00 00 00 00
0
41 06 66 66
8.4
44 3E F3 33
763.8
42 F7 33 33
123.6
43 9F E6 66
319.8
00 00 00 00
0
43 9F 15 EB
318.17123
00 02 88 DE
166110
00 00 00 00
0
00 00 3D F8
15864
00 00 72 2A
29226
237.936238.429237.991412.488412.488412.0541.86.124.920960720168036060072015603601440120024000.2650.6190.6130.73350.0242231821.6193.21022.40605.40000075.64.839031.2903.6145.23900367.21383142.8808.80430.20000061.82.401.2960145.2426.60387.61824119.411850519.60000034.8026.408.4763.8123.6319.80318.171232620171126223329166.11015.86429.226insert into tbl_power_info_v2(P_A_DIANYA,P_B_DIANYA,P_C_DIANYA,P_UAB_XIANDIANYA,P_UBC_XIANDIANYA,P_UCA_XIANDIANYA,P_A_DIANLIU,P_B_DIANLIU,P_C_DIANLIU,P_A_YGGL,P_B_YGGL,P_C_YGGL,P_HXYGGL,P_A_WGGL,P_B_WGGL,P_C_WGGL,P_HXWGGL,P_A_SZGL,P_B_SZGL,P_C_SZGL,P_HXSZGL,P_A_GLYS,P_B_GLYS,P_C_GLYS,P_HXGLYS,P_DWPL,P_BY_KwhZ,P_BY_KwhJ,P_BY_KwhF,P_BY_KwhP,P_BY_KwhG,P_BY_HKwhZ,P_BY_HKwhJ,P_BY_HKwhF,P_BY_HKwhP,P_BY_HKwhG, P_BY_KvarhZ,P_BY_KvarhJ,P_BY_KvarhF,P_BY_KvarhP,P_BY_KvarhG, P_BY_HKvarhZ,P_BY_HKvarhJ,P_BY_HKvarhF,P_BY_HKvarhP,P_BY_HKvarhG, P_SY_KwhZ,P_SY_KwhJ,P_SY_KwhF,P_SY_KwhP,P_SY_KwhG, P_SY_HKwhZ,P_SY_HKwhJ,P_SY_HKwhF,P_SY_HKwhP,P_SY_HKwhG, P_SY_KvarhZ,P_SY_KvarhJ,P_SY_KvarhF,P_SY_KvarhP,P_SY_KvarhG, P_SY_HKvarhZ,P_SY_HKvarhJ,P_SY_HKvarhF,P_SY_HKvarhP,P_SY_HKvarhG, P_SSY_KwhZ,P_SSY_KwhJ,P_SSY_KwhF,P_SSY_KwhP,P_SSY_KwhG, P_SSY_HKwhZ,P_SSY_HKwhJ,P_SSY_HKwhF,P_SSY_HKwhP,P_SSY_HKwhG, P_SSY_KvarhZ,P_SSY_KvarhJ,P_SSY_KvarhF,P_SSY_KvarhP,P_SSY_KvarhG, P_SSY_HKvarhZ,P_SSY_HKvarhJ,P_SSY_HKvarhF,P_SSY_HKvarhP,P_SSY_HKvarhG,P_CODE,P_TIME,P_ZXYGDN,P_FXYGDN,P_ZXWGDN,P_FXWGDN)values(237.936,238.429,237.991,412.488,412.488,412.054,1.8,6.12,4.92,0,960,720,1680,360,600,720,1560,360,1440,1200,2400,0.265,0.619,0.613,0.733,50.024223,1821.6,193.2,1022.4,0,605.4,0,0,0,0,0,75.6,4.8,39,0,31.2,903.6,145.2,390,0,367.2,1383,142.8,808.8,0,430.2,0,0,0,0,0,6,1.8,2.4,0,1.2,960,145.2,426.6,0,387.6,1824,119.4,1185,0,519.6,0,0,0,0,0,34.8,0,26.4,0,8.4,763.8,123.6,319.8,0,318.17123,26,20171126223329,166.11,0,15.864,29.226)
写入成功读取完毕一个
write:1B 03 00 38 00 34 C7 EA
1B 03 68
27totalsize 104
43 6D B2 B0 43 6E 47 2B 43 6D C0 83 43 CE 07 0A 43 CE 12 0C 43 CD CF 7D 00 00 00 00 00 00 00 00 00 00 00 00 00 00 00 00 00 00 00 00 00 00 00 00 00 00 00 00 00 00 00 00 00 00 00 00 00 00 00 00 00 00 00 00 00 00 00 00 00 00 00 00 00 00 00 00 43 70 00 00 00 00 00 00 00 00 00 00 00 00 00 00 3F 5B 22 D1 42 48 15 5F
write:1B 03 07 CF 00 78 76 99
write:1B 03 01 0F 00 08 77 C9
1B 03 F0
27totalsize 240
45 19 F9 9A 41 D8 00 00 44 EF 53 33 00 00 00 00 44 02 59 9A 00 00 00 00 00 00 00 00 00 00 00 00 00 00 00 00 00 00 00 00 44 3B CC CD 41 99 99 9A 44 03 8C CD 00 00 00 00 43 4D 33 33 00 00 00 00 00 00 00 00 00 00 00 00 00 00 00 00 00 00 00 00 45 10 D3 33 41 F9 99 9A 44 E5 33 33 00 00 00 00 43 E1 E6 66 00 00 00 00 00 00 00 00 00 00 00 00 00 00 00 00 00 00 00 00 44 24 40 00 41 86 66 66 43 E5 CC CD 00 00 00 00 43 34 99 9A 00 00 00 00 00 00 00 00 00 00 00 00 00 00 00 00 00 00 00 00 45 1D 76 66 42 4E 66 66 44 F5 19 9A 00 00 00 00 43 FD 33 33 00 00 00 00 00 00 00 00 00 00 00 00 00 00 00 00 00 00 00 00 44 73 99 9A 42 34 00 00 44 1E 8C CD 00 00 00 00 43 93 4C CD 00 00 00 00 00 00 00 00 00 00 00 00 00 00 00 00 00 00 BD 24
1B 03 10
2700 02 34 FB 00 00 00 00 00 00 DB 1D 00 00 81 4B
43 6D B2 B0
237.698
43 6E 47 2B
238.278
43 6D C0 83
237.752
43 CE 07 0A
412.055
43 CE 12 0C
412.141
43 CD CF 7D
411.621
00 00 00 00
0
00 00 00 00
0
00 00 00 00
0
00 00 00 00
0
00 00 00 00
0
00 00 00 00
0
00 00 00 00
0
00 00 00 00
0
00 00 00 00
0
00 00 00 00
0
00 00 00 00
0
00 00 00 00
0
00 00 00 00
0
00 00 00 00
0
43 70 00 00
240
00 00 00 00
0
00 00 00 00
0
00 00 00 00
0
3F 5B 22 D1
0.856
42 48 15 5F
50.02087
45 19 F9 9A
2463.6
41 D8 00 00
27
44 EF 53 33
1914.6
00 00 00 00
0
44 02 59 9A
521.4
00 00 00 00
0
00 00 00 00
0
00 00 00 00
0
00 00 00 00
0
00 00 00 00
0
44 3B CC CD
751.2
41 99 99 9A
19.2
44 03 8C CD
526.2
00 00 00 00
0
43 4D 33 33
205.2
00 00 00 00
0
00 00 00 00
0
00 00 00 00
0
00 00 00 00
0
00 00 00 00
0
45 10 D3 33
2317.2
41 F9 99 9A
31.2
44 E5 33 33
1833.6
00 00 00 00
0
43 E1 E6 66
451.8
00 00 00 00
0
00 00 00 00
0
00 00 00 00
0
00 00 00 00
0
00 00 00 00
0
44 24 40 00
657
41 86 66 66
16.8
43 E5 CC CD
459.6
00 00 00 00
0
43 34 99 9A
180.6
00 00 00 00
0
00 00 00 00
0
00 00 00 00
0
00 00 00 00
0
00 00 00 00
0
45 1D 76 66
2519.4
42 4E 66 66
51.6
44 F5 19 9A
1960.8
00 00 00 00
0
43 FD 33 33
506.4
00 00 00 00
0
00 00 00 00
0
00 00 00 00
0
00 00 00 00
0
00 00 00 00
0
44 73 99 9A
974.4
42 34 00 00
45
44 1E 8C CD
634.2
00 00 00 00
0
43 93 4C CD
294.6
00 00 00 00
0
00 00 00 00
0
00 00 00 00
0
00 00 00 00
0
00 00 BD 24
6.7851e-41
00 02 34 FB
144635
00 00 00 00
0
00 00 DB 1D
56093
00 00 81 4B
33099
237.698238.278237.752412.055412.141411.621000000000000002400000.85650.020872463.6271914.60521.400000751.219.2526.20205.2000002317.231.21833.60451.80000065716.8459.60180.6000002519.451.61960.80506.400000974.445634.20294.600006.7851e-412720171126223432144.635056.09333.099insert into tbl_power_info_v2(P_A_DIANYA,P_B_DIANYA,P_C_DIANYA,P_UAB_XIANDIANYA,P_UBC_XIANDIANYA,P_UCA_XIANDIANYA,P_A_DIANLIU,P_B_DIANLIU,P_C_DIANLIU,P_A_YGGL,P_B_YGGL,P_C_YGGL,P_HXYGGL,P_A_WGGL,P_B_WGGL,P_C_WGGL,P_HXWGGL,P_A_SZGL,P_B_SZGL,P_C_SZGL,P_HXSZGL,P_A_GLYS,P_B_GLYS,P_C_GLYS,P_HXGLYS,P_DWPL,P_BY_KwhZ,P_BY_KwhJ,P_BY_KwhF,P_BY_KwhP,P_BY_KwhG,P_BY_HKwhZ,P_BY_HKwhJ,P_BY_HKwhF,P_BY_HKwhP,P_BY_HKwhG, P_BY_KvarhZ,P_BY_KvarhJ,P_BY_KvarhF,P_BY_KvarhP,P_BY_KvarhG, P_BY_HKvarhZ,P_BY_HKvarhJ,P_BY_HKvarhF,P_BY_HKvarhP,P_BY_HKvarhG, P_SY_KwhZ,P_SY_KwhJ,P_SY_KwhF,P_SY_KwhP,P_SY_KwhG, P_SY_HKwhZ,P_SY_HKwhJ,P_SY_HKwhF,P_SY_HKwhP,P_SY_HKwhG, P_SY_KvarhZ,P_SY_KvarhJ,P_SY_KvarhF,P_SY_KvarhP,P_SY_KvarhG, P_SY_HKvarhZ,P_SY_HKvarhJ,P_SY_HKvarhF,P_SY_HKvarhP,P_SY_HKvarhG, P_SSY_KwhZ,P_SSY_KwhJ,P_SSY_KwhF,P_SSY_KwhP,P_SSY_KwhG, P_SSY_HKwhZ,P_SSY_HKwhJ,P_SSY_HKwhF,P_SSY_HKwhP,P_SSY_HKwhG, P_SSY_KvarhZ,P_SSY_KvarhJ,P_SSY_KvarhF,P_SSY_KvarhP,P_SSY_KvarhG, P_SSY_HKvarhZ,P_SSY_HKvarhJ,P_SSY_HKvarhF,P_SSY_HKvarhP,P_SSY_HKvarhG,P_CODE,P_TIME,P_ZXYGDN,P_FXYGDN,P_ZXWGDN,P_FXWGDN)values(237.698,238.278,237.752,412.055,412.141,411.621,0,0,0,0,0,0,0,0,0,0,0,0,0,0,240,0,0,0,0.856,50.02087,2463.6,27,1914.6,0,521.4,0,0,0,0,0,751.2,19.2,526.2,0,205.2,0,0,0,0,0,2317.2,31.2,1833.6,0,451.8,0,0,0,0,0,657,16.8,459.6,0,180.6,0,0,0,0,0,2519.4,51.6,1960.8,0,506.4,0,0,0,0,0,974.4,45,634.2,0,294.6,0,0,0,0,6.7851e-41,27,20171126223432,144.635,0,56.093,33.099)
写入成功读取完毕一个
write:1C 03 00 38 00 34 C6 5D
77 77 77
heart:77 77 77 2E 75 73 72 2E 63 6E
write:1C 03 07 CF 00 78 77 2E
write:1C 03 01 0F 00 08 76 7E
77 77 77
heart:77 77 77 2E 75 73 72 2E 63 6E
write:1D 03 00 38 00 34 C7 8C
77 77 77
heart:77 77 77 2E 75 73 72 2E 63 6E
write:1D 03 07 CF 00 78 76 FF
write:1D 03 01 0F 00 08 77 AF
77 77 77
heart:77 77 77 2E 75 73 72 2E 63 6E
write:1E 03 00 38 00 34 C7 BF
77 77 77
heart:77 77 77 2E 75 73 72 2E 63 6E
write:1E 03 07 CF 00 78 76 CC
write:1E 03 01 0F 00 08 77 9C
77 77 77
heart:77 77 77 2E 75 73 72 2E 63 6E
write:1F 03 00 38 00 34 C6 6E
77 77 77
heart:77 77 77 2E 75 73 72 2E 63 6E
write:1F 03 07 CF 00 78 77 1D
write:1F 03 01 0F 00 08 76 4D
77 77 77
heart:77 77 77 2E 75 73 72 2E 63 6E
write:20 03 00 38 00 34 C3 61
77 77 77
heart:77 77 77 2E 75 73 72 2E 63 6E
write:20 03 07 CF 00 78 72 12
write:20 03 01 0F 00 08 73 42
77 77 77
heart:77 77 77 2E 75 73 72 2E 63 6E
write:12 03 00 38 00 34 C7 73
12 03 68
18totalsize 104
43 6D B2 B0 43 6E 5F BE 43 6D CB 02 43 CE 12 0C 43 CE 1D 2F 43 CD CF 7D 43 39 28 F6 43 19 B8 52 43 1E 28 F6 47 1D F8 00 46 F6 90 00 47 05 98 00 47 CF 6C 00 45 F0 00 00 45 8E 80 00 45 61 00 00 46 75 A0 00 47 2C 08 00 47 0E F8 00 47 12 B8 00 47 D1 C4 00 3F 6B 02 0C 3F 5C AC 08 3F 68 F5 C3 3F 7D 2F 1B 42 47 20 FD
write:12 03 07 CF 00 78 76 00
12 03 F0
18totalsize 240
47 94 AE 33 46 3B A6 66 47 0C 8F 33 00 00 00 00 46 DB C6 00 00 00 00 00 00 00 00 00 00 00 00 00 00 00 00 00 00 00 00 00 46 8B 57 33 45 27 A9 9A 46 12 38 CD 00 00 00 00 45 B5 0C CD 00 00 00 00 00 00 00 00 00 00 00 00 00 00 00 00 00 00 00 00 47 A9 B7 80 46 5C 9F 33 47 22 D6 CD 00 00 00 00 46 F2 DF 9A 00 00 00 00 00 00 00 00 00 00 00 00 00 00 00 00 00 00 00 00 46 B2 70 66 45 65 B9 9A 46 3A EB 33 00 00 00 00 45 E1 09 9A 00 00 00 00 00 00 00 00 00 00 00 00 00 00 00 00 00 00 00 00 47 82 8D CD 46 41 63 33 46 D4 77 33 00 00 00 00 46 D5 0E 66 00 00 00 00 00 00 00 00 00 00 00 00 00 00 00 00 00 00 00 00 46 95 B4 66 45 65 46 66 45 FB B3 33 00 00 00 00 45 E8 7B 33 00 00 00 00 00 00 00 00 00 00 00 00 00 00 00 00 00 00 B4 F8
write:12 03 01 0F 00 08 77 50
12 03 10
1800 41 2C DA 00 00 00 00 00 14 05 D5 00 00 A1 1C
43 6D B2 B0
237.698
43 6E 5F BE
238.374
43 6D CB 02
237.793
43 CE 12 0C
412.141
43 CE 1D 2F
412.228
43 CD CF 7D
411.621
43 39 28 F6
185.16
43 19 B8 52
153.72
43 1E 28 F6
158.16
47 1D F8 00
40440
46 F6 90 00
31560
47 05 98 00
34200
47 CF 6C 00
106200
45 F0 00 00
7680
45 8E 80 00
4560
45 61 00 00
3600
46 75 A0 00
15720
47 2C 08 00
44040
47 0E F8 00
36600
47 12 B8 00
37560
47 D1 C4 00
107400
3F 6B 02 0C
0.918
3F 5C AC 08
0.862
3F 68 F5 C3
0.91
3F 7D 2F 1B
0.989
42 47 20 FD
49.782215
47 94 AE 33
76124.4
46 3B A6 66
12009.6
47 0C 8F 33
35983.2
00 00 00 00
0
46 DB C6 00
28131
00 00 00 00
0
00 00 00 00
0
00 00 00 00
0
00 00 00 00
0
00 00 00 00
0
46 8B 57 33
17835.6
45 27 A9 9A
2682.6
46 12 38 CD
9358.2
00 00 00 00
0
45 B5 0C CD
5793.6
00 00 00 00
0
00 00 00 00
0
00 00 00 00
0
00 00 00 00
0
00 00 00 00
0
47 A9 B7 80
86895
46 5C 9F 33
14119.8
47 22 D6 CD
41686.8
00 00 00 00
0
46 F2 DF 9A
31087.8
00 00 00 00
0
00 00 00 00
0
00 00 00 00
0
00 00 00 00
0
00 00 00 00
0
46 B2 70 66
22840.2
45 65 B9 9A
3675.6
46 3A EB 33
11962.8
00 00 00 00
0
45 E1 09 9A
7201.2
00 00 00 00
0
00 00 00 00
0
00 00 00 00
0
00 00 00 00
0
00 00 00 00
0
47 82 8D CD
66843.6
46 41 63 33
12376.8
46 D4 77 33
27195.6
00 00 00 00
0
46 D5 0E 66
27271.2
00 00 00 00
0
00 00 00 00
0
00 00 00 00
0
00 00 00 00
0
00 00 00 00
0
46 95 B4 66
19162.2
45 65 46 66
3668.4
45 FB B3 33
8054.4
00 00 00 00
0
45 E8 7B 33
7439.4
00 00 00 00
0
00 00 00 00
0
00 00 00 00
0
00 00 00 00
0
00 00 B4 F8
6.492e-41
00 41 2C DA
4271322
00 00 00 00
0
00 14 05 D5
1312213
00 00 A1 1C
41244
237.698238.374237.793412.141412.228411.621185.16153.72158.16404403156034200106200768045603600157204404036600375601074000.9180.8620.910.98949.78221576124.412009.635983.20281310000017835.62682.69358.205793.6000008689514119.841686.8031087.80000022840.23675.611962.807201.20000066843.612376.827195.6027271.20000019162.23668.48054.407439.400006.492e-4118201711262240344271.32201312.21341.244insert into tbl_power_info_v2(P_A_DIANYA,P_B_DIANYA,P_C_DIANYA,P_UAB_XIANDIANYA,P_UBC_XIANDIANYA,P_UCA_XIANDIANYA,P_A_DIANLIU,P_B_DIANLIU,P_C_DIANLIU,P_A_YGGL,P_B_YGGL,P_C_YGGL,P_HXYGGL,P_A_WGGL,P_B_WGGL,P_C_WGGL,P_HXWGGL,P_A_SZGL,P_B_SZGL,P_C_SZGL,P_HXSZGL,P_A_GLYS,P_B_GLYS,P_C_GLYS,P_HXGLYS,P_DWPL,P_BY_KwhZ,P_BY_KwhJ,P_BY_KwhF,P_BY_KwhP,P_BY_KwhG,P_BY_HKwhZ,P_BY_HKwhJ,P_BY_HKwhF,P_BY_HKwhP,P_BY_HKwhG, P_BY_KvarhZ,P_BY_KvarhJ,P_BY_KvarhF,P_BY_KvarhP,P_BY_KvarhG, P_BY_HKvarhZ,P_BY_HKvarhJ,P_BY_HKvarhF,P_BY_HKvarhP,P_BY_HKvarhG, P_SY_KwhZ,P_SY_KwhJ,P_SY_KwhF,P_SY_KwhP,P_SY_KwhG, P_SY_HKwhZ,P_SY_HKwhJ,P_SY_HKwhF,P_SY_HKwhP,P_SY_HKwhG, P_SY_KvarhZ,P_SY_KvarhJ,P_SY_KvarhF,P_SY_KvarhP,P_SY_KvarhG, P_SY_HKvarhZ,P_SY_HKvarhJ,P_SY_HKvarhF,P_SY_HKvarhP,P_SY_HKvarhG, P_SSY_KwhZ,P_SSY_KwhJ,P_SSY_KwhF,P_SSY_KwhP,P_SSY_KwhG, P_SSY_HKwhZ,P_SSY_HKwhJ,P_SSY_HKwhF,P_SSY_HKwhP,P_SSY_HKwhG, P_SSY_KvarhZ,P_SSY_KvarhJ,P_SSY_KvarhF,P_SSY_KvarhP,P_SSY_KvarhG, P_SSY_HKvarhZ,P_SSY_HKvarhJ,P_SSY_HKvarhF,P_SSY_HKvarhP,P_SSY_HKvarhG,P_CODE,P_TIME,P_ZXYGDN,P_FXYGDN,P_ZXWGDN,P_FXWGDN)values(237.698,238.374,237.793,412.141,412.228,411.621,185.16,153.72,158.16,40440,31560,34200,106200,7680,4560,3600,15720,44040,36600,37560,107400,0.918,0.862,0.91,0.989,49.782215,76124.4,12009.6,35983.2,0,28131,0,0,0,0,0,17835.6,2682.6,9358.2,0,5793.6,0,0,0,0,0,86895,14119.8,41686.8,0,31087.8,0,0,0,0,0,22840.2,3675.6,11962.8,0,7201.2,0,0,0,0,0,66843.6,12376.8,27195.6,0,27271.2,0,0,0,0,0,19162.2,3668.4,8054.4,0,7439.4,0,0,0,0,6.492e-41,18,20171126224034,4271.322,0,1312.213,41.244)
写入成功读取完毕一个
write:13 03 00 38 00 34 C6 A2
13 03 68
19totalsize 104
43 6D E5 A2 43 6E 30 A4 43 6D 9E B8 43 CE 12 0C 43 CE 07 0A 43 CD CF 7D 00 00 00 00 00 00 00 00 40 0A 3D 71 00 00 00 00 00 00 00 00 43 C8 00 00 43 F0 00 00 43 70 00 00 43 70 00 00 43 70 00 00 44 34 00 00 43 70 00 00 43 70 00 00 43 F0 00 00 44 5C 00 00 3E 2E 14 7B 3D F5 C2 8F 3F 59 58 10 3F 10 62 4E 42 48 12 AC
write:13 03 07 CF 00 78 77 D1
13 03 F0
19totalsize 240
44 A2 D9 9A 42 DC 00 00 44 4A E6 66 00 00 00 00 43 BE 99 9A 00 00 00 00 00 00 00 00 00 00 00 00 00 00 00 00 00 00 00 00 43 0F 33 33 3E CC CC CD 43 00 00 00 00 00 00 00 41 66 66 66 43 DB 33 33 42 99 99 9A 43 2C 00 00 00 00 00 00 43 3C CC CD 44 5A CC CD 42 BC 00 00 43 F7 66 66 00 00 00 00 43 8F 00 00 00 00 00 00 00 00 00 00 00 00 00 00 00 00 00 00 00 00 00 00 40 80 00 00 00 00 00 00 40 4C CC CD 00 00 00 00 3F 4C CC CD 44 1A 99 9A 42 C4 00 00 43 85 66 66 00 00 00 00 43 7D 33 33 44 DC A6 66 42 DB 33 33 44 8E CC CD 00 00 00 00 44 00 4C CD 00 00 00 00 00 00 00 00 00 00 00 00 00 00 00 00 00 00 00 00 42 5E 66 66 3E CC CC CD 42 21 99 9A 00 00 00 00 41 60 00 00 43 FE 00 00 42 B6 66 66 43 3F 99 9A 00 00 00 00 43 60 7D 06
write:13 03 01 0F 00 08 76 81
13 03 10
1900 02 94 8B 00 00 00 00 00 00 35 3F 00 00 DF 08
43 6D E5 A2
237.897
43 6E 30 A4
238.19
43 6D 9E B8
237.62
43 CE 12 0C
412.141
43 CE 07 0A
412.055
43 CD CF 7D
411.621
00 00 00 00
0
00 00 00 00
0
40 0A 3D 71
2.16
00 00 00 00
0
00 00 00 00
0
43 C8 00 00
400
43 F0 00 00
480
43 70 00 00
240
43 70 00 00
240
43 70 00 00
240
44 34 00 00
720
43 70 00 00
240
43 70 00 00
240
43 F0 00 00
480
44 5C 00 00
880
3E 2E 14 7B
0.17
3D F5 C2 8F
0.12
3F 59 58 10
0.849
3F 10 62 4E
0.564
42 48 12 AC
50.018234
44 A2 D9 9A
1302.8
42 DC 00 00
110
44 4A E6 66
811.6
00 00 00 00
0
43 BE 99 9A
381.2
00 00 00 00
0
00 00 00 00
0
00 00 00 00
0
00 00 00 00
0
00 00 00 00
0
43 0F 33 33
143.2
3E CC CC CD
0.4
43 00 00 00
128
00 00 00 00
0
41 66 66 66
14.4
43 DB 33 33
438.4
42 99 99 9A
76.8
43 2C 00 00
172
00 00 00 00
0
43 3C CC CD
188.8
44 5A CC CD
875.2
42 BC 00 00
94
43 F7 66 66
494.8
00 00 00 00
0
43 8F 00 00
286
00 00 00 00
0
00 00 00 00
0
00 00 00 00
0
00 00 00 00
0
00 00 00 00
0
40 80 00 00
4
00 00 00 00
0
40 4C CC CD
3.2
00 00 00 00
0
3F 4C CC CD
0.8
44 1A 99 9A
618.4
42 C4 00 00
98
43 85 66 66
266.8
00 00 00 00
0
43 7D 33 33
253.2
44 DC A6 66
1765.2
42 DB 33 33
109.6
44 8E CC CD
1142.4
00 00 00 00
0
44 00 4C CD
513.2
00 00 00 00
0
00 00 00 00
0
00 00 00 00
0
00 00 00 00
0
00 00 00 00
0
42 5E 66 66
55.6
3E CC CC CD
0.4
42 21 99 9A
40.4
00 00 00 00
0
41 60 00 00
14
43 FE 00 00
508
42 B6 66 66
91.2
43 3F 99 9A
191.6
00 00 00 00
0
43 60 7D 06
224.48837
00 02 94 8B
169099
00 00 00 00
0
00 00 35 3F
13631
00 00 DF 08
57096
237.897238.19237.62412.141412.055411.621002.16004004802402402407202402404808800.170.120.8490.56450.0182341302.8110811.60381.200000143.20.4128014.4438.476.81720188.8875.294494.8028600000403.200.8618.498266.80253.21765.2109.61142.40513.20000055.60.440.401450891.2191.60224.488371920171126224134169.099013.63157.096insert into tbl_power_info_v2(P_A_DIANYA,P_B_DIANYA,P_C_DIANYA,P_UAB_XIANDIANYA,P_UBC_XIANDIANYA,P_UCA_XIANDIANYA,P_A_DIANLIU,P_B_DIANLIU,P_C_DIANLIU,P_A_YGGL,P_B_YGGL,P_C_YGGL,P_HXYGGL,P_A_WGGL,P_B_WGGL,P_C_WGGL,P_HXWGGL,P_A_SZGL,P_B_SZGL,P_C_SZGL,P_HXSZGL,P_A_GLYS,P_B_GLYS,P_C_GLYS,P_HXGLYS,P_DWPL,P_BY_KwhZ,P_BY_KwhJ,P_BY_KwhF,P_BY_KwhP,P_BY_KwhG,P_BY_HKwhZ,P_BY_HKwhJ,P_BY_HKwhF,P_BY_HKwhP,P_BY_HKwhG, P_BY_KvarhZ,P_BY_KvarhJ,P_BY_KvarhF,P_BY_KvarhP,P_BY_KvarhG, P_BY_HKvarhZ,P_BY_HKvarhJ,P_BY_HKvarhF,P_BY_HKvarhP,P_BY_HKvarhG, P_SY_KwhZ,P_SY_KwhJ,P_SY_KwhF,P_SY_KwhP,P_SY_KwhG, P_SY_HKwhZ,P_SY_HKwhJ,P_SY_HKwhF,P_SY_HKwhP,P_SY_HKwhG, P_SY_KvarhZ,P_SY_KvarhJ,P_SY_KvarhF,P_SY_KvarhP,P_SY_KvarhG, P_SY_HKvarhZ,P_SY_HKvarhJ,P_SY_HKvarhF,P_SY_HKvarhP,P_SY_HKvarhG, P_SSY_KwhZ,P_SSY_KwhJ,P_SSY_KwhF,P_SSY_KwhP,P_SSY_KwhG, P_SSY_HKwhZ,P_SSY_HKwhJ,P_SSY_HKwhF,P_SSY_HKwhP,P_SSY_HKwhG, P_SSY_KvarhZ,P_SSY_KvarhJ,P_SSY_KvarhF,P_SSY_KvarhP,P_SSY_KvarhG, P_SSY_HKvarhZ,P_SSY_HKvarhJ,P_SSY_HKvarhF,P_SSY_HKvarhP,P_SSY_HKvarhG,P_CODE,P_TIME,P_ZXYGDN,P_FXYGDN,P_ZXWGDN,P_FXWGDN)values(237.897,238.19,237.62,412.141,412.055,411.621,0,0,2.16,0,0,400,480,240,240,240,720,240,240,480,880,0.17,0.12,0.849,0.564,50.018234,1302.8,110,811.6,0,381.2,0,0,0,0,0,143.2,0.4,128,0,14.4,438.4,76.8,172,0,188.8,875.2,94,494.8,0,286,0,0,0,0,0,4,0,3.2,0,0.8,618.4,98,266.8,0,253.2,1765.2,109.6,1142.4,0,513.2,0,0,0,0,0,55.6,0.4,40.4,0,14,508,91.2,191.6,0,224.48837,19,20171126224134,169.099,0,13.631,57.096)
写入成功读取完毕一个
write:14 03 00 38 00 34 C7 15
14 03 68
20totalsize 104
43 6D FD F4 43 6E 6F 5C 43 6D BA E1 43 CE 3E 77 43 CE 28 31 43 CD F0 C5 41 0E B8 52 40 D8 51 EC 41 11 47 AE 44 A5 00 00 44 70 00 00 44 AA 00 00 45 63 80 00 43 A0 00 00 43 8C 00 00 43 A0 00 00 44 66 00 00 45 04 80 00 44 C8 00 00 45 07 00 00 45 6B 00 00 3F 20 41 89 3F 1A 9F BE 3F 1F 7C EE 3F 78 51 EC 42 47 C2 25
write:14 03 07 CF 00 78 76 66
77 77 77
heart:77 77 77 2E 75 73 72 2E 63 6E
write:14 03 01 0F 00 08 77 36
14 03 F0
20totalsize 240
44 A8 93 33 43 D3 CC CD 43 9C 66 66 00 00 00 00 44 18 F3 33 00 00 00 00 00 00 00 00 00 00 00 00 00 00 00 00 00 00 00 00 40 0C CC CD 00 00 00 00 40 0C CC CD 00 00 00 00 00 00 00 00 43 9C 4C CD 42 CA 00 00 42 87 99 9A 00 00 00 00 43 0F 99 9A 44 AC 73 33 43 E0 33 33 43 9A 66 66 00 00 00 00 44 1B 8C CD 00 00 00 00 00 00 00 00 00 00 00 00 00 00 00 00 00 00 00 00 40 99 99 9A 00 00 00 00 40 93 33 33 00 00 00 00 00 00 00 00 43 9B 80 00 42 D2 66 66 42 76 66 66 00 00 00 00 43 10 00 00 44 A4 D9 9A 43 ED 99 9A 43 78 66 66 00 00 00 00 44 14 C0 00 00 00 00 00 00 00 00 00 00 00 00 00 00 00 00 00 00 00 00 00 3F 4C CC CD 00 00 00 00 3F 4C CC CD 00 00 00 00 00 00 00 00 43 8C 66 66 42 D1 33 33 42 3B 33 33 00 00 00 00 43 01 F5 05
14 03 10
2000 04 21 0C 00 00 00 00 00 00 13 51 00 00 F4 AB
43 6D FD F4
237.992
43 6E 6F 5C
238.435
43 6D BA E1
237.73
43 CE 3E 77
412.488
43 CE 28 31
412.314
43 CD F0 C5
411.881
41 0E B8 52
8.92
40 D8 51 EC
6.76
41 11 47 AE
9.08
44 A5 00 00
1320
44 70 00 00
960
44 AA 00 00
1360
45 63 80 00
3640
43 A0 00 00
320
43 8C 00 00
280
43 A0 00 00
320
44 66 00 00
920
45 04 80 00
2120
44 C8 00 00
1600
45 07 00 00
2160
45 6B 00 00
3760
3F 20 41 89
0.626
3F 1A 9F BE
0.604
3F 1F 7C EE
0.623
3F 78 51 EC
0.97
42 47 C2 25
49.939594
44 A8 93 33
1348.6
43 D3 CC CD
423.6
43 9C 66 66
312.8
00 00 00 00
0
44 18 F3 33
611.8
00 00 00 00
0
00 00 00 00
0
00 00 00 00
0
00 00 00 00
0
00 00 00 00
0
40 0C CC CD
2.2
00 00 00 00
0
40 0C CC CD
2.2
00 00 00 00
0
00 00 00 00
0
43 9C 4C CD
312.6
42 CA 00 00
101
42 87 99 9A
67.8
00 00 00 00
0
43 0F 99 9A
143.6
44 AC 73 33
1379.6
43 E0 33 33
448.4
43 9A 66 66
308.8
00 00 00 00
0
44 1B 8C CD
622.2
00 00 00 00
0
00 00 00 00
0
00 00 00 00
0
00 00 00 00
0
00 00 00 00
0
40 99 99 9A
4.8
00 00 00 00
0
40 93 33 33
4.6
00 00 00 00
0
00 00 00 00
0
43 9B 80 00
311
42 D2 66 66
105.2
42 76 66 66
61.6
00 00 00 00
0
43 10 00 00
144
44 A4 D9 9A
1318.8
43 ED 99 9A
475.2
43 78 66 66
248.4
00 00 00 00
0
44 14 C0 00
595
00 00 00 00
0
00 00 00 00
0
00 00 00 00
0
00 00 00 00
0
00 00 00 00
0
3F 4C CC CD
0.8
00 00 00 00
0
3F 4C CC CD
0.8
00 00 00 00
0
00 00 00 00
0
43 8C 66 66
280.8
42 D1 33 33
104.6
42 3B 33 33
46.8
00 00 00 00
0
43 01 F5 05
129.9571
00 04 21 0C
270604
00 00 00 00
0
00 00 13 51
4945
00 00 F4 AB
62635
237.992238.435237.73412.488412.314411.8818.926.769.0813209601360364032028032092021201600216037600.6260.6040.6230.9749.9395941348.6423.6312.80611.8000002.202.200312.610167.80143.61379.6448.4308.80622.2000004.804.600311105.261.601441318.8475.2248.40595000000.800.800280.8104.646.80129.95712020171126224241270.60404.94562.635insert into tbl_power_info_v2(P_A_DIANYA,P_B_DIANYA,P_C_DIANYA,P_UAB_XIANDIANYA,P_UBC_XIANDIANYA,P_UCA_XIANDIANYA,P_A_DIANLIU,P_B_DIANLIU,P_C_DIANLIU,P_A_YGGL,P_B_YGGL,P_C_YGGL,P_HXYGGL,P_A_WGGL,P_B_WGGL,P_C_WGGL,P_HXWGGL,P_A_SZGL,P_B_SZGL,P_C_SZGL,P_HXSZGL,P_A_GLYS,P_B_GLYS,P_C_GLYS,P_HXGLYS,P_DWPL,P_BY_KwhZ,P_BY_KwhJ,P_BY_KwhF,P_BY_KwhP,P_BY_KwhG,P_BY_HKwhZ,P_BY_HKwhJ,P_BY_HKwhF,P_BY_HKwhP,P_BY_HKwhG, P_BY_KvarhZ,P_BY_KvarhJ,P_BY_KvarhF,P_BY_KvarhP,P_BY_KvarhG, P_BY_HKvarhZ,P_BY_HKvarhJ,P_BY_HKvarhF,P_BY_HKvarhP,P_BY_HKvarhG, P_SY_KwhZ,P_SY_KwhJ,P_SY_KwhF,P_SY_KwhP,P_SY_KwhG, P_SY_HKwhZ,P_SY_HKwhJ,P_SY_HKwhF,P_SY_HKwhP,P_SY_HKwhG, P_SY_KvarhZ,P_SY_KvarhJ,P_SY_KvarhF,P_SY_KvarhP,P_SY_KvarhG, P_SY_HKvarhZ,P_SY_HKvarhJ,P_SY_HKvarhF,P_SY_HKvarhP,P_SY_HKvarhG, P_SSY_KwhZ,P_SSY_KwhJ,P_SSY_KwhF,P_SSY_KwhP,P_SSY_KwhG, P_SSY_HKwhZ,P_SSY_HKwhJ,P_SSY_HKwhF,P_SSY_HKwhP,P_SSY_HKwhG, P_SSY_KvarhZ,P_SSY_KvarhJ,P_SSY_KvarhF,P_SSY_KvarhP,P_SSY_KvarhG, P_SSY_HKvarhZ,P_SSY_HKvarhJ,P_SSY_HKvarhF,P_SSY_HKvarhP,P_SSY_HKvarhG,P_CODE,P_TIME,P_ZXYGDN,P_FXYGDN,P_ZXWGDN,P_FXWGDN)values(237.992,238.435,237.73,412.488,412.314,411.881,8.92,6.76,9.08,1320,960,1360,3640,320,280,320,920,2120,1600,2160,3760,0.626,0.604,0.623,0.97,49.939594,1348.6,423.6,312.8,0,611.8,0,0,0,0,0,2.2,0,2.2,0,0,312.6,101,67.8,0,143.6,1379.6,448.4,308.8,0,622.2,0,0,0,0,0,4.8,0,4.6,0,0,311,105.2,61.6,0,144,1318.8,475.2,248.4,0,595,0,0,0,0,0,0.8,0,0.8,0,0,280.8,104.6,46.8,0,129.9571,20,20171126224241,270.604,0,4.945,62.635)
写入成功读取完毕一个
write:15 03 00 38 00 34 C6 C4
77 77 77
heart:77 77 77 2E 75 73 72 2E 63 6E
write:15 03 07 CF 00 78 77 B7
15 03 68
21totalsize 104
43 6D C0 00 43 6E 45 1F 43 6D 62 4E 43 CE 12 0C 43 CD E5 C3 43 CD AE 56 00 00 00 00 00 00 00 00 00 00 00 00 00 00 00 00 00 00 00 00 00 00 00 00 00 00 00 00 00 00 00 00 00 00 00 00 00 00 00 00 00 00 00 00 00 00 00 00 00 00 00 00 00 00 00 00 00 00 00 00 00 00 00 00 00 00 00 00 00 00 00 00 00 00 00 00 42 48 96 43
15 03 F0
21totalsize 240
40 CC CC CD 00 00 00 00 40 A6 66 66 00 00 00 00 3F 99 99 9A 00 00 00 00 00 00 00 00 00 00 00 00 00 00 00 00 00 00 00 00 3E CC CC CD 00 00 00 00 3E CC CC CD 00 00 00 00 00 00 00 00 00 00 00 00 00 00 00 00 00 00 00 00 00 00 00 00 00 00 00 00 40 8C CC CD 00 00 00 00 40 66 66 66 00 00 00 00 3F 4C CC CD 00 00 00 00 00 00 00 00 00 00 00 00 00 00 00 00 00 00 00 00 00 00 00 00 00 00 00 00 00 00 00 00 00 00 00 00 00 00 00 00 00 00 00 00 00 00 00 00 00 00 00 00 00 00 00 00 00 00 00 00 42 1E 66 66 00 00 00 00 41 F3 33 33 00 00 00 00 41 13 33 33 00 00 00 00 00 00 00 00 00 00 00 00 00 00 00 00 00 00 00 00 42 D8 00 00 00 00 00 00 42 A3 33 33 00 00 00 00 41 D0 00 00 00 00 00 00 00 00 00 00 00 00 00 00 00 00 00 00 00 00 7F 8C
write:15 03 01 0F 00 08 76 E7
15 03 10
2100 00 18 95 00 00 00 00 00 00 1D 3D 00 00 8A E4
43 6D C0 00
237.75
43 6E 45 1F
238.27
43 6D 62 4E
237.384
43 CE 12 0C
412.141
43 CD E5 C3
411.795
43 CD AE 56
411.362
00 00 00 00
0
00 00 00 00
0
00 00 00 00
0
00 00 00 00
0
00 00 00 00
0
00 00 00 00
0
00 00 00 00
0
00 00 00 00
0
00 00 00 00
0
00 00 00 00
0
00 00 00 00
0
00 00 00 00
0
00 00 00 00
0
00 00 00 00
0
00 00 00 00
0
00 00 00 00
0
00 00 00 00
0
00 00 00 00
0
00 00 00 00
0
42 48 96 43
50.14674
40 CC CC CD
6.4
00 00 00 00
0
40 A6 66 66
5.2
00 00 00 00
0
3F 99 99 9A
1.2
00 00 00 00
0
00 00 00 00
0
00 00 00 00
0
00 00 00 00
0
00 00 00 00
0
3E CC CC CD
0.4
00 00 00 00
0
3E CC CC CD
0.4
00 00 00 00
0
00 00 00 00
0
00 00 00 00
0
00 00 00 00
0
00 00 00 00
0
00 00 00 00
0
00 00 00 00
0
40 8C CC CD
4.4
00 00 00 00
0
40 66 66 66
3.6
00 00 00 00
0
3F 4C CC CD
0.8
00 00 00 00
0
00 00 00 00
0
00 00 00 00
0
00 00 00 00
0
00 00 00 00
0
00 00 00 00
0
00 00 00 00
0
00 00 00 00
0
00 00 00 00
0
00 00 00 00
0
00 00 00 00
0
00 00 00 00
0
00 00 00 00
0
00 00 00 00
0
00 00 00 00
0
42 1E 66 66
39.6
00 00 00 00
0
41 F3 33 33
30.4
00 00 00 00
0
41 13 33 33
9.2
00 00 00 00
0
00 00 00 00
0
00 00 00 00
0
00 00 00 00
0
00 00 00 00
0
42 D8 00 00
108
00 00 00 00
0
42 A3 33 33
81.6
00 00 00 00
0
41 D0 00 00
26
00 00 00 00
0
00 00 00 00
0
00 00 00 00
0
00 00 00 00
0
00 00 7F 8C
4.5755e-41
00 00 18 95
6293
00 00 00 00
0
00 00 1D 3D
7485
00 00 8A E4
35556
237.75238.27237.384412.141411.795411.362000000000000000000050.146746.405.201.2000000.400.400000004.403.600.800000000000000039.6030.409.200000108081.602600004.5755e-4121201711262243426.29307.48535.556insert into tbl_power_info_v2(P_A_DIANYA,P_B_DIANYA,P_C_DIANYA,P_UAB_XIANDIANYA,P_UBC_XIANDIANYA,P_UCA_XIANDIANYA,P_A_DIANLIU,P_B_DIANLIU,P_C_DIANLIU,P_A_YGGL,P_B_YGGL,P_C_YGGL,P_HXYGGL,P_A_WGGL,P_B_WGGL,P_C_WGGL,P_HXWGGL,P_A_SZGL,P_B_SZGL,P_C_SZGL,P_HXSZGL,P_A_GLYS,P_B_GLYS,P_C_GLYS,P_HXGLYS,P_DWPL,P_BY_KwhZ,P_BY_KwhJ,P_BY_KwhF,P_BY_KwhP,P_BY_KwhG,P_BY_HKwhZ,P_BY_HKwhJ,P_BY_HKwhF,P_BY_HKwhP,P_BY_HKwhG, P_BY_KvarhZ,P_BY_KvarhJ,P_BY_KvarhF,P_BY_KvarhP,P_BY_KvarhG, P_BY_HKvarhZ,P_BY_HKvarhJ,P_BY_HKvarhF,P_BY_HKvarhP,P_BY_HKvarhG, P_SY_KwhZ,P_SY_KwhJ,P_SY_KwhF,P_SY_KwhP,P_SY_KwhG, P_SY_HKwhZ,P_SY_HKwhJ,P_SY_HKwhF,P_SY_HKwhP,P_SY_HKwhG, P_SY_KvarhZ,P_SY_KvarhJ,P_SY_KvarhF,P_SY_KvarhP,P_SY_KvarhG, P_SY_HKvarhZ,P_SY_HKvarhJ,P_SY_HKvarhF,P_SY_HKvarhP,P_SY_HKvarhG, P_SSY_KwhZ,P_SSY_KwhJ,P_SSY_KwhF,P_SSY_KwhP,P_SSY_KwhG, P_SSY_HKwhZ,P_SSY_HKwhJ,P_SSY_HKwhF,P_SSY_HKwhP,P_SSY_HKwhG, P_SSY_KvarhZ,P_SSY_KvarhJ,P_SSY_KvarhF,P_SSY_KvarhP,P_SSY_KvarhG, P_SSY_HKvarhZ,P_SSY_HKvarhJ,P_SSY_HKvarhF,P_SSY_HKvarhP,P_SSY_HKvarhG,P_CODE,P_TIME,P_ZXYGDN,P_FXYGDN,P_ZXWGDN,P_FXWGDN)values(237.75,238.27,237.384,412.141,411.795,411.362,0,0,0,0,0,0,0,0,0,0,0,0,0,0,0,0,0,0,0,50.14674,6.4,0,5.2,0,1.2,0,0,0,0,0,0.4,0,0.4,0,0,0,0,0,0,0,4.4,0,3.6,0,0.8,0,0,0,0,0,0,0,0,0,0,0,0,0,0,0,39.6,0,30.4,0,9.2,0,0,0,0,0,108,0,81.6,0,26,0,0,0,0,4.5755e-41,21,20171126224342,6.293,0,7.485,35.556)
写入成功读取完毕一个
write:16 03 00 38 00 34 C6 F7
write:16 03 07 CF 00 78 77 84
77 77 77
heart:77 77 77 2E 75 73 72 2E 63 6E
write:16 03 01 0F 00 08 76 D4
write:17 03 00 38 00 34 C7 26
write:17 03 07 CF 00 78 76 55
write:17 03 01 0F 00 08 77 05
write:18 03 00 38 00 34 C7 D9
write:18 03 07 CF 00 78 76 AA
write:18 03 01 0F 00 08 77 FA
write:19 03 00 38 00 34 C6 08
write:19 03 07 CF 00 78 77 7B
write:19 03 01 0F 00 08 76 2B
write:1A 03 00 38 00 34 C6 3B
77 77 77
heart:77 77 77 2E 75 73 72 2E 63 6E
write:1A 03 07 CF 00 78 77 48
received messag ?->? 
 124.160.217.235:51668 172.16.246.153:6002
write:12 03 00 38 00 34 C7 73
77 77 77
heart:77 77 77 2E 75 73 72 2E 63 6E
77 77 77
heart:77 77 77 2E 75 73 72 2E 63 6E
FB F1 ED
heart:FB F1 ED FF 89 E7 FF FF FF E8 FF FF 6E FE FD FC FF FA CF FF 53 EE FF FF 7B FF FF 45 86 66 66 3F 99 99 9A 40 17 0A 3D 44 66 00 00 62 FF FB C5 46 02 00 00 44 C3 00 00 42 A0 00 00 42 A0 00 00 00 00 00 00 00 00 00 00 44 7A 00 00 43 8C 00 00 44 0C 00 00 44 C3 00 00 3F 69 BA 5E 3E F4 39 58 3F 73 B6 46 3F 80 00 00 42 47 C6 0F
write:1A 03 01 0F 00 08 76 18
write:12 03 07 CF 00 78 76 00
1A 03 10
2600 02 88 E2 00 00 00 00 00 00 3D F8 00 00 B2 7A
12 03 F0
18totalsize 240
47 94 B6 4D 46 3B E7 33 47 0C 8F 33 00 00 00 00 46 DB C6 00 00 00 00 00 00 00 00 00 00 00 00 00 00 00 00 00 00 00 00 00 46 8B 5C 00 45 27 D9 9A 46 12 38 CD 00 00 00 00 45 B5 0C CD 00 00 00 00 00 00 00 00 00 00 00 00 00 00 00 00 00 00 00 00 47 A9 B7 80 46 5C 9F 33 47 22 D6 CD 00 00 00 00 46 F2 DF 9A 00 00 00 00 00 00 00 00 00 00 00 00 00 00 00 00 00 00 00 00 46 B2 70 66 45 65 B9 9A 46 3A EB 33 00 00 00 00 45 E1 09 9A 00 00 00 00 00 00 00 00 00 00 00 00 00 00 00 00 00 00 00 00 47 82 8D CD 46 41 63 33 46 D4 77 33 00 00 00 00 46 D5 0E 66 00 00 00 00 00 00 00 00 00 00 00 00 00 00 00 00 00 00 00 00 46 95 B4 66 45 65 46 66 45 FB B3 33 00 00 00 00 45 E8 7B 33 00 00 00 00 00 00 00 00 00 00 00 00 00 00 00 00 00 00 2D 2F
write:1B 03 00 38 00 34 C7 EA
write:12 03 01 0F 00 08 77 50
1B 03 68
27write:1B 03 07 CF 00 78 76 99
write:13 03 00 38 00 34 C6 A2
write:1B 03 01 0F 00 08 77 C9
write:13 03 07 CF 00 78 77 D1
write:1C 03 00 38 00 34 C6 5D
write:13 03 01 0F 00 08 76 81
write:1C 03 07 CF 00 78 77 2E
write:14 03 00 38 00 34 C7 15
write:1C 03 01 0F 00 08 76 7E
write:14 03 07 CF 00 78 76 66
write:1D 03 00 38 00 34 C7 8C
write:14 03 01 0F 00 08 77 36
write:1D 03 07 CF 00 78 76 FF
write:15 03 00 38 00 34 C6 C4
write:1D 03 01 0F 00 08 77 AF
write:15 03 07 CF 00 78 77 B7
totalsize 113
43 6D E4 19 43 6E 6C 8B 43 6D C2 8F 43 CE 33 D7 FF 6C 31 43 CD E5 C3 00 00 00 00 00 00 00 00 00 00 00 00 00 00 00 00 00 00 00 00 00 00 00 00 00 00 00 00 00 00 00 00 00 00 00 00 00 00 00 00 00 00 00 00 00 00 00 00 00 00 00 00 00 00 00 00 43 70 00 00 00 00 00 00 00 00 00 00 00 00 00 00 3F 5B E7 6D 42 48 74 CB 77 77 77 2E 75 73 72 2E 63 6E
received messag ?->? 
 124.160.217.235:51670 172.16.246.153:6002
write:12 03 00 38 00 34 C7 73
77 77 77
heart:77 77 77 2E 75 73 72 2E 63 6E
13 03 68
19totalsize 104
43 6E 41 06 43 6E D6 04 43 6E 14 7B 43 CE 8C 08 43 CE 75 E3 43 F7 7F 3F F3 80 00 00 00 00 00 00 40 0A 3D 71 00 00 00 00 00 00 00 00 43 C8 00 00 43 F0 00 00 43 70 00 00 43 70 00 00 43 70 00 00 44 34 00 00 43 70 00 00 43 70 00 00 43 F0 00 00 44 5C 00 00 3E 28 F5 C3 3D F7 CE D9 3F 59 58 10 3F 10 20 C5 42 48 26 DB
FB F1 ED
heart:FB F1 ED FF E2 FD FF FF D1 B3 FF FF FF EF FD FE ED 57 CE 75 E3 43 CE 5F 9E 43 CE 1D 2F 41 0F 5C 29 40 D9 99 9A 41 11 EB 85 44 A5 00 00 44 70 00 00 44 AA 00 00 45 66 00 00 43 A0 00 00 43 8C 00 00 43 8C 00 00 44 5C 00 00 45 04 80 00 44 CD 00 00 45 13 07 00 00 45 6B 00 00 3F 20 83 12 3F 1A 1C AC 3F 1F 3B 64 3F 78 93 75 42 48 FB 09 FB FF EF F7 94 DC 7E FF FF 3B FD FF F3 A0 7E FF DF 9C F9 F1 E9 12 03 68 00 00 43 6E 04 9C 43 6E 96 46 43 6D D5 C3 43 CE 54 9C 43 CE 3E 77 43 CE 06 E9 43 31 B8 52 43 36 47 AE 43 31 3D 71 47 19 C0 00 47 09 D0 00 47 12 B8 00 47 DB 24 00 45 EC 40 00 45 8E 80 00 45 87 00 00 46 80 70 00 47 28 C0 00 47 1B A0 00 47 1E E8 00 47 DD 7C 00 3F 69 BA 5E 3F 63 12 6F 3F 6C 08 31 3F 7D 2F 1B 42 48 E3 45
write:1E 03 00 38 00 34 C7 BF
write:15 03 01 0F 00 08 76 E7
write:12 03 07 CF 00 78 76 00
write:1E 03 07 CF 00 78 76 CC
write:16 03 00 38 00 34 C6 F7
77 77 77
heart:77 77 77 2E 75 73 72 2E 63 6E
write:12 03 01 0F 00 08 77 50
12 03 F0
18totalsize 240
47 94 B9 E6 46 3C 01 9A 47 0C 8F 33 00 00 00 00 46 DB C6 00 00 00 00 00 00 00 00 00 00 00 00 00 00 00 00 00 00 00 00 00 46 8B 5E 66 45 27 E3 33 46 12 38 CD 00 00 00 00 45 B5 0C CD 00 00 00 00 00 00 00 00 00 00 00 00 00 00 00 00 00 00 00 00 47 A9 B7 80 46 FF BF FF 57 22 D6 CD 00 00 00 00 46 F2 DF 9A 00 00 00 00 00 00 00 00 00 00 00 00 00 00 00 00 00 00 00 00 46 B2 70 66 45 65 B9 9A 46 3A EB 33 00 00 00 00 45 E1 09 9A 00 00 00 00 00 00 00 00 00 00 00 00 00 00 00 00 00 00 00 00 47 82 8D CD 46 41 63 33 46 D4 77 33 00 00 00 00 46 D5 0E 66 00 00 00 00 00 00 00 00 00 00 00 00 00 00 00 00 00 00 00 00 46 95 B4 66 45 65 46 66 45 FB B3 33 00 00 00 00 45 E8 7B 33 00 00 00 00 00 00 00 00 00 00 00 00 00 00 00 00 00 00 D6 2E
12 03 10
1800 41 2D 95 00 00 00 00 00 14 05 F2 00 00 89 01
write:1E 03 01 0F 00 08 77 9C
write:16 03 07 CF 00 78 77 84
write:13 03 00 38 00 34 C6 A2
13 03 68
19totalsize 104
43 6E 59 DB 43 6E EE 14 43 6E 5B 64 43 CE A2 2D 43 CE A2 2D 43 CE 5F 9E 00 00 00 00 3F 99 99 9A 40 0A 3D 71 00 00 00 00 00 00 00 00 43 C8 00 00 43 F0 00 00 43 70 00 00 43 70 00 00 43 70 00 00 44 34 00 00 43 70 00 00 43 70 00 00 43 F0 00 00 44 5C 00 00 3E 2C 08 31 3D E5 60 42 3F 59 16 87 3F 0F DF 3B 42 48 EB 32
write:1F 03 00 38 00 34 C6 6E
write:16 03 01 0F 00 08 76 D4
write:13 03 07 CF 00 78 77 D1
13 03 F0
19totalsize 240
44 A2 E6 66 42 DC 00 00 44 4A E6 66 00 00 00 00 43 BE 99 9A 00 00 00 00 00 00 00 00 00 00 00 00 00 00 00 00 00 00 00 00 43 0F 33 33 3E CC CC CD 43 00 00 00 00 00 00 00 41 66 66 66 43 DB 33 33 42 99 99 9A 43 2C 00 00 00 00 00 00 43 3C CC CD 44 5A CC CD 42 BC 00 00 43 F7 66 66 00 00 00 00 43 8F 00 00 00 00 00 00 00 00 00 00 00 00 00 00 00 00 00 00 00 00 00 00 40 80 00 00 00 00 00 00 40 4C CC CD 00 00 00 00 3F 4C CC CD 44 1A 99 9A 42 C4 00 00 43 85 66 66 00 00 00 00 43 7D 33 33 44 DC A6 66 42 DB 33 33 44 8E CC CD 00 00 00 00 44 00 4C CD 00 00 00 00 00 00 00 00 00 00 00 00 00 00 00 00 00 00 00 00 42 5E 66 66 3E CC CC CD 42 21 99 9A 00 00 00 00 41 60 00 00 43 FE 00 00 42 B6 66 66 43 3F 99 9A 00 00 00 00 43 60 20 FE
write:1F 03 07 CF 00 78 77 1D
write:17 03 00 38 00 34 C7 26
17 03 68
23totalsize 104
43 6E 68 73 43 6E FA A0 43 6E 51 AA 43 CE AD 50 F1 FE FF 7D E8 CE 6A C1 00 00 00 00 3F F5 C2 8F 00 00 00 00 00 00 00 00 43 C8 00 00 00 00 00 00 43 DC 00 00 00 00 00 00 42 A0 00 00 00 00 00 00 42 F0 00 00 42 F0 00 00 43 F0 00 00 00 00 00 00 43 F0 00 00 3E D2 F1 AA 3F 5B E7 6D 00 00 00 00 3F 76 45 A2 42 48 F0 C5
write:13 03 01 0F 00 08 76 81
13 03 10
1900 02 94 8C 00 00 00 00 00 00 35 3F 00 00 C5 7C
43 6E 59 DB
238.351
43 6E EE 14
238.93
43 6E 5B 64
238.357
43 CE A2 2D
413.267
43 CE A2 2D
413.267
43 CE 5F 9E
412.747
00 00 00 00
0
3F 99 99 9A
1.2
40 0A 3D 71
2.16
00 00 00 00
0
00 00 00 00
0
43 C8 00 00
400
43 F0 00 00
480
43 70 00 00
240
43 70 00 00
240
43 70 00 00
240
44 34 00 00
720
43 70 00 00
240
43 70 00 00
240
43 F0 00 00
480
44 5C 00 00
880
3E 2C 08 31
0.168
3D E5 60 42
0.112
3F 59 16 87
0.848
3F 0F DF 3B
0.562
42 48 EB 32
50.229683
44 A2 E6 66
1303.2
42 DC 00 00
110
44 4A E6 66
811.6
00 00 00 00
0
43 BE 99 9A
381.2
00 00 00 00
0
00 00 00 00
0
00 00 00 00
0
00 00 00 00
0
00 00 00 00
0
43 0F 33 33
143.2
3E CC CC CD
0.4
43 00 00 00
128
00 00 00 00
0
41 66 66 66
14.4
43 DB 33 33
438.4
42 99 99 9A
76.8
43 2C 00 00
172
00 00 00 00
0
43 3C CC CD
188.8
44 5A CC CD
875.2
42 BC 00 00
94
43 F7 66 66
494.8
00 00 00 00
0
43 8F 00 00
286
00 00 00 00
0
00 00 00 00
0
00 00 00 00
0
00 00 00 00
0
00 00 00 00
0
40 80 00 00
4
00 00 00 00
0
40 4C CC CD
3.2
00 00 00 00
0
3F 4C CC CD
0.8
44 1A 99 9A
618.4
42 C4 00 00
98
43 85 66 66
266.8
00 00 00 00
0
43 7D 33 33
253.2
44 DC A6 66
1765.2
42 DB 33 33
109.6
44 8E CC CD
1142.4
00 00 00 00
0
44 00 4C CD
513.2
00 00 00 00
0
00 00 00 00
0
00 00 00 00
0
00 00 00 00
0
00 00 00 00
0
42 5E 66 66
55.6
3E CC CC CD
0.4
42 21 99 9A
40.4
00 00 00 00
0
41 60 00 00
14
43 FE 00 00
508
42 B6 66 66
91.2
43 3F 99 9A
191.6
00 00 00 00
0
43 60 20 FE
224.12888
00 02 94 8C
169100
00 00 00 00
0
00 00 35 3F
13631
00 00 C5 7C
50556
238.351238.93238.357413.267413.267412.74701.22.16004004802402402407202402404808800.1680.1120.8480.56250.2296831303.2110811.60381.200000143.20.4128014.4438.476.81720188.8875.294494.8028600000403.200.8618.498266.80253.21765.2109.61142.40513.20000055.60.440.401450891.2191.60224.128881920171126225321169.1013.63150.556insert into tbl_power_info_v2(P_A_DIANYA,P_B_DIANYA,P_C_DIANYA,P_UAB_XIANDIANYA,P_UBC_XIANDIANYA,P_UCA_XIANDIANYA,P_A_DIANLIU,P_B_DIANLIU,P_C_DIANLIU,P_A_YGGL,P_B_YGGL,P_C_YGGL,P_HXYGGL,P_A_WGGL,P_B_WGGL,P_C_WGGL,P_HXWGGL,P_A_SZGL,P_B_SZGL,P_C_SZGL,P_HXSZGL,P_A_GLYS,P_B_GLYS,P_C_GLYS,P_HXGLYS,P_DWPL,P_BY_KwhZ,P_BY_KwhJ,P_BY_KwhF,P_BY_KwhP,P_BY_KwhG,P_BY_HKwhZ,P_BY_HKwhJ,P_BY_HKwhF,P_BY_HKwhP,P_BY_HKwhG, P_BY_KvarhZ,P_BY_KvarhJ,P_BY_KvarhF,P_BY_KvarhP,P_BY_KvarhG, P_BY_HKvarhZ,P_BY_HKvarhJ,P_BY_HKvarhF,P_BY_HKvarhP,P_BY_HKvarhG, P_SY_KwhZ,P_SY_KwhJ,P_SY_KwhF,P_SY_KwhP,P_SY_KwhG, P_SY_HKwhZ,P_SY_HKwhJ,P_SY_HKwhF,P_SY_HKwhP,P_SY_HKwhG, P_SY_KvarhZ,P_SY_KvarhJ,P_SY_KvarhF,P_SY_KvarhP,P_SY_KvarhG, P_SY_HKvarhZ,P_SY_HKvarhJ,P_SY_HKvarhF,P_SY_HKvarhP,P_SY_HKvarhG, P_SSY_KwhZ,P_SSY_KwhJ,P_SSY_KwhF,P_SSY_KwhP,P_SSY_KwhG, P_SSY_HKwhZ,P_SSY_HKwhJ,P_SSY_HKwhF,P_SSY_HKwhP,P_SSY_HKwhG, P_SSY_KvarhZ,P_SSY_KvarhJ,P_SSY_KvarhF,P_SSY_KvarhP,P_SSY_KvarhG, P_SSY_HKvarhZ,P_SSY_HKvarhJ,P_SSY_HKvarhF,P_SSY_HKvarhP,P_SSY_HKvarhG,P_CODE,P_TIME,P_ZXYGDN,P_FXYGDN,P_ZXWGDN,P_FXWGDN)values(238.351,238.93,238.357,413.267,413.267,412.747,0,1.2,2.16,0,0,400,480,240,240,240,720,240,240,480,880,0.168,0.112,0.848,0.562,50.229683,1303.2,110,811.6,0,381.2,0,0,0,0,0,143.2,0.4,128,0,14.4,438.4,76.8,172,0,188.8,875.2,94,494.8,0,286,0,0,0,0,0,4,0,3.2,0,0.8,618.4,98,266.8,0,253.2,1765.2,109.6,1142.4,0,513.2,0,0,0,0,0,55.6,0.4,40.4,0,14,508,91.2,191.6,0,224.12888,19,20171126225321,169.1,0,13.631,50.556)
写入成功读取完毕一个
write:1F 03 01 0F 00 08 76 4D
write:17 03 07 CF 00 78 76 55
write:14 03 00 38 00 34 C7 15
write:20 03 00 38 00 34 C3 61
write:17 03 01 0F 00 08 77 05
write:14 03 07 CF 00 78 76 66
write:20 03 07 CF 00 78 72 12
write:18 03 00 38 00 34 C7 D9
write:14 03 01 0F 00 08 77 36
write:20 03 01 0F 00 08 73 42
write:18 03 07 CF 00 78 76 AA
write:15 03 00 38 00 34 C6 C4
write:18 03 01 0F 00 08 77 FA
write:12 03 00 38 00 34 C7 73
write:15 03 07 CF 00 78 77 B7
write:19 03 00 38 00 34 C6 08
write:12 03 07 CF 00 78 76 00
write:15 03 01 0F 00 08 76 E7
write:19 03 07 CF 00 78 77 7B
write:12 03 01 0F 00 08 77 50
write:16 03 00 38 00 34 C6 F7
write:19 03 01 0F 00 08 76 2B
write:13 03 00 38 00 34 C6 A2
write:16 03 07 CF 00 78 77 84
write:1A 03 00 38 00 34 C6 3B
write:13 03 07 CF 00 78 77 D1
write:16 03 01 0F 00 08 76 D4
write:1A 03 07 CF 00 78 77 48
write:13 03 01 0F 00 08 76 81
write:17 03 00 38 00 34 C7 26
write:1A 03 01 0F 00 08 76 18
write:14 03 00 38 00 34 C7 15
write:17 03 07 CF 00 78 76 55
write:1B 03 00 38 00 34 C7 EA
write:14 03 07 CF 00 78 76 66
write:17 03 01 0F 00 08 77 05
write:1B 03 07 CF 00 78 76 99
write:14 03 01 0F 00 08 77 36
write:18 03 00 38 00 34 C7 D9
write:1B 03 01 0F 00 08 77 C9
write:15 03 00 38 00 34 C6 C4
write:18 03 07 CF 00 78 76 AA
write:1C 03 00 38 00 34 C6 5D
write:15 03 07 CF 00 78 77 B7
write:18 03 01 0F 00 08 77 FA
write:1C 03 07 CF 00 78 77 2E
write:15 03 01 0F 00 08 76 E7
write:19 03 00 38 00 34 C6 08
write:1C 03 01 0F 00 08 76 7E
write:16 03 00 38 00 34 C6 F7
write:19 03 07 CF 00 78 77 7B
write:1D 03 00 38 00 34 C7 8C
write:16 03 07 CF 00 78 77 84
write:19 03 01 0F 00 08 76 2B
write:1D 03 07 CF 00 78 76 FF
write:16 03 01 0F 00 08 76 D4
write:1A 03 00 38 00 34 C6 3B
write:1D 03 01 0F 00 08 77 AF
write:17 03 00 38 00 34 C7 26
write:1A 03 07 CF 00 78 77 48
write:1E 03 00 38 00 34 C7 BF
write:17 03 07 CF 00 78 76 55
write:1A 03 01 0F 00 08 76 18
write:1E 03 07 CF 00 78 76 CC
write:17 03 01 0F 00 08 77 05
write:1B 03 00 38 00 34 C7 EA
write:1E 03 01 0F 00 08 77 9C
write:18 03 00 38 00 34 C7 D9
write:1B 03 07 CF 00 78 76 99
write:1F 03 00 38 00 34 C6 6E
write:18 03 07 CF 00 78 76 AA
write:1B 03 01 0F 00 08 77 C9
write:1F 03 07 CF 00 78 77 1D
77 77 77
heart:77 77 77 2E 75 73 72 2E 63 6E
received messag ?->? 
 124.160.217.235:51673 172.16.246.153:6002
write:12 03 00 38 00 34 C7 73
17 03 F0
23totalsize 240
44 AA B3 33 43 71 00 00 44 5D D9 9A 00 00 00 00 43 6D 00 00 00 00 00 00 00 00 00 00 00 00 00 00 00 00 00 00 00 00 00 00 42 19 DD FF FB 8B 03 00 41 E9 99 9A 00 00 00 00 40 99 99 9A 42 67 33 33 41 49 99 9A 41 BF FF FF 96 00 00 00 41 AE 66 66 44 AC 0C CD 43 8E E6 66 44 54 80 00 00 00 00 00 43 70 33 33 00 00 00 00 00 00 00 00 00 00 00 00 00 00 00 00 00 00 00 00 41 16 66 66 3E CC CC CD 40 D9 99 9A 00 00 00 00 3F E6 66 66 42 D5 33 33 41 BB 33 33 42 46 66 66 00 00 00 00 42 05 99 9A 44 EF 33 33 43 86 66 66 44 9D 8C CD 00 00 00 00 43 C0 19 9A 00 00 00 00 00 00 00 00 00 00 00 00 00 00 00 00 00 00 00 00 41 66 66 66 3F 19 99 9A 41 20 00 00 00 00 00 00 40 73 33 33 42 8D 99 9A 41 56 66 66 41 F6 66 66 00 00 00 00 41 D3 2B 09
DF FF EF
heart:DF FF EF F7 B4 EE 7F BB 79 FD FF F1 81 7E FE FF BC CB 5F FE FF F8 FF 44 F7 FF FF DB FF FF EE D6 6B FD 9C E8 6B F9 FF EF 53 EF FF FF 7B FD FF 3F E7 FE FF F3 D7 FF FF 6C DF F7 FC E8 80 5F EF EF 72 F9 C7 FF C4 CB E1 FF E2 5C F9 91 E0 EF FF FB 05 F1 CC ED 0E 00 44 C3 00 00 43 B4 00 00 44 B4 00 00 44 96 00 2E F9 FF 89 FD FF D7 DD FE BF D4 BF D6 BC FE FF FC FF C7 F9 AF FF B7 7E 7C FF A2 15 FF FF FF FF EC 96 4F FD 9E EC 5B F9 FF EF D3 EE FF FF 7B F7 FF 45 9A FD FF 3F 5B FF FF D9 D8 F9 F1 0F B7 7E BC EF FD F9 8F FF 63 97 E1 FF A2 B9 FD FF D1 00 00 42 A0 00 00 00 00 00 00 42 F0 00 00 42 FC FF FF F9 FB F9 FC 87 FB BF DE FF F6 F9 C7 FF F5 F9 F6 FF EE
write:18 03 01 0F 00 08 77 FA
write:1C 03 00 38 00 34 C6 5D
FB F1 ED
heart:FB F1 ED FF E2 FD FF FF F7 B3 FF FE FE EF FD DA FB 57 F9 FD EF 53 F7 FF EF FE BF FF B1 DF FF FF FB DE FF FF B6 8B FC FC E8 D7 FD EF EF FF FE EC F7 F5 F9 E1 FF F7 00 00 43 A0 00 00 43 8C 00 00 43 8C 00 00 44 5C 97 FF EF FF 1C 80 00 44 CD 00 00 45 07 00 00 45 FC ED 00 00 3F 20 C4 9C 3F F5 83 00 00 3F 1F 7C A6 3F FF 39 FE E0 80 03 C2 48 F3 1F
18 03 10
2400 02 08 7F 00 00 00 00 00 00 C8 41 00 00 ED 3B
write:1F 03 01 0F 00 08 76 4D
write:12 03 07 CF 00 78 76 00
12 03 F0
18totalsize 240
47 94 C3 33 46 3C 4C 00 47 0C 8F 33 00 00 00 00 46 DB C6 00 00 00 00 00 00 00 00 00 00 00 00 00 00 00 00 00 00 00 00 00 46 8B 63 33 45 28 13 33 46 12 38 CD 00 00 00 00 45 B5 0C CD 00 00 00 00 00 00 00 00 00 00 00 00 00 00 00 00 00 00 00 00 47 A9 B7 80 46 5C 9F 33 47 22 D6 CD 00 00 00 00 46 F2 DF 9A 00 00 00 00 00 00 00 00 00 00 00 00 00 00 00 00 00 00 00 00 46 B2 70 66 45 65 B9 9A 46 3A EB 33 00 00 00 00 45 E1 09 9A 00 00 00 00 00 00 00 00 00 00 00 00 00 00 00 00 00 00 00 00 47 82 8D CD 46 41 63 33 46 D4 77 33 00 00 00 00 46 D5 0E 66 00 00 00 00 00 00 00 00 00 00 00 00 00 00 00 00 00 00 00 00 46 95 B4 66 45 65 46 66 45 FB B3 33 00 00 00 00 45 E8 7B 33 00 00 00 00 00 00 00 00 00 00 00 00 00 00 00 00 00 00 EC 5E
write:19 03 00 38 00 34 C6 08
write:1C 03 07 CF 00 78 77 2E
19 03 68
25totalsize 104
43 6D 9E FA 43 6E 02 8F 43 6D A3 54 43 CD F0 C5 43 CD F0 C5 43 CD C4 7B 00 00 00 00 3F 75 C2 8F 00 00 00 00 42 A0 00 00 43 20 00 00 42 A0 00 00 43 A0 00 00 00 00 00 00 42 A0 00 00 00 00 00 00 42 F0 00 00 42 A0 00 00 43 70 00 00 42 A0 00 00 43 A0 00 00 3F 6F 1A A0 3F 26 A7 F0 3F 40 C4 9C 3F 72 B0 21 42 48 1C 25
write:20 03 00 38 00 34 C3 61
write:12 03 01 0F 00 08 77 50
write:19 03 07 CF 00 78 77 7B
write:1C 03 01 0F 00 08 76 7E
12 03 10
1800 41 2E 36 00 00 00 00 00 14 06 0A 00 00 01 F6
19 03 F0
25totalsize 240
43 C3 80 00 42 34 CC CD 43 5F 00 00 00 00 00 00 42 F4 CC CD 00 00 00 00 00 00 00 00 00 00 00 00 00 00 00 00 00 00 00 00 41 79 99 9A 00 00 00 00 41 63 33 33 00 00 00 00 3F 99 99 9A 42 24 00 00 40 F3 33 33 41 83 33 33 00 00 00 00 41 88 00 00 43 B7 B3 33 42 3F 33 33 43 3E 00 00 00 00 00 00 43 01 66 66 00 00 00 00 00 00 00 00 00 00 00 00 00 00 00 00 00 00 00 00 41 10 00 00 00 00 00 00 40 C6 66 66 00 00 00 00 40 26 66 66 42 63 33 33 41 29 99 9A 41 BC CC CD 00 00 00 00 41 B3 33 33 43 A0 E6 66 42 0F 33 33 43 2B CC CD 00 00 00 00 42 E4 00 00 00 00 00 00 00 00 00 00 00 00 00 00 00 00 00 00 00 00 00 00 3E CC CC CD 00 00 00 00 3E 4C CC CD 00 00 00 00 00 00 00 00 42 21 99 9A 40 B9 99 9A 41 A3 33 33 00 00 00 00 41 60 13 F7
write:20 03 07 CF 00 78 72 12
write:13 03 00 38 00 34 C6 A2
write:19 03 01 0F 00 08 76 2B
write:1D 03 00 38 00 34 C7 8C
77 77 77
heart:77 77 77 2E 75 73 72 2E 63 6E
13 03 68
19totalsize 104
43 6D BD 2F 43 6E 51 27 43 6D B1 AA 43 CE 1D 2F 43 CE 12 0C 43 CD CF 7D 00 00 00 00 00 00 00 00 40 0A 3D 71 00 00 00 00 00 00 03 00 03 00 00 01 43 7F 00 00 01 00 7F 06 03 00 1F 92 00 43 70 00 00 44 34 00 00 43 70 00 00 43 70 00 00 43 F0 00 00 44 5C 00 00 3E 2C 08 31 3D E1 47 AE 3F 59 99 9A 3F 0F 9D B2 42 47 EA
write:20 03 01 0F 00 08 73 42
write:13 03 07 CF 00 78 77 D1
write:1A 03 00 38 00 34 C6 3B
write:1D 03 07 CF 00 78 76 FF
05 13 03
heart:05 13 03 F0 00 00 44 A2 E6 66 42 DC 00 00 44 4A E6 66 00 00 00 00 43 BE 99 9A 00 00 00 00 00 00 00 00 00 00 00 00 00 00 00 00 00 00 00 00 43 0F 33 33 3E CC CC CD 43 00 00 00 00 00 00 00 41 66 66 66 43 DB 33 33 42 9A 66 66 43 2C 00 00 00 00 00 00 43 3C CC CD 44 5A CC CD 42 BC 00 00 43 F7 66 66 00 00 00 00 43 8F 00 00 00 00 00 00 00 00 00 00 00 00 00 00 00 00 00 00 00 00 00 00 40 80 00 00 00 00 00 00 40 4C CC CD 00 00 00 00 3F 4C CC CD 44 1A 99 9A 42 C4 00 00 43 85 66 66 00 00 00 00 43 7D 33 33 44 DC A6 66 42 DB 33 33 44 8E CC CD 00 00 00 00 44 00 4C CD 00 00 00 00 00 00
FF F7 23
heart:FF F7 23 00 00 00 00 00 00 00 00 00 00 00 42 5E 66 66 3E CC CC CD FF E7 EC 9A 00 00 00 00 41 60 00 00 43 FE 00 00 42 B6 66 66 43 3F 99 9A 00 00 00 00 43 60 C6 A3
write:13 03 01 0F 00 08 76 81
write:1A 03 07 CF 00 78 77 48
write:1D 03 01 0F 00 08 77 AF
write:12 03 00 38 00 34 C7 73
77 77 77
heart:77 77 77 2E 75 73 72 2E 63 6E
13 03 10
1900 02 94 8E 00 00 00 00 00 00 35 3F 00 00 CE C4
1A 03 F0
26totalsize 240
44 E3 D9 9A 43 41 CC CD 44 7F 99 9A 00 34 0F 00 03 F4 2D F1 1F FD D3 43 6E 10 22 68 6D 00 E8 34 07 3E E6 75 7F FE 00 FA 00 1F 00 00 00 03 00 83 01 43 7E 02 7F 64 92 36 69 32 E8 14 7C 03 F4 09 60 00 F4 00 01 7D 0E 02 18 00 FF 00 07 F8 C2 08 FF 00 06 F6 01 F6 20 FF 45 00 70 00 00 D1 00 3B 43 00 27 FF C4 FF 00 04 01 00 00 00 07 F8 00 FE 40 00 3B 94 24 E6 88 E6 00 34 E4 00 84 00 00 E8 BE 69 5F 1C 1A 75 FE 00 FF 00 00 7F 00 00 00 0F 0D 02 0D 42 48 19 00 00 00 00 00 40 C0 00 00 3F E6 66 66 40 19 99 9A 00 00 00 00 3F 99 99 9A 44 70 00 00 43 11 33 33 43 D5 4C CD 00 00 00 00 43 C1 CC CD 44 E4 00 00 42 EE CC CD 44 94 20 00 00 00 00 00 44 01 E6 66 00 00 00 00 00 00 00 00 00 00 00 00 00 00 00 00 00 00 00 00 42 0B 33 33 00
00 00 00
heart:00 00 00 41 D3 33 33 00 00 00 00 41 06 66 66 44 3E F3 33 42 F7 33 33 43 9F E6 66 00 00 00 00 43 9F 5C FF
write:14 03 00 38 00 34 C7 15
14 03 68
20totalsize 104
43 6E 84 5A 43 6E F2 2D 43 6E 5F 3B 43 CE B8 52 43 CE A2 2D 43 CE 75 C3 41 0F 5C 29 40 DA E1 48 41 11 EB 85 44 AA 00 00 44 7A 00 00 44 AA 00 00 45 66 00 00 43 A0 00 00 43 8C 00 00 43 8C 00 00 44 5C 00 00 45 07 00 00 44 CD 00 00 45 07 00 00 45 6D 80 00 3F 20 41 89 3F 19 99 9A 3F 1F 3B 64 3F 78 93 75 42 48 62 10
write:1A 03 01 0F 00 08 76 18
write:1E 03 00 38 00 34 C7 BF
write:12 03 07 CF 00 78 76 00
1A 03 10
2600 02 88 E5 00 00 00 00 00 00 3D F8 00 00 A8 0E
12 03 F0
18totalsize 240
47 94 C4 B3 46 3C 5A 66 47 0C 8F 33 00 00 00 00 46 DB C6 00 00 00 00 00 00 00 00 00 00 00 00 00 00 00 00 00 00 00 00 00 46 8B 64 66 45 28 1C CD 46 12 38 CD 00 00 00 00 45 B5 0C CD 00 00 00 00 00 00 00 00 00 00 00 00 00 00 00 00 00 00 00 00 47 A9 B7 80 46 5C 9F 33 47 22 D6 CD 00 00 00 00 46 F2 DF 9A 00 00 00 00 00 00 00 00 00 00 00 00 00 00 00 00 00 00 00 00 46 B2 70 66 45 65 B9 9A 46 3A EB 33 00 00 00 00 45 E1 09 9A 00 00 00 00 00 00 00 00 00 00 00 00 00 00 00 00 00 00 00 00 47 82 8D CD 46 41 63 33 46 D4 77 33 00 00 00 00 46 D5 0E 66 00 00 00 00 00 00 00 00 00 00 00 00 00 00 00 00 00 00 00 00 46 95 B4 66 45 65 46 66 45 FB B3 33 00 00 00 00 45 E8 7B 33 00 00 00 00 00 00 00 00 00 00 00 00 00 00 00 00 00 00 CD 53
write:14 03 07 CF 00 78 76 66
write:1B 03 00 38 00 34 C7 EA
write:1E 03 07 CF 00 78 76 CC
write:12 03 01 0F 00 08 77 50
14 03 F0
20totalsize 240
44 A8 B9 9A 43 D4 80 00 43 9C 66 66 00 00 00 00 44 18 F3 33 00 00 00 00 00 00 00 00 00 00 00 00 00 00 00 00 00 00 00 00 40 0C CC CD 00 00 00 00 40 0C CC CD 00 00 00 00 00 00 00 00 43 9C 80 00 42 CA CC CD 42 87 99 9A 00 00 00 00 43 0F 99 9A 44 AC 73 33 43 E0 33 33 43 9A 66 66 00 00 00 00 44 1B 8C CD 00 00 00 00 00 00 00 00 00 00 00 00 00 00 00 00 00 00 00 00 40 99 99 9A 00 00 00 00 40 93 33 33 00 00 00 00 00 00 00 00 43 9B 80 00 42 D2 66 66 42 76 66 66 00 00 00 00 43 10 00 00 44 A4 D9 9A 43 ED 99 9A 43 78 66 66 00 00 00 00 44 14 C0 00 00 00 00 00 00 00 00 00 00 00 00 00 00 00 00 00 00 00 00 00 3F 4C CC CD 00 00 00 00 3F 4C CC CD 00 00 00 00 00 00 00 00 43 8C 66 66 42 D1 33 33 42 3B 33 33 00 00 00 00 43 01 6B 34
1B 03 68
27totalsize 104
43 6E 9E B8 43 6E FE FF FA 6F 8F DF 43 CE B8 52 43 CE AD 2F 43 CE 97 0A 40 11 EB 85 00 00 00 00 00 00 00 00 43 B4 00 00 00 00 00 00 00 00 00 00 43 F0 00 C0 FC FD EF AF 00 00 00 00 00 00 00 00 43 B4 00 00 43 F0 00 00 00 00 00 00 00 00 00 00 44 16 00 00 3F 1A 5E 35 00 00 00 00 00 00 00 00 3F 48 B4 39 42 48 B5 D4
write:14 03 01 0F 00 08 77 36
write:1B 03 07 CF 00 78 76 99
write:1E 03 01 0F 00 08 77 9C
write:13 03 00 38 00 34 C6 A2
write:15 03 00 38 00 34 C6 C4
write:1B 03 01 0F 00 08 77 C9
write:1F 03 00 38 00 34 C6 6E
write:13 03 07 CF 00 78 77 D1
write:15 03 07 CF 00 78 77 B7
write:1C 03 00 38 00 34 C6 5D
write:1F 03 07 CF 00 78 77 1D
write:13 03 01 0F 00 08 76 81
write:15 03 01 0F 00 08 76 E7
write:1C 03 07 CF 00 78 77 2E
write:1F 03 01 0F 00 08 76 4D
write:14 03 00 38 00 34 C7 15
write:16 03 00 38 00 34 C6 F7
write:1C 03 01 0F 00 08 76 7E
write:20 03 00 38 00 34 C3 61
write:14 03 07 CF 00 78 76 66
write:16 03 07 CF 00 78 77 84
write:1D 03 00 38 00 34 C7 8C
write:20 03 07 CF 00 78 72 12
write:14 03 01 0F 00 08 77 36
write:16 03 01 0F 00 08 76 D4
write:1D 03 07 CF 00 78 76 FF
write:20 03 01 0F 00 08 73 42
write:15 03 00 38 00 34 C6 C4
write:17 03 00 38 00 34 C7 26
write:1D 03 01 0F 00 08 77 AF
write:15 03 07 CF 00 78 77 B7
write:12 03 00 38 00 34 C7 73
write:17 03 07 CF 00 78 76 55
write:1E 03 00 38 00 34 C7 BF
write:15 03 01 0F 00 08 76 E7
write:12 03 07 CF 00 78 76 00
write:17 03 01 0F 00 08 77 05
write:1E 03 07 CF 00 78 76 CC
write:16 03 00 38 00 34 C6 F7
write:12 03 01 0F 00 08 77 50
write:18 03 00 38 00 34 C7 D9
write:1E 03 01 0F 00 08 77 9C
write:16 03 07 CF 00 78 77 84
write:13 03 00 38 00 34 C6 A2
77 77 77
heart:77 77 77 2E 75 73 72 2E 63 6E
77 77 77
heart:77 77 77 2E 75 73 72 2E 63 6E
write:18 03 07 CF 00 78 76 AA
write:1F 03 00 38 00 34 C6 6E
write:16 03 01 0F 00 08 76 D4

err2222: EOF
write:13 03 07 CF 00 78 77 D1
received messag ?->? 
 124.160.217.235:51675 172.16.246.153:6002
write:12 03 00 38 00 34 C7 73
1B 03 F0
27totalsize 271
45 19 F9 9A 41 D8 00 00 44 EF 53 33 00 00 00 00 44 02 59 9A 00 00 70 FD EF 2F 06 00 00 00 00 00 14 7B 00 03 02 01 00 03 0E 7F E4 60 43 CD 6E D0 22 7E 32 E8 93 8E 63 03 08 84 8D 3E 00 E5 00 FF 43 7E 43 7D 00 00 00 00 00 00 00 00 02 00 00 00 00 00 00 00 00 00 00 43 00 C8 00 00 D1 00 40 13 13 01 80 81 FF 00 00 43 10 FE 00 FE 00 03 10 00 00 11 0B 34 E6 00 66 00 3F 3F 00 00 FF 00 FF 00 00 03 00 00 00 04 0C 00 00 3E 2B 02 0C 1E 14 24 F4 AE 00 41 FF 82 42 33 FF 0D FF 95 31 02 FE 00 92 00 00 43 34 99 9A 00 00 00 00 00 00 00 00 00 00 00 00 00 00 00 00 00 00 00 00 45 1D 76 66 42 4E 66 66 44 F5 19 9A 00 00 00 00 43 FD 33 33 00 00 00 00 00 00 00 00 00 00 00 00 00 00 00 00 00 00 00 00 44 73 99 9A 42 34 00 00 44 1E 8C CD 00 00 00 00 43 93 4C CD 00 00 00 00 00 00 00 00 00 00 00 00 00 00 00 00 00 00 BD 24 FF FF FE D7
14 DC BE
heart:14 DC BE FF FE 1D FD FF D3 A0 BF FF EF 9C F9 FB FF
F9 F8 FF
heart:F9 F8 FF 44 53 FF D7 C7 FF EC 36 53 FE 19 FF FB FF FD EF D3 EE FF FF 7B F6 FF 4D A2 FD FF 2F FF FF FD D9 09 00 00 00 00 00 00 00 00 00 00 00 00 00 00 64 F1 FF 88 91 FD FF D3 3F BF EC 2C AA F9 30 E8 34 CB E1 EF A2 5D FF F7 73 EA FC 1F F1 54 FD FF EF 61 FF FB CB 84 BF C6 EF EE 00 00 00 00 00 00 00 00 FE F8 FF A2 FF FF FF DE FD FF ED 7E FB 6E 0B 02 43 CE 75 00 00 42 47 77 5D E3 43 CE 5F 9E 43 CE 28 31 43 15 A3 D7 43 2D A3 D7 43 1F 5C 29 46 F4 B0 00 47 11 C8 00 47 07 00 00 47 C9 90 00 45 D2 00 00 45 8A C0 00 45 77 80 00 46 6C 40 00 47 0B 38 00 47 21 B8 00 47 14 20 00 47 CB AC 00 3F 61 06 25 3F 66 66 66 3F 69 37 4C 3F 7D 2F 1B 42 47 66 23 18 03 F0 00 00 44 6F F3 33 43 65 00 00 44 03 A6 66 00 00 00 00 43 4C 00 00 00 7E EC D9 A4 00 00 00 00 00 00 00 00 00 00 00 00 00 00 00 43 49 66 66 42 08 CC CD 42 EF 33 33 00 00 00 00 42 3D 99 9A 41 D4 CC CD 40 F3 33 33 41 73 33 33 00 00 00 00 40 66 66 66 44 19 99 9A 43 00 00 00 43 A7 EE FE FF 74 00 00 43 16 99 9A 00 00 00 00 00 00 00 00 00 00 00 00 00 00 00 00 00 00 00 00 42 45 99 9A 3F 80 00 00 42 09 99 9A 00 00 00 00 41 60 00 00 42 0A 66 66 41 00 00 00 41 AC CC CD 00 00 00 00 40 99 99 9A 44 3F E6 66 43 0C 33 33 43 D9 E6 66 00 00 00 00 43 3F 66 66 00 00 00 00 00 00 00 00 00 00 00 00 00 00 00 00 00 00 00 00 43 A3 99 9A 41 A8 00 00 43 6C 99 9A 00 00 00 00 42 8A CC CD 42 1B 33
33 41 23
heart:33 41 23 33 33 41 A6 66 66 00 00 00 00 40 F9 77 8A 13 03 F0 00 00 44 A2 E6 66 42 DC 00 00 44 4A E6 66 00 00 00 00 43 BE 99 9A 00 00 00 00 00 00 00 00 00 00 00 00 00 00 00 00 00 00 00 00 43 0F 33 33 3E CC CC CD 43 00 00 00 00 00 00 00 41 66 66 66 43 DB 66 66 42 9A 66 66 43 2C 00 00 00 00 00 00 43 3C CC CD 44 5A CC CD 42 BC 00 00 43 F7 66 66 00 00 00 00 43 8F 00 00 00 00 00 00 00 00 00 00 00 00 00 00 00 00 00 00 00 00 00 00 40 80 00 00 00 00 00 00 40 4C CC CD 00 00 00 00 3F 4C CC CD 44 1A 99 9A 42 C4 00 00 43 85 66 66 00 00 00 00 43 7D 33 33 44 DC A6 66 42 DB 33 33 44 8E CC CD 00 00 00 00 44 00 4C CD 00 00 00 00 00 00 00 00 00 00 00 00 00 00 00 00 00 00 00 00 42 5E 66 66 3E CC CC CD 42 21 99 9A 00 00 00 00 41 60 00 00 43 FE 00 00 42 B6 66 66 43 3F 99 9A 00 00 00 00 43 60 41 7D 12 03 68 00 00 43 6E 55 C3 43 6E D5 81 43 6E 1A E1 43 CE 97 0A 43 CE 80 E5 43 CE 49 79 43 13 F5 C3 43 26 CC CD 43 18 0A 3D 46 F8 70 00 47 17 E0 00 47 05 20 00 47 C2 4C 00 45 CE 40 00 45 8A C0 00 45 77 80 00 46 6A 60 00 47 09 D0 00 47 1B A0 00 47 0D 90 00 47 C4 68 00 3F 61 89 37 3F 64 DD 2F 3F 67 AE 14 3F 7D 2F 1B 42 47 53 81
write:18 03 01 0F 00 08 77 FA
write err: write tcp 172.16.246.153:6002->124.160.217.235:51673: use of closed network connection
write:1F 03 07 CF 00 78 77 1D
write:17 03 00 38 00 34 C7 26
17 03 68
23totalsize 104
43 6E 46 A8 43 6E D6 04 43 6E 24 19 43 CE 8C 08 43 CE 80 E5 43 CE 3E 56 00 00 00 00 3F 57 0A 3D 00 00 00 00 00 00 00 00 42 F0 00 00 00 00 00 00 43 48 00 00 42 A0 00 00 42 A0 00 00 00 00 00 00 42 F0 00 00 42 F0 00 00 43 48 00 00 00 00 00 00 43 70 00 00 3E D4 7A E1 3F 2D 4F DF 00 00 00 00 3F 54 BC 6A 42 48 ED E6
write:13 03 01 0F 00 08 76 81
write:12 03 07 CF 00 78 76 00
13 03 10
1900 02 94 8E 00 00 00 00 00 00 35 3F 00 00 FB 00
write:1F 03 01 0F 00 08 76 4D
write:17 03 07 CF 00 78 76 55
write:14 03 00 38 00 34 C7 15
write:12 03 01 0F 00 08 77 50
17 03 F0
23totalsize 240
44 AA B3 33 43 71 00 00 44 5D D9 9A 00 00 00 00 43 6D 00 00 00 00 00 00 00 00 00 00 00 00 00 00 00 00 00 00 00 00 00 00 42 19 99 9A 40 80 00 00 41 E9 99 9A 00 00 00 00 40 99 99 9A 42 68 00 00 41 49 99 9A 41 BB 33 33 00 00 00 00 41 AE 66 66 44 AC 0C CD 43 8E E6 66 44 54 80 00 00 00 00 00 43 70 33 33 00 00 00 00 00 00 00 00 00 00 00 00 00 00 00 00 00 00 00 00 41 16 66 66 3E CC CC CD 40 D9 99 9A 00 00 00 00 3F E6 66 66 42 D5 33 33 41 BB 33 33 42 46 66 66 00 00 00 00 42 05 99 9A 44 EF 33 33 43 86 66 66 44 9D 8C CD 00 00 00 00 43 C0 19 9A 00 00 00 00 00 00 00 00 00 00 00 00 00 00 00 00 00 00 00 00 41 66 66 66 3F 19 99 9A 41 20 00 00 00 00 00 00 40 73 33 33 42 8D 99 9A 41 56 66 66 41 F6 66 66 00 00 00 00 41 D3 02 62
14 03 68
20totalsize 104
43 6E 50 A4 43 6E DB E7 43 6E 1D 71 43 CE 97 0A 43 CE 80 E5 43 CE 49 79 41 0F 5C 29 40 DC 28 F6 41 11 EB 85 44 AA 00 00 44 7A 00 00 44 AA 00 00 45 66 00 00 43 A0 00 00 43 8C 00 00 43 8C 00 00 44 5C 00 00 45 04 80 00 44 CD 00 00 45 07 00 00 45 6D 80 00 3F 20 00 00 3F 18 D4 FE 3F 1E F9 DB 3F 78 D4 FE 42 48 D2 99
12 03 10
1800 41 2E 9F 00 00 00 00 00 14 06 1B 00 00 7D 6D
write:20 03 00 38 00 34 C3 61
write:17 03 01 0F 00 08 77 05
17 03 10
2300 03 F4 33 00 00 00 00 00 00 E7 F6 00 00 39 DD
43 6E 46 A8
238.276
43 6E D6 04
238.836
43 6E 24 19
238.141
43 CE 8C 08
413.094
43 CE 80 E5
413.007
43 CE 3E 56
412.487
00 00 00 00
0
3F 57 0A 3D
0.84
00 00 00 00
0
00 00 00 00
0
42 F0 00 00
120
00 00 00 00
0
43 48 00 00
200
42 A0 00 00
80
42 A0 00 00
80
00 00 00 00
0
42 F0 00 00
120
42 F0 00 00
120
43 48 00 00
200
00 00 00 00
0
43 70 00 00
240
3E D4 7A E1
0.415
3F 2D 4F DF
0.677
00 00 00 00
0
3F 54 BC 6A
0.831
42 48 ED E6
50.232323
44 AA B3 33
1365.6
43 71 00 00
241
44 5D D9 9A
887.4
00 00 00 00
0
43 6D 00 00
237
00 00 00 00
0
00 00 00 00
0
00 00 00 00
0
00 00 00 00
0
00 00 00 00
0
42 19 99 9A
38.4
40 80 00 00
4
41 E9 99 9A
29.2
00 00 00 00
0
40 99 99 9A
4.8
42 68 00 00
58
41 49 99 9A
12.6
41 BB 33 33
23.4
00 00 00 00
0
41 AE 66 66
21.8
44 AC 0C CD
1376.4
43 8E E6 66
285.8
44 54 80 00
850
00 00 00 00
0
43 70 33 33
240.2
00 00 00 00
0
00 00 00 00
0
00 00 00 00
0
00 00 00 00
0
00 00 00 00
0
41 16 66 66
9.4
3E CC CC CD
0.4
40 D9 99 9A
6.8
00 00 00 00
0
3F E6 66 66
1.8
42 D5 33 33
106.6
41 BB 33 33
23.4
42 46 66 66
49.6
00 00 00 00
0
42 05 99 9A
33.4
44 EF 33 33
1913.6
43 86 66 66
268.8
44 9D 8C CD
1260.4
00 00 00 00
0
43 C0 19 9A
384.2
00 00 00 00
0
00 00 00 00
0
00 00 00 00
0
00 00 00 00
0
00 00 00 00
0
41 66 66 66
14.4
3F 19 99 9A
0.6
41 20 00 00
10
00 00 00 00
0
40 73 33 33
3.8
42 8D 99 9A
70.8
41 56 66 66
13.4
41 F6 66 66
30.8
00 00 00 00
0
41 D3 02 62
26.376163
00 03 F4 33
259123
00 00 00 00
0
00 00 E7 F6
59382
00 00 39 DD
14813
238.276238.836238.141413.094413.007412.48700.840012002008080012012020002400.4150.67700.83150.2323231365.6241887.402370000038.4429.204.85812.623.4021.81376.4285.88500240.2000009.40.46.801.8106.623.449.6033.41913.6268.81260.40384.20000014.40.61003.870.813.430.8026.3761632320171126230858259.123059.38214.813insert into tbl_power_info_v2(P_A_DIANYA,P_B_DIANYA,P_C_DIANYA,P_UAB_XIANDIANYA,P_UBC_XIANDIANYA,P_UCA_XIANDIANYA,P_A_DIANLIU,P_B_DIANLIU,P_C_DIANLIU,P_A_YGGL,P_B_YGGL,P_C_YGGL,P_HXYGGL,P_A_WGGL,P_B_WGGL,P_C_WGGL,P_HXWGGL,P_A_SZGL,P_B_SZGL,P_C_SZGL,P_HXSZGL,P_A_GLYS,P_B_GLYS,P_C_GLYS,P_HXGLYS,P_DWPL,P_BY_KwhZ,P_BY_KwhJ,P_BY_KwhF,P_BY_KwhP,P_BY_KwhG,P_BY_HKwhZ,P_BY_HKwhJ,P_BY_HKwhF,P_BY_HKwhP,P_BY_HKwhG, P_BY_KvarhZ,P_BY_KvarhJ,P_BY_KvarhF,P_BY_KvarhP,P_BY_KvarhG, P_BY_HKvarhZ,P_BY_HKvarhJ,P_BY_HKvarhF,P_BY_HKvarhP,P_BY_HKvarhG, P_SY_KwhZ,P_SY_KwhJ,P_SY_KwhF,P_SY_KwhP,P_SY_KwhG, P_SY_HKwhZ,P_SY_HKwhJ,P_SY_HKwhF,P_SY_HKwhP,P_SY_HKwhG, P_SY_KvarhZ,P_SY_KvarhJ,P_SY_KvarhF,P_SY_KvarhP,P_SY_KvarhG, P_SY_HKvarhZ,P_SY_HKvarhJ,P_SY_HKvarhF,P_SY_HKvarhP,P_SY_HKvarhG, P_SSY_KwhZ,P_SSY_KwhJ,P_SSY_KwhF,P_SSY_KwhP,P_SSY_KwhG, P_SSY_HKwhZ,P_SSY_HKwhJ,P_SSY_HKwhF,P_SSY_HKwhP,P_SSY_HKwhG, P_SSY_KvarhZ,P_SSY_KvarhJ,P_SSY_KvarhF,P_SSY_KvarhP,P_SSY_KvarhG, P_SSY_HKvarhZ,P_SSY_HKvarhJ,P_SSY_HKvarhF,P_SSY_HKvarhP,P_SSY_HKvarhG,P_CODE,P_TIME,P_ZXYGDN,P_FXYGDN,P_ZXWGDN,P_FXWGDN)values(238.276,238.836,238.141,413.094,413.007,412.487,0,0.84,0,0,120,0,200,80,80,0,120,120,200,0,240,0.415,0.677,0,0.831,50.232323,1365.6,241,887.4,0,237,0,0,0,0,0,38.4,4,29.2,0,4.8,58,12.6,23.4,0,21.8,1376.4,285.8,850,0,240.2,0,0,0,0,0,9.4,0.4,6.8,0,1.8,106.6,23.4,49.6,0,33.4,1913.6,268.8,1260.4,0,384.2,0,0,0,0,0,14.4,0.6,10,0,3.8,70.8,13.4,30.8,0,26.376163,23,20171126230858,259.123,0,59.382,14.813)
写入成功读取完毕一个
write:14 03 07 CF 00 78 76 66
write:13 03 00 38 00 34 C6 A2
write:20 03 07 CF 00 78 72 12
write:18 03 00 38 00 34 C7 D9
write:14 03 01 0F 00 08 77 36
write:13 03 07 CF 00 78 77 D1
77 77 77
heart:77 77 77 2E 75 73 72 2E 63 6E
F9 FE FF
heart:F9 FE FF EF 26 44 A8 C6 66 43 D4 B3 33 43 9C 66 66
00 00 00
heart:00 00 00 00 44 18 F3 33 00 00 00 00 00 00 00 00 00 00 00 00 00 00 00 00 00 00 00 00 40 0C CC CD 00 00 00 00 40 0C CC CD 00 00 00 00 00 00 00 00 43 9C 80 00 42 CA CC CD 42 87 99 9A 00 00 00 00 43 0F 99 9A 44 AC 73 33 43 E0 33 33 43 9A 66 66 00 00 00 00 44 1B 8C CD 00 00 00 00 00 00 00 00 00 00 00 00 00 00 00 00 00 00 00 00 40 99 99 9A 00 00 00 00 40 93 33 33 00 00 00 00 00 00 00 00 43 9B 80 00 42 D2 66 66 42 76 66 66 00 00 00 00 43 10 00 00 44 A4 D9 9A 43 ED 99 9A 43 78 66 66 00 00 00 00 44 14 C0 00 00 00 00 00 00 00 00 00 00 00 00 00 00 00 00 00 00 00 00 00 3F 4C CC CD 00 00 00 00 3F 4C CC CD 00 00 00 00 00 00 00 00 43 8C 66 66 42 D1 33 33 42 3B 33 33 00 00 00 00 43 01 D8 4C
write:20 03 01 0F 00 08 73 42
write:18 03 07 CF 00 78 76 AA
write:15 03 00 38 00 34 C6 C4
write:13 03 01 0F 00 08 76 81
18 03 68
24totalsize 104
43 6E 14 7B 43 6E 9B 64 43 6E 2E 56 43 CE 6A C1 43 CE 6A C1 43 CE 33 54 40 80 00 00 40 59 99 9A 00 00 00 00 44 5C 00 00 44 48 00 00 42 A0 00 00 44 D7 00 00 42 A0 00 00 42 F0 00 00 42 A0 00 00 42 A0 00 00 44 70 00 00 44 48 00 00 42 F0 00 00 44 DC 00 00 3F 68 72 B0 3F 76 87 2B 3F 40 83 12 3F 7F BE 77 42 47 FE A9
13 03 68
19totalsize 104
43 6E 44 9C 43 6E B7 0A 43 6E 22 4E 43 CE 80 E5 43 CE 75 E3 EB FF FF AF C0 00 00 00 00 00 00 00 40 0A 3D 71 00 00 00 00 00 00 00 00 43 C8 00 00 43 F0 00 00 43 70 00 00 43 70 00 00 43 70 00 00 44 34 00 00 43 70 00 00 43 70 00 00 43 F0 00 00 44 5C 00 00 3E 2D 0E 56 3D EB 85 1F 3F 5A 1C AC 3F 10 62 4E 42 47 E0 29
write:18 03 01 0F 00 08 77 FA
write:12 03 00 38 00 34 C7 73
write:15 03 07 CF 00 78 77 B7
write:14 03 00 38 00 34 C7 15
write:19 03 00 38 00 34 C6 08
write:12 03 07 CF 00 78 76 00
write:15 03 01 0F 00 08 76 E7
write:14 03 07 CF 00 78 76 66
write:19 03 07 CF 00 78 77 7B
write:12 03 01 0F 00 08 77 50
write:16 03 00 38 00 34 C6 F7
write:14 03 01 0F 00 08 77 36
write:19 03 01 0F 00 08 76 2B
write:13 03 00 38 00 34 C6 A2
write:16 03 07 CF 00 78 77 84
write:15 03 00 38 00 34 C6 C4
write:1A 03 00 38 00 34 C6 3B
write:13 03 07 CF 00 78 77 D1
write:16 03 01 0F 00 08 76 D4
write:15 03 07 CF 00 78 77 B7
77 77 77
heart:77 77 77 2E 75 73 72 2E 63 6E
write:1A 03 07 CF 00 78 77 48
write:13 03 01 0F 00 08 76 81
write:17 03 00 38 00 34 C7 26
write:15 03 01 0F 00 08 76 E7
77 77 77
heart:77 77 77 2E 75 73 72 2E 63 6E 14 03 68 00 00 43 6E A2 4E 43 6F 18 D5 43 6E 57 CF 43 CE CE 77 43 CE AD 50 43 CE 80 E5 41 10 A3 D7 40 DD 70 A4 41 12 8F 5C 44 AA 00 00 44 7A 00 00 44 AA 00 00 45 66 00 00 43 A0 00 00 43 8C 00 00 43 8C 00 00 44 5C 00 00 45 07 00 00 44 CD 00 00 45 09 80 00 45 6D 80 00 3F 1F 7C EE 3F 18 51 EC 3F 1E B8 52 3F 78 D4 FE 42 47 37 E1 15 03 F0 00 00 40 CC CC CD 00 00 00 00 40 A6 66 66 00 00 00 00 3F 99 99 9A 00 00 00 00 00 00 00 00 00 00 00 00 00 00 00 00 00 00 00 00 3E CC CC CD 00 00 00 00 3E CC CC CD 00 00 00 00 00 00 00 00 00 00 00 00 00 00 00 00 00 00 00 00 00 00 00 00 00 00 00 00 40 8C CC CD 00 00 00 00 40 66 66 66 00 00 00 00 3F 4C CC CD 00 00 00 00 00 00 00 00 00 00 00 00 00 00 00 00 00 00 00 00 00 00 00 00 00 00 00 00 00 00 00 00 00 00 00 00 00 00 00 00 00 00 00 00 00 00 00 00 00 00 00 00 00 00 00 00 00 00 00 00 42 1E 66 66 00 00 00 00 41 F3 33 33 00 00 00 00 41 13 33 33 00 00 00 00 00 00 00 00 00 00 00 00 00 00 00 00 00 00 00 00 42 D8 00 00 00 00 00 00 42 A3 33 33 00 00 00 00 41 D0 00 00 00 00 00 00 00 00 00 00 00 00 00 00 00 00 00 00 00 00 7F 8C FB FD FF EF 4D F9 FF FF DD 43 D4 B3 33 43 9C 66 66 00 00 00 00 44 18 F3 33 00 00 00 00 00 00 00 00 00 CF F1 FF 93 CF FF FF 91 9A FF FF 73 CD FE 11 CD FF FF A2 0C CC CD 00 00 00 00 00 00 00 00 43 9C 80 00 52 FD FF F3 4E FF F7 30 F1 FC 8A E8 0F 99 9A 44 AC 73 33 43 E0 33 33 43 9A 66 66 00 00 00 00 44 1B 8C CD 00 00 00 00 00 00 00 00 00 00 00 00 00 00 00 00 00 00 00 00 40 99 99 9A 00 00 00 00 40 93 33 33 00 00 00 00 00 00 00 00 43 9B 80 00 42 D2 66 66 42 76 66 66 00 00 00 00 43 10 00 00 44 A4 D9 9A 43 ED 99 9A 43 78 66 66 00 00 00 00 44 14 C0 00 00 00 00 00 00 00 00 00 00 00 00 00 00 00 00 00 00 00 00 00 3F 4C CC CD 00 00 00 00 3F 4C CC CD 00 00 00 00 00 00 00 00 43 8C 66 66 42 D1 33 33 42 3B 33 33 00 00 00 00 43 01 6B A8 1A 03 68 00 00 43 6E 72 F2 43 6E DE 35 43 6E 40 42 43 CE A2 2D 43 CE 8C 08 43 CE 5F 9E 3F E6 66 66 40 21 47 AE 40 66 66 66 00 00 00 00 43 B4 00 00 43 F0 00 00 44 52 00 00 43 B4 00 00 43 F0 00 00 44 16 00 00 44 B4 00 00 43 B4 00 00 44 16 00 00 44 52 00 00 44 D2 00 00 3E 84 9B A6 3F 13 F7 CF 3F 03 53 F8 3F 04 DD 2F 42 47 E4 FF 15 03 F0 00 00 40 CC CC CD 00 00 00 00 40 A6 66 66 00 00 00 00 3F 99 99 9A 00 00 00 00 00 00 00 00 00 00 00 00 00 00 00 00 00 00 00 00 3E CC CC CD 00 00 00 00 3E CC CC CD 00 00 00 00 00 00 00 00 00 00 00 00 00 00 00 00 00 00 00 00 00 00 00 00 00 00 00 00 40 8C CC CD 00 00 00 00 40 66 66 66 00 00 00 00 3F 4C CC CD 00 00 00 00 00 00 00 00 00 00 00 00 00 00 00 00 00 00 00 00 00 00 00 00 00 00 00 00 00 00 00 00 00 00 00 00 00 00 00 00 00 00 00 00 00 00 00 00 00 00 00 00 00 00 00 00 00 00 00 00 42 1E 66 66 00 00 00 00 41 F3 33 33 00 00 00 00 41 13 33 33 00 00 00 00 00 00 00 00 00 00 00 00 00 00 00 00 00 00 00 00 42 D8 00 00 00 00 00 00 42 A3 33 33 00 00 00 00 41 D0 00 00 00 00 00 00 00 00 00 00 00 00 00 00 00 00 00 00 00 00 7F 8C
write:1A 03 01 0F 00 08 76 18
77 77 77
heart:77 77 77 2E 75 73 72 2E 63 6E
write:14 03 00 38 00 34 C7 15
write:17 03 07 CF 00 78 76 55
write:16 03 00 38 00 34 C6 F7
write:1B 03 00 38 00 34 C7 EA
1A 03 F0
26totalsize 261
44 E3 D9 9A 43 42 66 66 44 7F 99 9A 00 00 CB E1 FF 17 59 9A 00 00 00 00 00 00 00 00 00 00 00 00 00 00 00 20 BF EC 2C 0D 42 97 33 33 40 99 99 9A 42 1C 00 00 00 00 00 00 41 F9 99 9A 44 62 33 33 43 12 66 66 43 C3 00 00 00 00 00 00 43 B7 99 9A 44 AC E0 00 43 0E CC CD 44 4A 33 33 00 00 00 00 43 D7 19 9A 00 00 00 00 00 00 00 00 00 00 00 00 00 00 00 00 00 00 00 00 40 C0 00 00 3F E6 66 66 40 19 99 9A 00 00 00 00 3F 99 99 9A 44 70 00 00 43 11 33 33 43 D5 4C CD 00 00 00 00 43 C1 CC CD 44 E4 00 00 42 EE CC CD 44 94 20 00 00 00 00 00 44 01 E6 66 00 00 00 00 00 00 00 00 00 00 00 00 00 00 00 00 00 00 00 00 42 0B 33 33 00 00 00 00 41 D3 33 33 00 00 00 00 41 06 66 66 44 3E F3 33 42 F7 33 33 43 9F E6 66 00 00 00 00 43 9F 72 1E 1A 03 10 00 00 00 02 88 E7 00 00 00 00 00 00 3D F8 00 00 A3 B6
1B 03 68
27totalsize 104
43 6E 72 B0 43 6E DA E1 43 6E 46 66 43 CE A2 2D 43 CE 8C 08 43 CE 5F 9E 40 0A 3D 71 00 00 00 00 00 00 00 00 43 B4 00 00 00 00 00 00 00 00 00 00 43 F0 00 00 43 F0 00 00 00 00 00 00 00 00 00 00 43 B4 00 00 43 F0 00 00 00 00 00 00 00 00 00 00 44 16 00 00 3F 19 16 87 00 00 00 00 00 00 00 00 3F 47 EF 9E 42 48 A8 1F
17 03 F0
23totalsize 240
44 AA B3 33 43 71 00 00 44 5D D9 9A 00 00 00 00 43 6D 00 00 00 00 00 00 00 00 00 00 00 00 00 00 00 00 00 00 00 00 00 00 42 19 99 9A 40 80 00 00 41 E9 99 9A 00 00 00 00 40 99 99 9A 42 68 00 00 41 49 99 9A 41 BB 33 33 00 00 00 00 41 AE 66 66 44 AC 0C CD 43 8E E6 66 44 54 80 00 00 00 00 00 43 70 33 33 00 00 00 00 00 00 00 00 00 00 00 00 00 00 00 00 00 00 00 00 41 16 66 66 3E CC CC CD 40 D9 99 9A 00 00 00 00 3F E6 66 66 42 D5 33 33 41 BB 33 33 42 46 66 66 00 00 00 00 42 05 99 9A 44 EF 33 33 43 86 66 66 44 9D 8C CD 00 00 00 00 43 C0 19 9A 00 00 00 00 00 00 00 00 00 00 00 00 00 00 00 00 00 00 00 00 41 66 66 66 3F 19 99 9A 41 20 00 00 00 00 00 00 40 73 33 33 42 8D 99 9A 41 56 66 66 41 F6 66 66 00 00 00 00 41 D3 02 62
write:14 03 07 CF 00 78 76 66
write:17 03 01 0F 00 08 77 05
17 03 10
2300 03 F4 33 00 00 00 00 00 00 E7 F6 00 00 39 DD
write:16 03 07 CF 00 78 77 84
write:1B 03 07 CF 00 78 76 99
1B 03 F0
27totalsize 240
45 19 F9 9A 41 D8 00 00 44 EF 53 33 00 00 00 00 44 02 59 9A 00 00 00 00 00 00 00 00 00 00 00 00 00 00 00 00 00 00 00 00 44 3B CC CD 41 99 99 9A 44 03 8C CD 00 00 00 00 43 4D 33 33 00 00 00 00 00 00 00 00 00 00 00 00 00 00 00 00 00 00 00 00 45 10 D3 33 41 F9 99 9A 44 E5 33 33 00 00 00 00 43 E1 E6 66 00 00 00 00 00 00 00 00 00 00 00 00 00 00 00 00 00 00 00 00 44 24 40 00 41 86 66 66 43 E5 CC CD 00 00 00 00 43 34 99 9A 00 00 00 00 00 00 00 00 00 00 00 00 00 00 00 00 00 00 00 00 45 1D 76 66 42 4E 66 66 44 F5 19 9A 00 00 00 00 43 FD 33 33 00 00 00 00 00 00 00 00 00 00 00 00 00 00 00 00 00 00 00 00 44 73 99 9A 42 34 00 00 44 1E 8C CD 00 00 00 00 43 93 4C CD 00 00 00 00 00 00 00 00 00 00 00 00 00 00 00 00 00 00 BD 24
write:14 03 01 0F 00 08 77 36
write:18 03 00 38 00 34 C7 D9
write:16 03 01 0F 00 08 76 D4
write:1B 03 01 0F 00 08 77 C9
write:15 03 00 38 00 34 C6 C4
write:18 03 07 CF 00 78 76 AA
write:17 03 00 38 00 34 C7 26
write:1C 03 00 38 00 34 C6 5D
write:15 03 07 CF 00 78 77 B7
write:18 03 01 0F 00 08 77 FA
write:17 03 07 CF 00 78 76 55
