nohup: ignoring input
Listening on :6002
received messag ?->? 
 124.160.213.34:15673 172.16.246.153:6002
write:12 03 00 38 00 34 C7 73
12 03 68
1843 6F 2A 3D 43 6F 62 0C 43 6F 24 DD 43 CF 27 2B 43 CF 27 2B 43 CF 11 06 43 1A 51 EC 43 45 28 F6 43 20 14 7B 47 01 60 00 47 2B 18 00 47 07 F0 00 47 DA 70 00 45 BB 80 00 45 A1 40 00 45 77 80 00 46 6C 40 00 47 0F E8 00 47 38 38 00 47 15 88 00 47 DC 50 00 3F 65 E3 54 3F 6D 91 68 3F 69 37 4C 3F 7D B2 2D 42 48 EE 0A
write:12 03 07 CF 00 78 76 00
12 03 F0
18totalsize 240
47 94 E7 CD 46 3D 73 33 47 0C 8F 33 00 00 00 00 46 DB C6 00 00 00 00 00 00 00 00 00 00 00 00 00 00 00 00 00 00 00 00 00 46 8B 7B 33 45 28 C9 9A 46 12 38 CD 00 00 00 00 45 B5 0C CD 00 00 00 00 00 00 00 00 00 00 00 00 00 00 00 00 00 00 00 00 47 A9 B7 80 46 5C 9F 33 47 22 D6 CD 00 00 00 00 46 F2 DF 9A 00 00 00 00 00 00 00 00 00 00 00 00 00 00 00 00 00 00 00 00 46 B2 70 66 45 65 B9 9A 46 3A EB 33 00 00 00 00 45 E1 09 9A 00 00 00 00 00 00 00 00 00 00 00 00 00 00 00 00 00 00 00 00 47 82 8D CD 46 41 63 33 46 D4 77 33 00 00 00 00 46 D5 0E 66 00 00 00 00 00 00 00 00 00 00 00 00 00 00 00 00 00 00 00 00 46 95 B4 66 45 65 46 66 45 FB B3 33 00 00 00 00 45 E8 7B 33 00 00 00 00 00 00 00 00 00 00 00 00 00 00 00 00 00 00 25 D1
write:12 03 01 0F 00 08 77 50
12 03 10
1800 41 30 9A 00 00 00 00 00 14 06 6B 00 00 45 52
43 6F 2A 3D
239.165
43 6F 62 0C
239.383
43 6F 24 DD
239.144
43 CF 27 2B
414.306
43 CF 27 2B
414.306
43 CF 11 06
414.133
43 1A 51 EC
154.32
43 45 28 F6
197.16
43 20 14 7B
160.08
47 01 60 00
33120
47 2B 18 00
43800
47 07 F0 00
34800
47 DA 70 00
111840
45 BB 80 00
6000
45 A1 40 00
5160
45 77 80 00
3960
46 6C 40 00
15120
47 0F E8 00
36840
47 38 38 00
47160
47 15 88 00
38280
47 DC 50 00
112800
3F 65 E3 54
0.898
3F 6D 91 68
0.928
3F 69 37 4C
0.911
3F 7D B2 2D
0.991
42 48 EE 0A
50.23246
47 94 E7 CD
76239.6
46 3D 73 33
12124.8
47 0C 8F 33
35983.2
00 00 00 00
0
46 DB C6 00
28131
00 00 00 00
0
00 00 00 00
0
00 00 00 00
0
00 00 00 00
0
00 00 00 00
0
46 8B 7B 33
17853.6
45 28 C9 9A
2700.6
46 12 38 CD
9358.2
00 00 00 00
0
45 B5 0C CD
5793.6
00 00 00 00
0
00 00 00 00
0
00 00 00 00
0
00 00 00 00
0
00 00 00 00
0
47 A9 B7 80
86895
46 5C 9F 33
14119.8
47 22 D6 CD
41686.8
00 00 00 00
0
46 F2 DF 9A
31087.8
00 00 00 00
0
00 00 00 00
0
00 00 00 00
0
00 00 00 00
0
00 00 00 00
0
46 B2 70 66
22840.2
45 65 B9 9A
3675.6
46 3A EB 33
11962.8
00 00 00 00
0
45 E1 09 9A
7201.2
00 00 00 00
0
00 00 00 00
0
00 00 00 00
0
00 00 00 00
0
00 00 00 00
0
47 82 8D CD
66843.6
46 41 63 33
12376.8
46 D4 77 33
27195.6
00 00 00 00
0
46 D5 0E 66
27271.2
00 00 00 00
0
00 00 00 00
0
00 00 00 00
0
00 00 00 00
0
00 00 00 00
0
46 95 B4 66
19162.2
45 65 46 66
3668.4
45 FB B3 33
8054.4
00 00 00 00
0
45 E8 7B 33
7439.4
00 00 00 00
0
00 00 00 00
0
00 00 00 00
0
00 00 00 00
0
00 00 25 D1
1.3566e-41
00 41 30 9A
4272282
00 00 00 00
0
00 14 06 6B
1312363
00 00 45 52
17746
239.165239.383239.144414.306414.306414.133154.32197.16160.08331204380034800111840600051603960151203684047160382801128000.8980.9280.9110.99150.2324676239.612124.835983.20281310000017853.62700.69358.205793.6000008689514119.841686.8031087.80000022840.23675.611962.807201.20000066843.612376.827195.6027271.20000019162.23668.48054.407439.400001.3566e-4118201711262340474272.28201312.36317.746insert into tbl_power_info_v2(P_A_DIANYA,P_B_DIANYA,P_C_DIANYA,P_UAB_XIANDIANYA,P_UBC_XIANDIANYA,P_UCA_XIANDIANYA,P_A_DIANLIU,P_B_DIANLIU,P_C_DIANLIU,P_A_YGGL,P_B_YGGL,P_C_YGGL,P_HXYGGL,P_A_WGGL,P_B_WGGL,P_C_WGGL,P_HXWGGL,P_A_SZGL,P_B_SZGL,P_C_SZGL,P_HXSZGL,P_A_GLYS,P_B_GLYS,P_C_GLYS,P_HXGLYS,P_DWPL,P_BY_KwhZ,P_BY_KwhJ,P_BY_KwhF,P_BY_KwhP,P_BY_KwhG,P_BY_HKwhZ,P_BY_HKwhJ,P_BY_HKwhF,P_BY_HKwhP,P_BY_HKwhG, P_BY_KvarhZ,P_BY_KvarhJ,P_BY_KvarhF,P_BY_KvarhP,P_BY_KvarhG, P_BY_HKvarhZ,P_BY_HKvarhJ,P_BY_HKvarhF,P_BY_HKvarhP,P_BY_HKvarhG, P_SY_KwhZ,P_SY_KwhJ,P_SY_KwhF,P_SY_KwhP,P_SY_KwhG, P_SY_HKwhZ,P_SY_HKwhJ,P_SY_HKwhF,P_SY_HKwhP,P_SY_HKwhG, P_SY_KvarhZ,P_SY_KvarhJ,P_SY_KvarhF,P_SY_KvarhP,P_SY_KvarhG, P_SY_HKvarhZ,P_SY_HKvarhJ,P_SY_HKvarhF,P_SY_HKvarhP,P_SY_HKvarhG, P_SSY_KwhZ,P_SSY_KwhJ,P_SSY_KwhF,P_SSY_KwhP,P_SSY_KwhG, P_SSY_HKwhZ,P_SSY_HKwhJ,P_SSY_HKwhF,P_SSY_HKwhP,P_SSY_HKwhG, P_SSY_KvarhZ,P_SSY_KvarhJ,P_SSY_KvarhF,P_SSY_KvarhP,P_SSY_KvarhG, P_SSY_HKvarhZ,P_SSY_HKvarhJ,P_SSY_HKvarhF,P_SSY_HKvarhP,P_SSY_HKvarhG,P_CODE,P_TIME,P_ZXYGDN,P_FXYGDN,P_ZXWGDN,P_FXWGDN)values(239.165,239.383,239.144,414.306,414.306,414.133,154.32,197.16,160.08,33120,43800,34800,111840,6000,5160,3960,15120,36840,47160,38280,112800,0.898,0.928,0.911,0.991,50.23246,76239.6,12124.8,35983.2,0,28131,0,0,0,0,0,17853.6,2700.6,9358.2,0,5793.6,0,0,0,0,0,86895,14119.8,41686.8,0,31087.8,0,0,0,0,0,22840.2,3675.6,11962.8,0,7201.2,0,0,0,0,0,66843.6,12376.8,27195.6,0,27271.2,0,0,0,0,0,19162.2,3668.4,8054.4,0,7439.4,0,0,0,0,1.3566e-41,18,20171126234047,4272.282,0,1312.363,17.746)
写入成功读取完毕一个
write:13 03 00 38 00 34 C6 A2
77 77 77
heart:77 77 77 2E 75 73 72 2E 63 6E
13 03 68
1943 6E CF 9E 43 6F 0E 14 43 6E F1 68 43 CE E4 9C 43 CE EF BE 43 CE D9 9A 00 00 00 00 00 00 00 00 40 0A 3D 71 00 00 00 00 00 00 00 00 43 C8 00 00 43 F0 00 00 43 70 00 00 43 70 00 00 43 70 00 00 44 34 00 00 43 70 00 00 43 70 00 00 43 F0 00 00 44 5C 00 00 3E 27 EF 9E 3D E5 60 42 3F 59 99 9A 3F 0F DF 3B 42 48 42 8C
write:13 03 07 CF 00 78 77 D1
13 03 F0
19totalsize 240
44 A2 F3 33 42 DC CC CD 44 4A E6 66 00 00 00 00 43 BE 99 9A 00 00 00 00 00 00 00 00 00 00 00 00 00 00 00 00 00 00 00 00 43 0F 33 33 3E CC CC CD 43 00 00 00 00 00 00 00 41 66 66 66 43 DB 99 9A 42 9B 33 33 43 2C 00 00 00 00 00 00 43 3C CC CD 44 5A CC CD 42 BC 00 00 43 F7 66 66 00 00 00 00 43 8F 00 00 00 00 00 00 00 00 00 00 00 00 00 00 00 00 00 00 00 00 00 00 40 80 00 00 00 00 00 00 40 4C CC CD 00 00 00 00 3F 4C CC CD 44 1A 99 9A 42 C4 00 00 43 85 66 66 00 00 00 00 43 7D 33 33 44 DC A6 66 42 DB 33 33 44 8E CC CD 00 00 00 00 44 00 4C CD 00 00 00 00 00 00 00 00 00 00 00 00 00 00 00 00 00 00 00 00 42 5E 66 66 3E CC CC CD 42 21 99 9A 00 00 00 00 41 60 00 00 43 FE 00 00 42 B6 66 66 43 3F 99 9A 00 00 00 00 43 60 CA 49
write:13 03 01 0F 00 08 76 81
write:14 03 00 38 00 34 C7 15
write:14 03 07 CF 00 78 76 66
received messag ?->? 
 124.160.213.34:15674 172.16.246.153:6002
write:12 03 00 38 00 34 C7 73
77 77 77
heart:77 77 77 2E 75 73 72 2E 63 6E
13 03 10
1900 02 94 92 00 00 00 00 00 00 35 3F 00 00 A5 54
43 6E CF 9E
238.811
43 6F 0E 14
239.055
43 6E F1 68
238.943
43 CE E4 9C
413.786
43 CE EF BE
413.873
43 CE D9 9A
413.7
00 00 00 00
0
00 00 00 00
0
40 0A 3D 71
2.16
00 00 00 00
0
00 00 00 00
0
43 C8 00 00
400
43 F0 00 00
480
43 70 00 00
240
43 70 00 00
240
43 70 00 00
240
44 34 00 00
720
43 70 00 00
240
43 70 00 00
240
43 F0 00 00
480
44 5C 00 00
880
3E 27 EF 9E
0.164
3D E5 60 42
0.112
3F 59 99 9A
0.85
3F 0F DF 3B
0.562
42 48 42 8C
50.064987
44 A2 F3 33
1303.6
42 DC CC CD
110.4
44 4A E6 66
811.6
00 00 00 00
0
43 BE 99 9A
381.2
00 00 00 00
0
00 00 00 00
0
00 00 00 00
0
00 00 00 00
0
00 00 00 00
0
43 0F 33 33
143.2
3E CC CC CD
0.4
43 00 00 00
128
00 00 00 00
0
41 66 66 66
14.4
43 DB 99 9A
439.2
42 9B 33 33
77.6
43 2C 00 00
172
00 00 00 00
0
43 3C CC CD
188.8
44 5A CC CD
875.2
42 BC 00 00
94
43 F7 66 66
494.8
00 00 00 00
0
43 8F 00 00
286
00 00 00 00
0
00 00 00 00
0
00 00 00 00
0
00 00 00 00
0
00 00 00 00
0
40 80 00 00
4
00 00 00 00
0
40 4C CC CD
3.2
00 00 00 00
0
3F 4C CC CD
0.8
44 1A 99 9A
618.4
42 C4 00 00
98
43 85 66 66
266.8
00 00 00 00
0
43 7D 33 33
253.2
44 DC A6 66
1765.2
42 DB 33 33
109.6
44 8E CC CD
1142.4
00 00 00 00
0
44 00 4C CD
513.2
00 00 00 00
0
00 00 00 00
0
00 00 00 00
0
00 00 00 00
0
00 00 00 00
0
42 5E 66 66
55.6
3E CC CC CD
0.4
42 21 99 9A
40.4
00 00 00 00
0
41 60 00 00
14
43 FE 00 00
508
42 B6 66 66
91.2
43 3F 99 9A
191.6
00 00 00 00
0
43 60 CA 49
224.79018
00 02 94 92
169106
00 00 00 00
0
00 00 35 3F
13631
00 00 A5 54
42324
238.811239.055238.943413.786413.873413.7002.16004004802402402407202402404808800.1640.1120.850.56250.0649871303.6110.4811.60381.200000143.20.4128014.4439.277.61720188.8875.294494.8028600000403.200.8618.498266.80253.21765.2109.61142.40513.20000055.60.440.401450891.2191.60224.790181920171126234240169.106013.63142.324insert into tbl_power_info_v2(P_A_DIANYA,P_B_DIANYA,P_C_DIANYA,P_UAB_XIANDIANYA,P_UBC_XIANDIANYA,P_UCA_XIANDIANYA,P_A_DIANLIU,P_B_DIANLIU,P_C_DIANLIU,P_A_YGGL,P_B_YGGL,P_C_YGGL,P_HXYGGL,P_A_WGGL,P_B_WGGL,P_C_WGGL,P_HXWGGL,P_A_SZGL,P_B_SZGL,P_C_SZGL,P_HXSZGL,P_A_GLYS,P_B_GLYS,P_C_GLYS,P_HXGLYS,P_DWPL,P_BY_KwhZ,P_BY_KwhJ,P_BY_KwhF,P_BY_KwhP,P_BY_KwhG,P_BY_HKwhZ,P_BY_HKwhJ,P_BY_HKwhF,P_BY_HKwhP,P_BY_HKwhG, P_BY_KvarhZ,P_BY_KvarhJ,P_BY_KvarhF,P_BY_KvarhP,P_BY_KvarhG, P_BY_HKvarhZ,P_BY_HKvarhJ,P_BY_HKvarhF,P_BY_HKvarhP,P_BY_HKvarhG, P_SY_KwhZ,P_SY_KwhJ,P_SY_KwhF,P_SY_KwhP,P_SY_KwhG, P_SY_HKwhZ,P_SY_HKwhJ,P_SY_HKwhF,P_SY_HKwhP,P_SY_HKwhG, P_SY_KvarhZ,P_SY_KvarhJ,P_SY_KvarhF,P_SY_KvarhP,P_SY_KvarhG, P_SY_HKvarhZ,P_SY_HKvarhJ,P_SY_HKvarhF,P_SY_HKvarhP,P_SY_HKvarhG, P_SSY_KwhZ,P_SSY_KwhJ,P_SSY_KwhF,P_SSY_KwhP,P_SSY_KwhG, P_SSY_HKwhZ,P_SSY_HKwhJ,P_SSY_HKwhF,P_SSY_HKwhP,P_SSY_HKwhG, P_SSY_KvarhZ,P_SSY_KvarhJ,P_SSY_KvarhF,P_SSY_KvarhP,P_SSY_KvarhG, P_SSY_HKvarhZ,P_SSY_HKvarhJ,P_SSY_HKvarhF,P_SSY_HKvarhP,P_SSY_HKvarhG,P_CODE,P_TIME,P_ZXYGDN,P_FXYGDN,P_ZXWGDN,P_FXWGDN)values(238.811,239.055,238.943,413.786,413.873,413.7,0,0,2.16,0,0,400,480,240,240,240,720,240,240,480,880,0.164,0.112,0.85,0.562,50.064987,1303.6,110.4,811.6,0,381.2,0,0,0,0,0,143.2,0.4,128,0,14.4,439.2,77.6,172,0,188.8,875.2,94,494.8,0,286,0,0,0,0,0,4,0,3.2,0,0.8,618.4,98,266.8,0,253.2,1765.2,109.6,1142.4,0,513.2,0,0,0,0,0,55.6,0.4,40.4,0,14,508,91.2,191.6,0,224.79018,19,20171126234240,169.106,0,13.631,42.324)
写入成功读取完毕一个
FB F1 ED
heart:FB F1 ED FF E2 E9 6E 9C 6A 43 6E FF BE 43 6E 9C 6A 43 CE C3 75 43 CE C3 75 43 CE A2 2D 41 10 A3 D7 40 DD 70 A4 41 12 8F 5C 44 AA 00 00 44 7A 00 00 44 AA 00 00 45 66 00 00 43 A0 00 00 43 8C 00 00 43 8C 00 00 44 5C 00 00 45 07 00 00 44 CD 00 00 45 09 80 00 45 6D 80 00 3F 02 08 00 42 19 FB 41 07 E7 40 1F FB 1B FF 04 EF 41 48 FB C4 FC 6E 24 FF EC 0B FF 52 43 CE B8 52 43 CE 8C 08 43 1B E1 48 43 1C 3D 71 43 22 99 9A 47 01 D8 00 47 00 70 00 47 0B 38 00 47 C6 C0 00 45 CE 40 00 45 83 40 00 45 83 40 00 46 6A 60 00 47 11 50 00 47 11 C8 00 47 17 68 00 47 C8 DC 00 3F 64 DD 2F 3F 61 CA C1 3F 6B 43 96 3F 7D 2F 1B 42 48 24 41
77 77 77
heart:77 77 77 2E 75 73 72 2E 63 6E
write:14 03 01 0F 00 08 77 36
14 03 10
2000 04 21 67 00 00 00 00 00 00 13 51 00 00 2F 8E
write:12 03 07 CF 00 78 76 00
write:15 03 00 38 00 34 C6 C4
write:12 03 01 0F 00 08 77 50
write:15 03 07 CF 00 78 77 B7
12 03 F0
18totalsize 240
47 94 EA 80 46 3D 86 66 47 0C 8F 33 00 00 00 00 46 DB C6 00 00 00 00 00 00 00 00 00 00 00 00 00 00 00 00 00 00 00 00 00 46 8B 7C 66 45 28 DC CD 46 12 38 CD 00 00 00 00 45 B5 0C CD 00 00 00 00 00 00 00 00 00 00 00 00 00 00 00 00 00 00 00 00 47 A9 B7 80 46 5C 9F 33 47 22 D6 CD 00 00 00 00 46 F2 DF 9A 00 00 00 00 00 00 00 00 00 00 00 00 00 00 00 00 00 00 00 00 46 B2 70 66 45 65 B9 9A 46 3A EB 33 00 00 00 00 45 E1 09 9A 00 00 00 00 00 00 00 00 00 00 00 00 00 00 00 00 00 00 00 00 47 82 8D CD 46 41 63 33 46 D4 77 33 00 00 00 00 46 D5 0E 66 00 00 00 00 00 00 00 00 00 00 00 00 00 00 00 00 00 00 00 00 46 95 B4 66 45 65 46 66 45 FB B3 33 00 00 00 00 45 E8 7B 33 00 00 00 00 00 00 00 00 00 00 00 00 00 00 00 00 00 00 F6 0D
12 03 10
1800 41 30 C7 00 00 00 00 00 14 06 73 00 00 FF F8
write:13 03 00 38 00 34 C6 A2
write:15 03 01 0F 00 08 76 E7
write:13 03 07 CF 00 78 77 D1
write:16 03 00 38 00 34 C6 F7
77 77 77
heart:77 77 77 2E 75 73 72 2E 63 6E
write:13 03 01 0F 00 08 76 81
write:16 03 07 CF 00 78 77 84
write:14 03 00 38 00 34 C7 15
write:16 03 01 0F 00 08 76 D4
77 77 77
heart:77 77 77 2E 75 73 72 2E 63 6E
received messag ?->? 
 124.160.213.34:15675 172.16.246.153:6002
write:12 03 00 38 00 34 C7 73
write:14 03 07 CF 00 78 76 66
12 03 68
1843 6E BA A0 43 6E E8 31 43 6E A5 60 43 CE CE 77 43 CE C3 75 43 CE AD 2F 43 21 28 F6 43 3B CC CD 43 23 CC CD 47 07 78 00 47 20 C8 00 47 0B 38 00 47 D9 BC 00 45 BF 40 00 45 96 00 00 45 7F 00 00 46 68 80 00 47 16 78 00 47 2F 50 00 47 18 D0 00 47 DB D8 00 3F 66 E9 79 3F 6A C0 83 3F 69 BA 5E 3F 7D B2 2D 42 48 75 7A
13 03 68
1943 6E D1 68 43 6F 1B 23 43 6E DE FA 43 CE EF BE 43 CE EF BE 43 CE CE 77 00 00 00 00 00 00 00 00 40 0A 00 00 00 00 00 00 00 00 00 00 00 00 00 00 00 00 00 00 00 00 00 00 00 00 00 00 00 00 00 00 00 00 00 00 00 00 00 00 00 00 00 00 00 00 00 00 00 00 00 00 00 00 00 00 00 00 00 00 00 00 00 00 00 00 00 00 00 00 00 00
3D 71 00
heart:3D 71 00 00 00 00 00 00 00 00 43 C8 00 00 43 F0 00 00 43 70 00 00 43 70 00 00 43 70 00 00 44 34 00 00 43 70 00 00 43 70 00 00 43 F0 00 00 44 5C 00 00 3E 2E 14 7B 3D EB 85 1F 3F 5A 5E 35 3F 10 62 4E 42 48 FB A2
FE FE FF
heart:FE FE FF EF F5 CF FF FF 77 CB F7 EF FF 44 4A E6 66 00 00 00 00 43 BE 99 9A 00 00 00 00 00 00 00 00 00 00 00 00 00 00 00 00 00 00 00 00 43 0F 33 33 3E CC CC CD 43 00 00 00 00 00 00 00 41 66 66 66 43 DB 99 9A 42 9B 33 33 43 2C 00 00 00 00 00 00 43 3C CC CD 44 5A CC CD 42 BC 00 00 43 F7 66 66 00 00 00 00 43 8F 00 00 00 00 00 00 00 00 00 00 00 00 00 00 00 00 00 00 00 00 00 00 40 80 00 00 00 00 00 00 40 4C CC CD 00 00 00 00 3F 4C CC CD 44 1A 99 9A 42 C4 00 00 43 85 66 66 00 00 00 00 43 7D 33 33 44 DC A6 66 42 DB 33 33 44 8E CC CD 00 00 00 00 44 00 4C CD 00 00 00 00 00 00 00 00 00 00 00 00 00 00 00 00 00 00 00 00 42 5E 66 66 3E CC CC CD 42 21 99 9A 00 00 00 00 41 60 00 00 43 FE 00 00 42 B6 66 66 43 3F 99 9A 00 00 00 00 43 60 CA 49
write:17 03 00 38 00 34 C7 26
write:12 03 07 CF 00 78 76 00
write:14 03 01 0F 00 08 77 36
14 03 10
2000 04 21 6C 00 00 00 00 00 00 13 51 00 00 0A AA
12 03 F0
18totalsize 240
47 94 EC 9A 46 3D 97 33 47 0C 8F 33 00 00 00 00 46 DB C6 00 00 00 00 00 00 00 00 00 00 00 00 00 00 00 00 00 00 00 00 00 46 8B 7D 9A 45 28 E6 66 46 12 38 CD 00 00 00 00 45 B5 0C CD 00 00 00 00 00 00 00 00 00 00 00 00 00 00 00 00 00 00 00 00 47 A9 B7 80 46 5C 9F 33 47 22 D6 CD 00 00 00 00 46 F2 DF 9A 00 00 00 00 00 00 00 00 00 00 00 00 00 00 00 00 00 00 00 00 46 B2 70 66 45 65 B9 9A 46 3A EB 33 00 00 00 00 45 E1 09 9A 00 00 00 00 00 00 00 00 00 00 00 00 00 00 00 00 00 00 00 00 47 82 8D CD 46 41 63 33 46 D4 77 33 00 00 00 00 46 D5 0E 66 00 00 00 00 00 00 00 00 00 00 00 00 00 00 00 00 00 00 00 00 46 95 B4 66 45 65 46 66 45 FB B3 33 00 00 00 00 45 E8 7B 33 00 00 00 00 00 00 00 00 00 00 00 00 00 00 00 00 00 00 80 A8
write:17 03 07 CF 00 78 76 55
write:12 03 01 0F 00 08 77 50
write:15 03 00 38 00 34 C6 C4
write:17 03 01 0F 00 08 77 05
write:13 03 00 38 00 34 C6 A2
write:15 03 07 CF 00 78 77 B7
12 03 10
1800 41 30 E7 00 00 00 00 00 14 06 77 00 00 15 F9
43 6E BA A0
238.729
43 6E E8 31
238.907
43 6E A5 60
238.646
43 CE CE 77
413.613
43 CE C3 75
413.527
43 CE AD 2F
413.353
43 21 28 F6
161.16
43 3B CC CD
187.8
43 23 CC CD
163.8
47 07 78 00
34680
47 20 C8 00
41160
47 0B 38 00
35640
47 D9 BC 00
111480
45 BF 40 00
6120
45 96 00 00
4800
45 7F 00 00
4080
46 68 80 00
14880
47 16 78 00
38520
47 2F 50 00
44880
47 18 D0 00
39120
47 DB D8 00
112560
3F 66 E9 79
0.902
3F 6A C0 83
0.917
3F 69 BA 5E
0.913
3F 7D B2 2D
0.991
42 48 75 7A
50.114723
47 94 EC 9A
76249.2
46 3D 97 33
12133.8
47 0C 8F 33
35983.2
00 00 00 00
0
46 DB C6 00
28131
00 00 00 00
0
00 00 00 00
0
00 00 00 00
0
00 00 00 00
0
00 00 00 00
0
46 8B 7D 9A
17854.8
45 28 E6 66
2702.4
46 12 38 CD
9358.2
00 00 00 00
0
45 B5 0C CD
5793.6
00 00 00 00
0
00 00 00 00
0
00 00 00 00
0
00 00 00 00
0
00 00 00 00
0
47 A9 B7 80
86895
46 5C 9F 33
14119.8
47 22 D6 CD
41686.8
00 00 00 00
0
46 F2 DF 9A
31087.8
00 00 00 00
0
00 00 00 00
0
00 00 00 00
0
00 00 00 00
0
00 00 00 00
0
46 B2 70 66
22840.2
45 65 B9 9A
3675.6
46 3A EB 33
11962.8
00 00 00 00
0
45 E1 09 9A
7201.2
00 00 00 00
0
00 00 00 00
0
00 00 00 00
0
00 00 00 00
0
00 00 00 00
0
47 82 8D CD
66843.6
46 41 63 33
12376.8
46 D4 77 33
27195.6
00 00 00 00
0
46 D5 0E 66
27271.2
00 00 00 00
0
00 00 00 00
0
00 00 00 00
0
00 00 00 00
0
00 00 00 00
0
46 95 B4 66
19162.2
45 65 46 66
3668.4
45 FB B3 33
8054.4
00 00 00 00
0
45 E8 7B 33
7439.4
00 00 00 00
0
00 00 00 00
0
00 00 00 00
0
00 00 00 00
0
00 00 80 A8
4.6153e-41
00 41 30 E7
4272359
00 00 00 00
0
00 14 06 77
1312375
00 00 15 F9
5625
238.729238.907238.646413.613413.527413.353161.16187.8163.8346804116035640111480612048004080148803852044880391201125600.9020.9170.9130.99150.11472376249.212133.835983.20281310000017854.82702.49358.205793.6000008689514119.841686.8031087.80000022840.23675.611962.807201.20000066843.612376.827195.6027271.20000019162.23668.48054.407439.400004.6153e-4118201711262346004272.35901312.3755.625insert into tbl_power_info_v2(P_A_DIANYA,P_B_DIANYA,P_C_DIANYA,P_UAB_XIANDIANYA,P_UBC_XIANDIANYA,P_UCA_XIANDIANYA,P_A_DIANLIU,P_B_DIANLIU,P_C_DIANLIU,P_A_YGGL,P_B_YGGL,P_C_YGGL,P_HXYGGL,P_A_WGGL,P_B_WGGL,P_C_WGGL,P_HXWGGL,P_A_SZGL,P_B_SZGL,P_C_SZGL,P_HXSZGL,P_A_GLYS,P_B_GLYS,P_C_GLYS,P_HXGLYS,P_DWPL,P_BY_KwhZ,P_BY_KwhJ,P_BY_KwhF,P_BY_KwhP,P_BY_KwhG,P_BY_HKwhZ,P_BY_HKwhJ,P_BY_HKwhF,P_BY_HKwhP,P_BY_HKwhG, P_BY_KvarhZ,P_BY_KvarhJ,P_BY_KvarhF,P_BY_KvarhP,P_BY_KvarhG, P_BY_HKvarhZ,P_BY_HKvarhJ,P_BY_HKvarhF,P_BY_HKvarhP,P_BY_HKvarhG, P_SY_KwhZ,P_SY_KwhJ,P_SY_KwhF,P_SY_KwhP,P_SY_KwhG, P_SY_HKwhZ,P_SY_HKwhJ,P_SY_HKwhF,P_SY_HKwhP,P_SY_HKwhG, P_SY_KvarhZ,P_SY_KvarhJ,P_SY_KvarhF,P_SY_KvarhP,P_SY_KvarhG, P_SY_HKvarhZ,P_SY_HKvarhJ,P_SY_HKvarhF,P_SY_HKvarhP,P_SY_HKvarhG, P_SSY_KwhZ,P_SSY_KwhJ,P_SSY_KwhF,P_SSY_KwhP,P_SSY_KwhG, P_SSY_HKwhZ,P_SSY_HKwhJ,P_SSY_HKwhF,P_SSY_HKwhP,P_SSY_HKwhG, P_SSY_KvarhZ,P_SSY_KvarhJ,P_SSY_KvarhF,P_SSY_KvarhP,P_SSY_KvarhG, P_SSY_HKvarhZ,P_SSY_HKvarhJ,P_SSY_HKvarhF,P_SSY_HKvarhP,P_SSY_HKvarhG,P_CODE,P_TIME,P_ZXYGDN,P_FXYGDN,P_ZXWGDN,P_FXWGDN)values(238.729,238.907,238.646,413.613,413.527,413.353,161.16,187.8,163.8,34680,41160,35640,111480,6120,4800,4080,14880,38520,44880,39120,112560,0.902,0.917,0.913,0.991,50.114723,76249.2,12133.8,35983.2,0,28131,0,0,0,0,0,17854.8,2702.4,9358.2,0,5793.6,0,0,0,0,0,86895,14119.8,41686.8,0,31087.8,0,0,0,0,0,22840.2,3675.6,11962.8,0,7201.2,0,0,0,0,0,66843.6,12376.8,27195.6,0,27271.2,0,0,0,0,0,19162.2,3668.4,8054.4,0,7439.4,0,0,0,0,4.6153e-41,18,20171126234600,4272.359,0,1312.375,5.625)
写入成功读取完毕一个
15 03 68
2143 6E B7 CF 43 6F 01 89 43 6E CC 4A 43 CE D9 9A 43 CE D9 9A 43 CE B8 52 00 00 00 00 00 00 00 00 00 00 00 00 00 00 00 00 00 00 00 00 00 00 00 00 00 00 00 00 00 00 00 00 00 00 00 00 00 00 00 00 00 00 00 00 00 00 00 00 00 00 00 00 00 00 00 00 00 00 00 00 00 00 00 00 00 00 00 00 00 00 00 00 00 00 00 00 42 48 76 6F
15 03 68
2143 6E AF 9E 43 6F 1D F4 43 6E B2 2D 43 CE D9 9A 43 CE D9 9A 43 CE A2 2D 00 00 00 00 00 00 00 00 00 00 00 00 00 00 00 00 00 00 00 00 00 00 00 00 00 00 00 00 00 00 00 00 00 00 00 00 00 00 00 00 00 00 00 00 00 00 00 00 00 00 00 00 00 00 00 00 00 00 00 00 00 00 00 00 00 00 00 00 00 00 00 00 00 00 00 00 42 48 DC 73
13 03 68
1943 6E AE 56 43 6F 22 4E 43 6E D0 62 43 CE D9 9A 43 CE EF BE 43 CE B8 52 00 00 00 00 3F 99 99 9A 40 0A 3D 71 00 00 00 00 00 00 00 00 43 C8 00 00 43 F0 00 00 43 70 00 00 43 70 00 00 43 70 00 00 44 34 00 00 43 70 00 00 43 70 00 00 43 F0 00 00 44 5C 00 00 3E 2D 0E 56 3D D9 16 87 3F 5A 1C AC 3F 0F 9D B2 42 48 7D 92
write:18 03 00 38 00 34 C7 D9
15 03 F0
21totalsize 240
40 CC CC CD 00 00 00 00 40 A6 66 66 00 00 00 00 3F 99 99 9A 00 00 00 00 00 00 00 00 00 00 00 00 00 00 00 00 00 00 00 00 3E CC CC CD 00 00 00 00 3E CC CC CD 00 00 00 00 00 00 00 00 00 00 00 00 00 00 00 00 00 00 00 00 00 00 00 00 00 00 00 00 40 8C CC CD 00 00 00 00 40 66 66 66 00 00 00 00 3F 4C CC CD 00 00 00 00 00 00 00 00 00 00 00 00 00 00 00 00 00 00 00 00 00 00 00 00 00 00 00 00 00 00 00 00 00 00 00 00 00 00 00 00 00 00 00 00 00 00 00 00 00 00 00 00 00 00 00 00 00 00 00 00 42 1E 66 66 00 00 00 00 41 F3 33 33 00 00 00 00 41 13 33 33 00 00 00 00 00 00 00 00 00 00 00 00 00 00 00 00 00 00 00 00 42 D8 00 00 00 00 00 00 42 A3 33 33 00 00 00 00 41 D0 00 00 00 00 00 00 00 00 00 00 00 00 00 00 00 00 00 00 00 00 7F 8C
write:13 03 07 CF 00 78 77 D1
write:15 03 01 0F 00 08 76 E7
13 03 F0
19totalsize 261
44 A2 F3 33 42 DC CC CD 44 4A E6 66 00 00 00 00 43 BE 99 9A 00 00 00 00 00 00 00 00 00 00 00 00 00 00 00 00 00 00 00 00 43 0F 33 33 3E CC CC CD 43 00 00 00 00 00 00 00 41 66 66 66 43 DB 99 9A 42 9B 33 33 43 2C 00 00 00 00 00 00 43 3C CC CD 44 5A CC CD 42 BC 00 00 43 F7 66 66 00 00 00 00 43 8F 00 00 00 00 00 00 00 00 00 00 00 00 00 00 00 00 00 00 00 00 00 00 40 80 00 00 00 00 00 00 40 4C CC CD 00 00 00 00 3F 4C CC CD 44 1A 99 9A 42 C4 00 00 43 85 66 66 00 00 00 00 43 7D 33 33 15 03 10 00 00 00 00 18 95 00 00 00 00 00 00 1D 3D 00 00 8A E4 44 DC A6 66 42 DB 33 33 44 8E CC CD 00 00 00 00 44 00 4C CD 00 00 00 00 00 00 00 00 00 00 00 00 00 00 00 00 00 00 00 00 42 5E 66 66 3E CC CC CD 42 21 99 9A 00 00 00 00 41 60 00 00 43 FE 00 00 42 B6 66 66 43 3F 99 9A 00 00 00 00 43 60 CA 49
write:18 03 07 CF 00 78 76 AA
write:13 03 01 0F 00 08 76 81
write:16 03 00 38 00 34 C6 F7
write:18 03 01 0F 00 08 77 FA
write:14 03 00 38 00 34 C7 15
77 77 77
heart:77 77 77 2E 75 73 72 2E 63 6E
write:16 03 07 CF 00 78 77 84
write:19 03 00 38 00 34 C6 08
write:14 03 07 CF 00 78 76 66
write:16 03 01 0F 00 08 76 D4
13 03 10
1900 02 94 92 00 00 00 00 00 00 35 3F 00 00 A5 54
43 6E AE 56
238.681
43 6F 22 4E
239.134
43 6E D0 62
238.814
43 CE D9 9A
413.7
43 CE EF BE
413.873
43 CE B8 52
413.44
00 00 00 00
0
3F 99 99 9A
1.2
40 0A 3D 71
2.16
00 00 00 00
0
00 00 00 00
0
43 C8 00 00
400
43 F0 00 00
480
43 70 00 00
240
43 70 00 00
240
43 70 00 00
240
44 34 00 00
720
43 70 00 00
240
43 70 00 00
240
43 F0 00 00
480
44 5C 00 00
880
3E 2D 0E 56
0.169
3D D9 16 87
0.106
3F 5A 1C AC
0.852
3F 0F 9D B2
0.561
42 48 7D 92
50.122627
44 A2 F3 33
1303.6
42 DC CC CD
110.4
44 4A E6 66
811.6
00 00 00 00
0
43 BE 99 9A
381.2
00 00 00 00
0
00 00 00 00
0
00 00 00 00
0
00 00 00 00
0
00 00 00 00
0
43 0F 33 33
143.2
3E CC CC CD
0.4
43 00 00 00
128
00 00 00 00
0
41 66 66 66
14.4
43 DB 99 9A
439.2
42 9B 33 33
77.6
43 2C 00 00
172
00 00 00 00
0
43 3C CC CD
188.8
44 5A CC CD
875.2
42 BC 00 00
94
43 F7 66 66
494.8
00 00 00 00
0
43 8F 00 00
286
00 00 00 00
0
00 00 00 00
0
00 00 00 00
0
00 00 00 00
0
00 00 00 00
0
40 80 00 00
4
00 00 00 00
0
40 4C CC CD
3.2
00 00 00 00
0
3F 4C CC CD
0.8
44 1A 99 9A
618.4
42 C4 00 00
98
43 85 66 66
266.8
00 00 00 00
0
43 7D 33 33
253.2
15 03 10 00
2.646786e-26
00 00 00 18
3.4e-44
95 00 00 00
-2.5849394e-26
00 00 00 1D
4e-44
3D 00 00 8A
0.031250514
E4 44 DC A6
-1.4525845e+22
66 42 DB 33
2.3004565e+23
33 44 8E CC
4.576468e-08
CD 00 00 00
-1.3421773e+08
00 44 00 4C
6.24492e-39
CD 00 00 00
-1.3421773e+08
00 00 00 00
0
00 00 00 00
0
00 00 00 00
0
00 00 00 00
0
00 42 5E 66
6.095007e-39
66 3E CC CC
2.2525687e+23
CD 42 21 99
-2.0356136e+08
9A 00 00 00
-2.646978e-23
00 41 60 00
6.003746e-39
00 43 FE 00
6.244096e-39
00 42 B6 66
6.126575e-39
66 43 3F 99
2.3050866e+23
9A 00 00 00
-2.646978e-23
00 43 60 CA
6.1877e-39
49 00 00 00
524288
00 02 94 92
169106
00 00 00 00
0
00 00 35 3F
13631
00 00 A5 54
42324
238.681239.134238.814413.7413.873413.4401.22.16004004802402402407202402404808800.1690.1060.8520.56150.1226271303.6110.4811.60381.200000143.20.4128014.4439.277.61720188.8875.294494.8028600000403.200.8618.498266.80253.22.646786e-263.4e-44-2.5849394e-264e-440.031250514-1.4525845e+222.3004565e+234.576468e-08-1.3421773e+086.24492e-39-1.3421773e+0800006.095007e-392.2525687e+23-2.0356136e+08-2.646978e-236.003746e-396.244096e-396.126575e-392.3050866e+23-2.646978e-236.1877e-395242881920171126234723169.106013.63142.324insert into tbl_power_info_v2(P_A_DIANYA,P_B_DIANYA,P_C_DIANYA,P_UAB_XIANDIANYA,P_UBC_XIANDIANYA,P_UCA_XIANDIANYA,P_A_DIANLIU,P_B_DIANLIU,P_C_DIANLIU,P_A_YGGL,P_B_YGGL,P_C_YGGL,P_HXYGGL,P_A_WGGL,P_B_WGGL,P_C_WGGL,P_HXWGGL,P_A_SZGL,P_B_SZGL,P_C_SZGL,P_HXSZGL,P_A_GLYS,P_B_GLYS,P_C_GLYS,P_HXGLYS,P_DWPL,P_BY_KwhZ,P_BY_KwhJ,P_BY_KwhF,P_BY_KwhP,P_BY_KwhG,P_BY_HKwhZ,P_BY_HKwhJ,P_BY_HKwhF,P_BY_HKwhP,P_BY_HKwhG, P_BY_KvarhZ,P_BY_KvarhJ,P_BY_KvarhF,P_BY_KvarhP,P_BY_KvarhG, P_BY_HKvarhZ,P_BY_HKvarhJ,P_BY_HKvarhF,P_BY_HKvarhP,P_BY_HKvarhG, P_SY_KwhZ,P_SY_KwhJ,P_SY_KwhF,P_SY_KwhP,P_SY_KwhG, P_SY_HKwhZ,P_SY_HKwhJ,P_SY_HKwhF,P_SY_HKwhP,P_SY_HKwhG, P_SY_KvarhZ,P_SY_KvarhJ,P_SY_KvarhF,P_SY_KvarhP,P_SY_KvarhG, P_SY_HKvarhZ,P_SY_HKvarhJ,P_SY_HKvarhF,P_SY_HKvarhP,P_SY_HKvarhG, P_SSY_KwhZ,P_SSY_KwhJ,P_SSY_KwhF,P_SSY_KwhP,P_SSY_KwhG, P_SSY_HKwhZ,P_SSY_HKwhJ,P_SSY_HKwhF,P_SSY_HKwhP,P_SSY_HKwhG, P_SSY_KvarhZ,P_SSY_KvarhJ,P_SSY_KvarhF,P_SSY_KvarhP,P_SSY_KvarhG, P_SSY_HKvarhZ,P_SSY_HKvarhJ,P_SSY_HKvarhF,P_SSY_HKvarhP,P_SSY_HKvarhG,P_CODE,P_TIME,P_ZXYGDN,P_FXYGDN,P_ZXWGDN,P_FXWGDN)values(238.681,239.134,238.814,413.7,413.873,413.44,0,1.2,2.16,0,0,400,480,240,240,240,720,240,240,480,880,0.169,0.106,0.852,0.561,50.122627,1303.6,110.4,811.6,0,381.2,0,0,0,0,0,143.2,0.4,128,0,14.4,439.2,77.6,172,0,188.8,875.2,94,494.8,0,286,0,0,0,0,0,4,0,3.2,0,0.8,618.4,98,266.8,0,253.2,2.646786e-26,3.4e-44,-2.5849394e-26,4e-44,0.031250514,-1.4525845e+22,2.3004565e+23,4.576468e-08,-1.3421773e+08,6.24492e-39,-1.3421773e+08,0,0,0,0,6.095007e-39,2.2525687e+23,-2.0356136e+08,-2.646978e-23,6.003746e-39,6.244096e-39,6.126575e-39,2.3050866e+23,-2.646978e-23,6.1877e-39,524288,19,20171126234723,169.106,0,13.631,42.324)
Error 1136: Column count doesn't match value count at row 1
写入成功panic: runtime error: invalid memory address or nil pointer dereference
[signal SIGSEGV: segmentation violation code=0x1 addr=0x0 pc=0x5125a5]

goroutine 13 [running]:
database/sql.(*Rows).close(0x0, 0x0, 0x0, 0x0, 0x0)
	/usr/local/soft/go/src/database/sql/sql.go:2742 +0x75
database/sql.(*Rows).Close(0x0, 0x0, 0x0)
	/usr/local/soft/go/src/database/sql/sql.go:2738 +0x3d
main.insert(0xc420122a20)
	/root/work/go/readwrite/gostu/src/main/main26.go:85 +0x456
main.HandData(0x5ead13, 0xc4200686c0)
	/root/work/go/readwrite/gostu/src/main/main26.go:138 +0x36e
main.handleRead(0x719c80, 0xc42000e088)
	/root/work/go/readwrite/gostu/src/main/main26.go:230 +0xc39
created by main.main
	/root/work/go/readwrite/gostu/src/main/main26.go:115 +0x409
exit status 2
