nohup: ignoring input
Listening on :6005
received messag ?->? 
 124.160.218.237:33950 172.16.246.153:6005
write:01 03 00 38 00 34 C5 D0
34 30 36
heart:34 30 36 36 32 33 30 31 30 31 30 35 30 32
01 03 68
143 69 E7 6D 43 6A 80 42 43 6A 63 D7 43 CA D2 B0 43 CA FE FA 43 CA BC 8B 40 DE B8 52 40 85 1E B8 00 00 00 00 44 82 00 00 44 48 00 00 00 00 00 00 44 F0 00 00 43 A0 00 00 43 20 00 00 00 00 00 00 44 0C 00 00 44 C8 00 00 44 70 00 00 00 00 00 00 44 FA 00 00 3F 28 72 B0 3F 58 10 62 00 00 00 00 3F 76 87 2B 42 48 EF 2E
write:01 03 07 CF 00 78 74 A3
01 03 F0
01 03 F0
01 03 F0
01 03 F0
01 03 F0
01 03 F0
write:01 03 01 0F 00 08 75 F3
01 03 F0
01 03 F0
01 03 F0
01 03 F0
01 03 F0
01 03 F0
01 03 F0
01 03 F0
write:02 03 00 38 00 34 C5 E3
01 03 F0
01 03 F0
01 03 F0
01 03 F0
01 03 F0
01 03 F0
01 03 F0
01 03 F0
write:02 03 07 CF 00 78 74 90
01 03 F0
01 03 F0
01 03 F0
01 03 F0
01 03 F0
01 03 F0
01 03 F0
write:02 03 01 0F 00 08 75 C0
01 03 F0
01 03 F0
01 03 F0
01 03 F0
01 03 F0
01 03 F0
01 03 F0
01 03 F0
write:03 03 00 38 00 34 C4 32
01 03 F0
01 03 F0
01 03 F0
01 03 F0
01 03 F0
01 03 F0
01 03 F0
01 03 F0
write:03 03 07 CF 00 78 75 41
01 03 F0
01 03 F0
01 03 F0
01 03 F0
01 03 F0
01 03 F0
01 03 F0
write:03 03 01 0F 00 08 74 11
01 03 F0
01 03 F0
01 03 F0
01 03 F0
01 03 F0
01 03 F0
01 03 F0
01 03 F0
write:04 03 00 38 00 34 C5 85
01 03 F0
01 03 F0
01 03 F0
01 03 F0
01 03 F0
01 03 F0
01 03 F0
01 03 F0
write:04 03 07 CF 00 78 74 F6
01 03 F0
01 03 F0
01 03 F0
01 03 F0
01 03 F0
01 03 F0
01 03 F0
write:04 03 01 0F 00 08 75 A6
01 03 F0
01 03 F0
01 03 F0
01 03 F0
01 03 F0
01 03 F0
01 03 F0
01 03 F0
write:05 03 00 38 00 34 C4 54
01 03 F0
01 03 F0
01 03 F0
01 03 F0
01 03 F0
01 03 F0
01 03 F0
01 03 F0
write:05 03 07 CF 00 78 75 27
01 03 F0
01 03 F0
01 03 F0
01 03 F0
01 03 F0
01 03 F0
01 03 F0
write:05 03 01 0F 00 08 74 77
01 03 F0
01 03 F0
01 03 F0
01 03 F0
01 03 F0
01 03 F0
01 03 F0
01 03 F0
write:06 03 00 38 00 34 C4 67
01 03 F0
01 03 F0
01 03 F0
01 03 F0
01 03 F0
01 03 F0
01 03 F0
01 03 F0
write:06 03 07 CF 00 78 75 14
01 03 F0
01 03 F0
01 03 F0
01 03 F0
01 03 F0
01 03 F0
01 03 F0
write:06 03 01 0F 00 08 74 44
01 03 F0
01 03 F0
01 03 F0
01 03 F0
01 03 F0
01 03 F0
01 03 F0
01 03 F0
write:07 03 00 38 00 34 C5 B6
01 03 F0
01 03 F0
01 03 F0
01 03 F0
01 03 F0
01 03 F0
01 03 F0
01 03 F0
write:07 03 07 CF 00 78 74 C5
01 03 F0
01 03 F0
01 03 F0
01 03 F0
01 03 F0
01 03 F0
01 03 F0
write:07 03 01 0F 00 08 75 95
01 03 F0
01 03 F0
01 03 F0
01 03 F0
01 03 F0
01 03 F0
01 03 F0
01 03 F0
write:08 03 00 38 00 34 C5 49
01 03 F0
01 03 F0
01 03 F0
01 03 F0
01 03 F0
01 03 F0
01 03 F0
01 03 F0
write:08 03 07 CF 00 78 74 3A
01 03 F0
01 03 F0
01 03 F0
01 03 F0
01 03 F0
01 03 F0
01 03 F0
write:08 03 01 0F 00 08 75 6A
01 03 F0
01 03 F0
01 03 F0
01 03 F0
01 03 F0
01 03 F0
01 03 F0
01 03 F0
write:09 03 00 38 00 34 C4 98
01 03 F0
01 03 F0
01 03 F0
01 03 F0
01 03 F0
01 03 F0
01 03 F0
01 03 F0
write:09 03 07 CF 00 78 75 EB
01 03 F0
01 03 F0
01 03 F0
01 03 F0
01 03 F0
01 03 F0
01 03 F0
write:09 03 01 0F 00 08 74 BB
01 03 F0
01 03 F0
01 03 F0
01 03 F0
01 03 F0
01 03 F0
01 03 F0
01 03 F0
01 03 F0
01 03 F0
write:01 03 00 38 00 34 C5 D0
01 03 F0
01 03 F0
01 03 F0
01 03 F0
01 03 F0
01 03 F0
01 03 F0
write:01 03 07 CF 00 78 74 A3
01 03 F0
01 03 F0
01 03 F0
01 03 F0
01 03 F0
01 03 F0
01 03 F0
01 03 F0
write:01 03 01 0F 00 08 75 F3
01 03 F0
01 03 F0
01 03 F0
01 03 F0
01 03 F0
01 03 F0
01 03 F0
01 03 F0
write:02 03 00 38 00 34 C5 E3
01 03 F0
01 03 F0
01 03 F0
01 03 F0
01 03 F0
01 03 F0
01 03 F0
write:02 03 07 CF 00 78 74 90
01 03 F0
01 03 F0
01 03 F0
01 03 F0
01 03 F0
01 03 F0
01 03 F0
01 03 F0
write:02 03 01 0F 00 08 75 C0
01 03 F0
01 03 F0
01 03 F0
01 03 F0
01 03 F0
01 03 F0
01 03 F0
01 03 F0
write:03 03 00 38 00 34 C4 32
01 03 F0
01 03 F0
01 03 F0
01 03 F0
01 03 F0
01 03 F0
01 03 F0
write:03 03 07 CF 00 78 75 41
01 03 F0
01 03 F0
01 03 F0
01 03 F0
01 03 F0
01 03 F0
01 03 F0
01 03 F0
write:03 03 01 0F 00 08 74 11
01 03 F0
01 03 F0
01 03 F0
01 03 F0
01 03 F0
01 03 F0
01 03 F0
01 03 F0
write:04 03 00 38 00 34 C5 85
01 03 F0
01 03 F0
01 03 F0
01 03 F0
01 03 F0
01 03 F0
01 03 F0
write:04 03 07 CF 00 78 74 F6
01 03 F0
01 03 F0
01 03 F0
01 03 F0
01 03 F0
01 03 F0
01 03 F0
01 03 F0
write:04 03 01 0F 00 08 75 A6
01 03 F0
01 03 F0
01 03 F0
01 03 F0
01 03 F0
01 03 F0
01 03 F0
01 03 F0
write:05 03 00 38 00 34 C4 54
01 03 F0
01 03 F0
01 03 F0
01 03 F0
01 03 F0
01 03 F0
01 03 F0
write:05 03 07 CF 00 78 75 27
01 03 F0
01 03 F0
01 03 F0
01 03 F0
01 03 F0
01 03 F0
01 03 F0
01 03 F0
write:05 03 01 0F 00 08 74 77
01 03 F0
01 03 F0
01 03 F0
01 03 F0
01 03 F0
01 03 F0
01 03 F0
01 03 F0
write:06 03 00 38 00 34 C4 67
01 03 F0
01 03 F0
01 03 F0
01 03 F0
01 03 F0
01 03 F0
01 03 F0
write:06 03 07 CF 00 78 75 14
01 03 F0
01 03 F0
01 03 F0
01 03 F0
01 03 F0
01 03 F0
01 03 F0
01 03 F0
write:06 03 01 0F 00 08 74 44
01 03 F0
01 03 F0
01 03 F0
01 03 F0
01 03 F0
01 03 F0
01 03 F0
01 03 F0
write:07 03 00 38 00 34 C5 B6
01 03 F0
01 03 F0
01 03 F0
01 03 F0
01 03 F0
01 03 F0
01 03 F0
write:07 03 07 CF 00 78 74 C5
01 03 F0
01 03 F0
01 03 F0
01 03 F0
01 03 F0
01 03 F0
01 03 F0
01 03 F0
write:07 03 01 0F 00 08 75 95
01 03 F0
01 03 F0
01 03 F0
01 03 F0
01 03 F0
01 03 F0
01 03 F0
01 03 F0
write:08 03 00 38 00 34 C5 49
01 03 F0
01 03 F0
01 03 F0
01 03 F0
01 03 F0
01 03 F0
01 03 F0
write:08 03 07 CF 00 78 74 3A
01 03 F0
01 03 F0
01 03 F0
01 03 F0
01 03 F0
01 03 F0
01 03 F0
01 03 F0
write:08 03 01 0F 00 08 75 6A
01 03 F0
01 03 F0
01 03 F0
01 03 F0
01 03 F0
01 03 F0
01 03 F0
01 03 F0
write:09 03 00 38 00 34 C4 98
01 03 F0
01 03 F0
01 03 F0
01 03 F0
01 03 F0
01 03 F0
01 03 F0
write:09 03 07 CF 00 78 75 EB
01 03 F0
01 03 F0
01 03 F0
01 03 F0
01 03 F0
01 03 F0
01 03 F0
01 03 F0
write:09 03 01 0F 00 08 74 BB
01 03 F0
01 03 F0
01 03 F0
01 03 F0
01 03 F0
01 03 F0
01 03 F0
01 03 F0
01 03 F0
write:01 03 00 38 00 34 C5 D0
01 03 F0
01 03 F0
01 03 F0
01 03 F0
01 03 F0
01 03 F0
01 03 F0
01 03 F0
write:01 03 07 CF 00 78 74 A3
01 03 F0
01 03 F0
01 03 F0
01 03 F0
01 03 F0
01 03 F0
01 03 F0
01 03 F0
write:01 03 01 0F 00 08 75 F3
01 03 F0
01 03 F0
01 03 F0
01 03 F0
01 03 F0
01 03 F0
01 03 F0
write:02 03 00 38 00 34 C5 E3
01 03 F0
01 03 F0
01 03 F0
01 03 F0
01 03 F0
01 03 F0
01 03 F0
01 03 F0
write:02 03 07 CF 00 78 74 90
01 03 F0
01 03 F0
01 03 F0
01 03 F0
01 03 F0
01 03 F0
01 03 F0
01 03 F0
write:02 03 01 0F 00 08 75 C0
01 03 F0
01 03 F0
01 03 F0
01 03 F0
01 03 F0
01 03 F0
01 03 F0
write:03 03 00 38 00 34 C4 32
01 03 F0
01 03 F0
01 03 F0
01 03 F0
01 03 F0
01 03 F0
01 03 F0
01 03 F0
write:03 03 07 CF 00 78 75 41
01 03 F0
01 03 F0
01 03 F0
01 03 F0
01 03 F0
01 03 F0
01 03 F0
01 03 F0
write:03 03 01 0F 00 08 74 11
01 03 F0
01 03 F0
01 03 F0
01 03 F0
01 03 F0
01 03 F0
01 03 F0
write:04 03 00 38 00 34 C5 85
01 03 F0
01 03 F0
01 03 F0
01 03 F0
01 03 F0
01 03 F0
01 03 F0
01 03 F0
write:04 03 07 CF 00 78 74 F6
01 03 F0
01 03 F0
01 03 F0
01 03 F0
01 03 F0
01 03 F0
01 03 F0
01 03 F0
write:04 03 01 0F 00 08 75 A6
01 03 F0
01 03 F0
01 03 F0
01 03 F0
01 03 F0
01 03 F0
01 03 F0
write:05 03 00 38 00 34 C4 54
01 03 F0
01 03 F0
01 03 F0
01 03 F0
01 03 F0
01 03 F0
01 03 F0
01 03 F0
write:05 03 07 CF 00 78 75 27
01 03 F0
01 03 F0
01 03 F0
01 03 F0
01 03 F0
01 03 F0
01 03 F0
01 03 F0
write:05 03 01 0F 00 08 74 77
01 03 F0
01 03 F0
01 03 F0
01 03 F0
01 03 F0
01 03 F0
01 03 F0
write:06 03 00 38 00 34 C4 67
01 03 F0
01 03 F0
01 03 F0
01 03 F0
01 03 F0
01 03 F0
01 03 F0
01 03 F0
write:06 03 07 CF 00 78 75 14
01 03 F0
01 03 F0
01 03 F0
01 03 F0
01 03 F0
01 03 F0
01 03 F0
01 03 F0
write:06 03 01 0F 00 08 74 44
01 03 F0
01 03 F0
01 03 F0
01 03 F0
01 03 F0
01 03 F0
01 03 F0
write:07 03 00 38 00 34 C5 B6
01 03 F0
01 03 F0
01 03 F0
01 03 F0
01 03 F0
01 03 F0
01 03 F0
01 03 F0
write:07 03 07 CF 00 78 74 C5
01 03 F0
01 03 F0
01 03 F0
01 03 F0
01 03 F0
01 03 F0
01 03 F0
01 03 F0
write:07 03 01 0F 00 08 75 95
01 03 F0
01 03 F0
01 03 F0
01 03 F0
01 03 F0
01 03 F0
01 03 F0
write:08 03 00 38 00 34 C5 49
01 03 F0
01 03 F0
01 03 F0
01 03 F0
01 03 F0
01 03 F0
01 03 F0
01 03 F0
write:08 03 07 CF 00 78 74 3A
01 03 F0
01 03 F0
01 03 F0
01 03 F0
01 03 F0
01 03 F0
01 03 F0
01 03 F0
write:08 03 01 0F 00 08 75 6A
01 03 F0
01 03 F0
01 03 F0
01 03 F0
01 03 F0
01 03 F0
01 03 F0
write:09 03 00 38 00 34 C4 98
01 03 F0
01 03 F0
01 03 F0
01 03 F0
01 03 F0
01 03 F0
01 03 F0
01 03 F0
write:09 03 07 CF 00 78 75 EB
01 03 F0
01 03 F0
01 03 F0
01 03 F0
01 03 F0
01 03 F0
01 03 F0
01 03 F0
write:09 03 01 0F 00 08 74 BB
01 03 F0
01 03 F0
01 03 F0
01 03 F0
01 03 F0
01 03 F0
01 03 F0
01 03 F0
01 03 F0
write:01 03 00 38 00 34 C5 D0
01 03 F0
01 03 F0
01 03 F0
01 03 F0
01 03 F0
01 03 F0
01 03 F0
01 03 F0
write:01 03 07 CF 00 78 74 A3
01 03 F0
01 03 F0
01 03 F0
01 03 F0
01 03 F0
01 03 F0
01 03 F0
write:01 03 01 0F 00 08 75 F3
01 03 F0
01 03 F0
01 03 F0
01 03 F0
01 03 F0
01 03 F0
01 03 F0
01 03 F0
write:02 03 00 38 00 34 C5 E3
01 03 F0
01 03 F0
01 03 F0
01 03 F0
01 03 F0
01 03 F0
01 03 F0
01 03 F0
write:02 03 07 CF 00 78 74 90
01 03 F0
01 03 F0
01 03 F0
01 03 F0
01 03 F0
01 03 F0
01 03 F0
write:02 03 01 0F 00 08 75 C0
01 03 F0
01 03 F0
01 03 F0
01 03 F0
01 03 F0
01 03 F0
01 03 F0
01 03 F0
write:03 03 00 38 00 34 C4 32
01 03 F0
01 03 F0
01 03 F0
01 03 F0
01 03 F0
01 03 F0
01 03 F0
01 03 F0
write:03 03 07 CF 00 78 75 41
01 03 F0
01 03 F0
01 03 F0
01 03 F0
01 03 F0
01 03 F0
01 03 F0
write:03 03 01 0F 00 08 74 11
01 03 F0
01 03 F0
01 03 F0
01 03 F0
01 03 F0
01 03 F0
01 03 F0
01 03 F0
write:04 03 00 38 00 34 C5 85
01 03 F0
01 03 F0
01 03 F0
01 03 F0
01 03 F0
01 03 F0
01 03 F0
01 03 F0
write:04 03 07 CF 00 78 74 F6
01 03 F0
01 03 F0
01 03 F0
01 03 F0
01 03 F0
01 03 F0
01 03 F0
write:04 03 01 0F 00 08 75 A6
01 03 F0
01 03 F0
01 03 F0
01 03 F0
01 03 F0
01 03 F0
01 03 F0
01 03 F0
write:05 03 00 38 00 34 C4 54
01 03 F0
01 03 F0
01 03 F0
01 03 F0
01 03 F0
01 03 F0
01 03 F0
01 03 F0
write:05 03 07 CF 00 78 75 27
01 03 F0
01 03 F0
01 03 F0
01 03 F0
01 03 F0
01 03 F0
01 03 F0
write:05 03 01 0F 00 08 74 77
01 03 F0
01 03 F0
01 03 F0
01 03 F0
01 03 F0
01 03 F0
01 03 F0
01 03 F0
write:06 03 00 38 00 34 C4 67
01 03 F0
01 03 F0
01 03 F0
01 03 F0
01 03 F0
01 03 F0
01 03 F0
01 03 F0
write:06 03 07 CF 00 78 75 14
01 03 F0
01 03 F0
01 03 F0
01 03 F0
01 03 F0
01 03 F0
01 03 F0
write:06 03 01 0F 00 08 74 44
01 03 F0
01 03 F0
01 03 F0
01 03 F0
01 03 F0
01 03 F0
01 03 F0
01 03 F0
write:07 03 00 38 00 34 C5 B6
01 03 F0
01 03 F0
01 03 F0
01 03 F0
01 03 F0
01 03 F0
01 03 F0
01 03 F0
write:07 03 07 CF 00 78 74 C5
01 03 F0
01 03 F0
01 03 F0
01 03 F0
01 03 F0
01 03 F0
01 03 F0
write:07 03 01 0F 00 08 75 95
01 03 F0
01 03 F0
01 03 F0
01 03 F0
01 03 F0
01 03 F0
01 03 F0
01 03 F0
write:08 03 00 38 00 34 C5 49
01 03 F0
01 03 F0
01 03 F0
01 03 F0
01 03 F0
01 03 F0
01 03 F0
01 03 F0
write:08 03 07 CF 00 78 74 3A
01 03 F0
01 03 F0
01 03 F0
01 03 F0
01 03 F0
01 03 F0
01 03 F0
write:08 03 01 0F 00 08 75 6A
01 03 F0
01 03 F0
01 03 F0
01 03 F0
01 03 F0
01 03 F0
01 03 F0
01 03 F0
write:09 03 00 38 00 34 C4 98
01 03 F0
01 03 F0
01 03 F0
01 03 F0
01 03 F0
01 03 F0
01 03 F0
01 03 F0
write:09 03 07 CF 00 78 75 EB
01 03 F0
01 03 F0
01 03 F0
01 03 F0
01 03 F0
01 03 F0
01 03 F0
write:09 03 01 0F 00 08 74 BB
01 03 F0
01 03 F0
01 03 F0
01 03 F0
01 03 F0
01 03 F0
01 03 F0
01 03 F0
01 03 F0
01 03 F0
write:01 03 00 38 00 34 C5 D0
01 03 F0
01 03 F0
01 03 F0
01 03 F0
01 03 F0
01 03 F0
signal: killed
