nohup: ignoring input
Listening on :6005
received messag ?->? 
 124.160.213.143:65135 172.16.246.153:6005
34 30 36
heart:34 30 36 36 32 33 30 31 30 31 30 35 30 32
write:01 03 00 38 00 34 C5 D0
01 03 68
01 03 68
01 03 68
01 03 68
01 03 68
01 03 68
01 03 68
01 03 68
write:01 03 07 CF 00 78 74 A3
01 03 68
01 03 68
01 03 68
01 03 68
01 03 68
01 03 68
01 03 68
write:01 03 01 0F 00 08 75 F3
01 03 68
01 03 68
01 03 68
01 03 68
01 03 68
01 03 68
01 03 68
01 03 68
write:02 03 00 38 00 34 C5 E3
01 03 68
01 03 68
01 03 68
01 03 68
01 03 68
01 03 68
01 03 68
01 03 68
write:02 03 07 CF 00 78 74 90
01 03 68
01 03 68
01 03 68
01 03 68
01 03 68
01 03 68
01 03 68
write:02 03 01 0F 00 08 75 C0
01 03 68
01 03 68
01 03 68
01 03 68
01 03 68
01 03 68
01 03 68
01 03 68
write:03 03 00 38 00 34 C4 32
01 03 68
01 03 68
01 03 68
01 03 68
01 03 68
01 03 68
01 03 68
01 03 68
write:03 03 07 CF 00 78 75 41
01 03 68
01 03 68
01 03 68
01 03 68
01 03 68
01 03 68
01 03 68
write:03 03 01 0F 00 08 74 11
01 03 68
01 03 68
01 03 68
01 03 68
01 03 68
01 03 68
01 03 68
01 03 68
write:04 03 00 38 00 34 C5 85
01 03 68
01 03 68
01 03 68
01 03 68
01 03 68
01 03 68
01 03 68
01 03 68
write:04 03 07 CF 00 78 74 F6
01 03 68
01 03 68
01 03 68
01 03 68
01 03 68
01 03 68
01 03 68
write:04 03 01 0F 00 08 75 A6
01 03 68
01 03 68
01 03 68
01 03 68
01 03 68
01 03 68
01 03 68
01 03 68
write:05 03 00 38 00 34 C4 54
01 03 68
01 03 68
01 03 68
01 03 68
01 03 68
01 03 68
01 03 68
01 03 68
write:05 03 07 CF 00 78 75 27
01 03 68
01 03 68
01 03 68
01 03 68
01 03 68
01 03 68
01 03 68
write:05 03 01 0F 00 08 74 77
01 03 68
01 03 68
01 03 68
01 03 68
01 03 68
01 03 68
01 03 68
01 03 68
write:06 03 00 38 00 34 C4 67
01 03 68
01 03 68
01 03 68
01 03 68
01 03 68
01 03 68
01 03 68
01 03 68
write:06 03 07 CF 00 78 75 14
01 03 68
01 03 68
01 03 68
01 03 68
01 03 68
01 03 68
01 03 68
write:06 03 01 0F 00 08 74 44
01 03 68
01 03 68
01 03 68
01 03 68
01 03 68
01 03 68
01 03 68
01 03 68
write:07 03 00 38 00 34 C5 B6
01 03 68
01 03 68
01 03 68
01 03 68
01 03 68
01 03 68
01 03 68
01 03 68
write:07 03 07 CF 00 78 74 C5
01 03 68
01 03 68
01 03 68
01 03 68
01 03 68
01 03 68
01 03 68
write:07 03 01 0F 00 08 75 95
01 03 68
01 03 68
01 03 68
01 03 68
01 03 68
01 03 68
01 03 68
01 03 68
write:08 03 00 38 00 34 C5 49
01 03 68
01 03 68
01 03 68
01 03 68
01 03 68
01 03 68
01 03 68
01 03 68
write:08 03 07 CF 00 78 74 3A
01 03 68
01 03 68
01 03 68
01 03 68
01 03 68
01 03 68
01 03 68
write:08 03 01 0F 00 08 75 6A
01 03 68
01 03 68
01 03 68
01 03 68
01 03 68
01 03 68
01 03 68
01 03 68
write:09 03 00 38 00 34 C4 98
01 03 68
01 03 68
01 03 68
01 03 68
01 03 68
01 03 68
01 03 68
01 03 68
write:09 03 07 CF 00 78 75 EB
01 03 68
01 03 68
01 03 68
01 03 68
01 03 68
01 03 68
01 03 68
write:09 03 01 0F 00 08 74 BB
01 03 68
01 03 68
01 03 68
01 03 68
01 03 68
01 03 68
01 03 68
01 03 68
01 03 68
01 03 68
write:01 03 00 38 00 34 C5 D0
01 03 68
01 03 68
01 03 68
01 03 68
01 03 68
01 03 68
01 03 68
write:01 03 07 CF 00 78 74 A3
01 03 68
01 03 68
01 03 68
01 03 68
01 03 68
01 03 68
01 03 68
01 03 68
write:01 03 01 0F 00 08 75 F3
01 03 68
01 03 68
01 03 68
01 03 68
01 03 68
01 03 68
01 03 68
01 03 68
write:02 03 00 38 00 34 C5 E3
01 03 68
01 03 68
01 03 68
01 03 68
01 03 68
01 03 68
01 03 68
write:02 03 07 CF 00 78 74 90
01 03 68
01 03 68
01 03 68
01 03 68
01 03 68
01 03 68
01 03 68
01 03 68
write:02 03 01 0F 00 08 75 C0
01 03 68
01 03 68
01 03 68
01 03 68
01 03 68
01 03 68
signal: killed
