nohup: ignoring input
Listening on :6005
received messag ?->? 
 124.160.213.10:23788 172.16.246.153:6005
write:01 03 00 38 00 34 C5 D0
34 30 36
heart:34 30 36 36 32 33 30 31 30 31 30 35 30 32
01 03 68
143 69 3C AC 43 69 D7 4C 43 69 DC 6A 43 CA 37 8D 43 CA 79 FC 43 CA 37 8D 40 E6 66 66 40 87 AE 14 00 00 00 00 44 8C 00 00 44 5C 00 00 00 00 00 00 44 FA 00 00 43 A0 00 00 43 20 00 00 00 00 00 00 44 0C 00 00 44 D2 00 00 44 70 00 00 00 00 00 00 45 02 00 00 3F 2B 02 0C 3F 5D 70 A4 00 00 00 00 3F 77 4B C7 42 48 BC 7B
write:01 03 07 CF 00 78 74 A3
01 03 F0
143 F4 CC CD 42 23 33 33 43 9A CC CD 00 00 00 00 43 0A CC CD 00 00 00 00 00 00 00 00 00 00 00 00 00 00 00 00 00 00 00 00 3E CC CC CD 00 00 00 00 3E CC CC CD 00 00 00 00 00 00 00 00 43 1C 66 66 41 A3 33 33 42 9E 66 66 00 00 00 00 42 61 99 9A 44 0E 99 9A 42 56 66 66 43 B2 00 00 00 00 00 00 43 20 00 00 00 00 00 00 00 00 00 00 00 00 00 00 00 00 00 00 00 00 00 00 3F CC CC CD 00 00 00 00 3F CC CC CD 00 00 00 00 00 00 00 00 43 33 33 33 41 C0 00 00 42 B7 33 33 00 00 00 00 42 7C CC CD 44 42 66 66 42 AF 33 33 43 F7 66 66 00 00 00 00 43 42 CC CD 00 00 00 00 00 00 00 00 00 00 00 00 00 00 00 00 00 00 00 00 42 21 99 9A 3F CC CC CD 41 F3 33 33 00 00 00 00 41 00 00 00 43 36 CC CD 41 DC CC CD 42 BE 66 66 00 00 00 00 42 6E D6 07
write:01 03 01 0F 00 08 75 F3
01 03 10
100 01 9E 6D 00 00 00 00 00 00 8A CC 00 00 E3 04
43 69 3C AC
233.237
43 69 D7 4C
233.841
43 69 DC 6A
233.861
43 CA 37 8D
404.434
43 CA 79 FC
404.953
43 CA 37 8D
404.434
40 E6 66 66
7.2
40 87 AE 14
4.24
00 00 00 00
0
44 8C 00 00
1120
44 5C 00 00
880
00 00 00 00
0
44 FA 00 00
2000
43 A0 00 00
320
43 20 00 00
160
00 00 00 00
0
44 0C 00 00
560
44 D2 00 00
1680
44 70 00 00
960
00 00 00 00
0
45 02 00 00
2080
3F 2B 02 0C
0.668
3F 5D 70 A4
0.865
00 00 00 00
0
3F 77 4B C7
0.966
42 48 BC 7B
50.184063
43 F4 CC CD
489.6
42 23 33 33
40.8
43 9A CC CD
309.6
00 00 00 00
0
43 0A CC CD
138.8
00 00 00 00
0
00 00 00 00
0
00 00 00 00
0
00 00 00 00
0
00 00 00 00
0
3E CC CC CD
0.4
00 00 00 00
0
3E CC CC CD
0.4
00 00 00 00
0
00 00 00 00
0
43 1C 66 66
156.4
41 A3 33 33
20.4
42 9E 66 66
79.2
00 00 00 00
0
42 61 99 9A
56.4
44 0E 99 9A
570.4
42 56 66 66
53.6
43 B2 00 00
356
00 00 00 00
0
43 20 00 00
160
00 00 00 00
0
00 00 00 00
0
00 00 00 00
0
00 00 00 00
0
00 00 00 00
0
3F CC CC CD
1.6
00 00 00 00
0
3F CC CC CD
1.6
00 00 00 00
0
00 00 00 00
0
43 33 33 33
179.2
41 C0 00 00
24
42 B7 33 33
91.6
00 00 00 00
0
42 7C CC CD
63.2
44 42 66 66
777.6
42 AF 33 33
87.6
43 F7 66 66
494.8
00 00 00 00
0
43 42 CC CD
194.8
00 00 00 00
0
00 00 00 00
0
00 00 00 00
0
00 00 00 00
0
00 00 00 00
0
42 21 99 9A
40.4
3F CC CC CD
1.6
41 F3 33 33
30.4
00 00 00 00
0
41 00 00 00
8
43 36 CC CD
182.8
41 DC CC CD
27.6
42 BE 66 66
95.2
00 00 00 00
0
42 6E D6 07
59.70901
00 01 9E 6D
106093
00 00 00 00
0
00 00 8A CC
35532
00 00 E3 04
58116
233.237233.841233.861404.434404.953404.4347.24.24011208800200032016005601680960020800.6680.86500.96650.184063489.640.8309.60138.8000000.400.400156.420.479.2056.4570.453.63560160000001.601.600179.22491.6063.2777.687.6494.80194.80000040.41.630.408182.827.695.2059.70901120171125101311106.093035.53258.116insert into tbl_power_info_v2(P_A_DIANYA,P_B_DIANYA,P_C_DIANYA,P_UAB_XIANDIANYA,P_UBC_XIANDIANYA,P_UCA_XIANDIANYA,P_A_DIANLIU,P_B_DIANLIU,P_C_DIANLIU,P_A_YGGL,P_B_YGGL,P_C_YGGL,P_HXYGGL,P_A_WGGL,P_B_WGGL,P_C_WGGL,P_HXWGGL,P_A_SZGL,P_B_SZGL,P_C_SZGL,P_HXSZGL,P_A_GLYS,P_B_GLYS,P_C_GLYS,P_HXGLYS,P_DWPL,P_BY_KwhZ,P_BY_KwhJ,P_BY_KwhF,P_BY_KwhP,P_BY_KwhG,P_BY_HKwhZ,P_BY_HKwhJ,P_BY_HKwhF,P_BY_HKwhP,P_BY_HKwhG, P_BY_KvarhZ,P_BY_KvarhJ,P_BY_KvarhF,P_BY_KvarhP,P_BY_KvarhG, P_BY_HKvarhZ,P_BY_HKvarhJ,P_BY_HKvarhF,P_BY_HKvarhP,P_BY_HKvarhG, P_SY_KwhZ,P_SY_KwhJ,P_SY_KwhF,P_SY_KwhP,P_SY_KwhG, P_SY_HKwhZ,P_SY_HKwhJ,P_SY_HKwhF,P_SY_HKwhP,P_SY_HKwhG, P_SY_KvarhZ,P_SY_KvarhJ,P_SY_KvarhF,P_SY_KvarhP,P_SY_KvarhG, P_SY_HKvarhZ,P_SY_HKvarhJ,P_SY_HKvarhF,P_SY_HKvarhP,P_SY_HKvarhG, P_SSY_KwhZ,P_SSY_KwhJ,P_SSY_KwhF,P_SSY_KwhP,P_SSY_KwhG, P_SSY_HKwhZ,P_SSY_HKwhJ,P_SSY_HKwhF,P_SSY_HKwhP,P_SSY_HKwhG, P_SSY_KvarhZ,P_SSY_KvarhJ,P_SSY_KvarhF,P_SSY_KvarhP,P_SSY_KvarhG, P_SSY_HKvarhZ,P_SSY_HKvarhJ,P_SSY_HKvarhF,P_SSY_HKvarhP,P_SSY_HKvarhG,P_CODE,P_TIME,P_ZXYGDN,P_FXYGDN,P_ZXWGDN,P_FXWGDN)values(233.237,233.841,233.861,404.434,404.953,404.434,7.2,4.24,0,1120,880,0,2000,320,160,0,560,1680,960,0,2080,0.668,0.865,0,0.966,50.184063,489.6,40.8,309.6,0,138.8,0,0,0,0,0,0.4,0,0.4,0,0,156.4,20.4,79.2,0,56.4,570.4,53.6,356,0,160,0,0,0,0,0,1.6,0,1.6,0,0,179.2,24,91.6,0,63.2,777.6,87.6,494.8,0,194.8,0,0,0,0,0,40.4,1.6,30.4,0,8,182.8,27.6,95.2,0,59.70901,1,20171125101311,106.093,0,35.532,58.116)
写入成功读取完毕一个
write:02 03 00 38 00 34 C5 E3
02 03 68
243 68 3A E1 43 68 EF 9E 43 68 ED D3 43 C9 64 DD 43 C9 B2 6F 43 C9 64 DD 41 42 8F 5C 41 A5 1E B8 41 70 A3 D7 45 20 00 00 45 8C 00 00 45 52 00 00 46 22 80 00 44 8C 00 00 44 96 00 00 44 82 00 00 45 4D 00 00 45 2F 00 00 45 96 00 00 45 5C 00 00 46 2A 00 00 3F 68 72 B0 3F 70 20 C5 3F 72 B0 21 3F 74 39 58 42 48 67 7A
write:02 03 07 CF 00 78 74 90
02 03 F0
244 96 26 66 43 0D 33 33 44 31 80 00 00 00 00 00 43 AE CC CD 00 00 00 00 00 00 00 00 00 00 00 00 00 00 00 00 00 00 00 00 42 8C 00 00 41 4C CC CD 42 18 00 00 00 00 00 00 41 93 33 33 42 30 00 00 40 00 00 00 42 00 00 00 00 00 00 00 41 13 33 33 44 8E D9 9A 43 18 CC CD 44 1F E6 66 00 00 00 00 43 AF 00 00 00 00 00 00 00 00 00 00 00 00 00 00 00 00 00 00 00 00 00 00 42 21 99 9A 41 20 00 00 41 A9 99 9A 00 00 00 00 41 0C CC CD 42 30 00 00 40 4C CC CD 41 F3 33 33 00 00 00 00 41 19 99 9A 45 2F 66 66 43 E3 99 9A 44 DC 33 33 00 00 00 00 44 13 4C CD 00 00 00 00 00 00 00 00 00 00 00 00 00 00 00 00 00 00 00 00 44 77 E6 66 43 2E CC CD 44 24 B3 33 00 00 00 00 43 1D 99 9A 42 13 33 33 40 00 00 00 41 D9 99 9A 00 00 00 00 40 E6 87 72
write:02 03 01 0F 00 08 75 C0
02 03 10
200 03 47 1C 00 00 00 05 00 01 31 E8 00 00 DC B2
43 68 3A E1
232.23
43 68 EF 9E
232.936
43 68 ED D3
232.929
43 C9 64 DD
402.788
43 C9 B2 6F
403.394
43 C9 64 DD
402.788
41 42 8F 5C
12.16
41 A5 1E B8
20.64
41 70 A3 D7
15.04
45 20 00 00
2560
45 8C 00 00
4480
45 52 00 00
3360
46 22 80 00
10400
44 8C 00 00
1120
44 96 00 00
1200
44 82 00 00
1040
45 4D 00 00
3280
45 2F 00 00
2800
45 96 00 00
4800
45 5C 00 00
3520
46 2A 00 00
10880
3F 68 72 B0
0.908
3F 70 20 C5
0.938
3F 72 B0 21
0.948
3F 74 39 58
0.954
42 48 67 7A
50.10105
44 96 26 66
1201.2
43 0D 33 33
141.2
44 31 80 00
710
00 00 00 00
0
43 AE CC CD
349.6
00 00 00 00
0
00 00 00 00
0
00 00 00 00
0
00 00 00 00
0
00 00 00 00
0
42 8C 00 00
70
41 4C CC CD
12.8
42 18 00 00
38
00 00 00 00
0
41 93 33 33
18.4
42 30 00 00
44
40 00 00 00
2
42 00 00 00
32
00 00 00 00
0
41 13 33 33
9.2
44 8E D9 9A
1142.8
43 18 CC CD
152.8
44 1F E6 66
639.6
00 00 00 00
0
43 AF 00 00
350
00 00 00 00
0
00 00 00 00
0
00 00 00 00
0
00 00 00 00
0
00 00 00 00
0
42 21 99 9A
40.4
41 20 00 00
10
41 A9 99 9A
21.2
00 00 00 00
0
41 0C CC CD
8.8
42 30 00 00
44
40 4C CC CD
3.2
41 F3 33 33
30.4
00 00 00 00
0
41 19 99 9A
9.6
45 2F 66 66
2806.4
43 E3 99 9A
455.2
44 DC 33 33
1761.6
00 00 00 00
0
44 13 4C CD
589.2
00 00 00 00
0
00 00 00 00
0
00 00 00 00
0
00 00 00 00
0
00 00 00 00
0
44 77 E6 66
991.6
43 2E CC CD
174.8
44 24 B3 33
658.8
00 00 00 00
0
43 1D 99 9A
157.6
42 13 33 33
36.8
40 00 00 00
2
41 D9 99 9A
27.2
00 00 00 00
0
40 E6 87 72
7.204034
00 03 47 1C
214812
00 00 00 05
5
00 01 31 E8
78312
00 00 DC B2
56498
232.23232.936232.929402.788403.394402.78812.1620.6415.04256044803360104001120120010403280280048003520108800.9080.9380.9480.95450.101051201.2141.27100349.6000007012.838018.44423209.21142.8152.8639.603500000040.41021.208.8443.230.409.62806.4455.21761.60589.200000991.6174.8658.80157.636.8227.207.204034220171125101421214.8120.00578.31256.498insert into tbl_power_info_v2(P_A_DIANYA,P_B_DIANYA,P_C_DIANYA,P_UAB_XIANDIANYA,P_UBC_XIANDIANYA,P_UCA_XIANDIANYA,P_A_DIANLIU,P_B_DIANLIU,P_C_DIANLIU,P_A_YGGL,P_B_YGGL,P_C_YGGL,P_HXYGGL,P_A_WGGL,P_B_WGGL,P_C_WGGL,P_HXWGGL,P_A_SZGL,P_B_SZGL,P_C_SZGL,P_HXSZGL,P_A_GLYS,P_B_GLYS,P_C_GLYS,P_HXGLYS,P_DWPL,P_BY_KwhZ,P_BY_KwhJ,P_BY_KwhF,P_BY_KwhP,P_BY_KwhG,P_BY_HKwhZ,P_BY_HKwhJ,P_BY_HKwhF,P_BY_HKwhP,P_BY_HKwhG, P_BY_KvarhZ,P_BY_KvarhJ,P_BY_KvarhF,P_BY_KvarhP,P_BY_KvarhG, P_BY_HKvarhZ,P_BY_HKvarhJ,P_BY_HKvarhF,P_BY_HKvarhP,P_BY_HKvarhG, P_SY_KwhZ,P_SY_KwhJ,P_SY_KwhF,P_SY_KwhP,P_SY_KwhG, P_SY_HKwhZ,P_SY_HKwhJ,P_SY_HKwhF,P_SY_HKwhP,P_SY_HKwhG, P_SY_KvarhZ,P_SY_KvarhJ,P_SY_KvarhF,P_SY_KvarhP,P_SY_KvarhG, P_SY_HKvarhZ,P_SY_HKvarhJ,P_SY_HKvarhF,P_SY_HKvarhP,P_SY_HKvarhG, P_SSY_KwhZ,P_SSY_KwhJ,P_SSY_KwhF,P_SSY_KwhP,P_SSY_KwhG, P_SSY_HKwhZ,P_SSY_HKwhJ,P_SSY_HKwhF,P_SSY_HKwhP,P_SSY_HKwhG, P_SSY_KvarhZ,P_SSY_KvarhJ,P_SSY_KvarhF,P_SSY_KvarhP,P_SSY_KvarhG, P_SSY_HKvarhZ,P_SSY_HKvarhJ,P_SSY_HKvarhF,P_SSY_HKvarhP,P_SSY_HKvarhG,P_CODE,P_TIME,P_ZXYGDN,P_FXYGDN,P_ZXWGDN,P_FXWGDN)values(232.23,232.936,232.929,402.788,403.394,402.788,12.16,20.64,15.04,2560,4480,3360,10400,1120,1200,1040,3280,2800,4800,3520,10880,0.908,0.938,0.948,0.954,50.10105,1201.2,141.2,710,0,349.6,0,0,0,0,0,70,12.8,38,0,18.4,44,2,32,0,9.2,1142.8,152.8,639.6,0,350,0,0,0,0,0,40.4,10,21.2,0,8.8,44,3.2,30.4,0,9.6,2806.4,455.2,1761.6,0,589.2,0,0,0,0,0,991.6,174.8,658.8,0,157.6,36.8,2,27.2,0,7.204034,2,20171125101421,214.812,0.005,78.312,56.498)
写入成功读取完毕一个
write:03 03 00 38 00 34 C4 32
03 03 68
343 68 AB 02 43 69 0E 98 43 69 38 D5 43 C9 9C 4A 43 C9 DE D9 43 C9 B2 6F 3F C7 AE 14 40 51 47 AE 40 58 F5 C3 43 87 00 00 43 C3 00 00 44 16 00 00 44 99 C0 00 43 70 00 00 44 25 00 00 43 F0 00 00 44 A8 C0 00 43 B4 00 00 44 3B 80 00 44 43 00 00 44 E4 C0 00 3F 38 10 62 3F 01 89 37 3F 40 83 12 3F 2C 49 BA 42 47 1A F1
write:03 03 07 CF 00 78 75 41
03 03 F0
03 03 F0
03 03 F0
03 03 F0
03 03 F0
03 03 F0
03 03 F0
03 03 F0
write:03 03 01 0F 00 08 74 11
03 03 F0
03 03 F0
03 03 F0
03 03 F0
03 03 F0
03 03 F0
03 03 F0
write:04 03 00 38 00 34 C5 85
03 03 F0
03 03 F0
03 03 F0
03 03 F0
03 03 F0
03 03 F0
03 03 F0
03 03 F0
write:04 03 07 CF 00 78 74 F6
03 03 F0
03 03 F0
03 03 F0
03 03 F0
03 03 F0
03 03 F0
03 03 F0
03 03 F0
write:04 03 01 0F 00 08 75 A6
03 03 F0
03 03 F0
03 03 F0
03 03 F0
03 03 F0
03 03 F0
03 03 F0
write:05 03 00 38 00 34 C4 54
03 03 F0
03 03 F0
03 03 F0
03 03 F0
03 03 F0
03 03 F0
03 03 F0
03 03 F0
write:05 03 07 CF 00 78 75 27
03 03 F0
03 03 F0
03 03 F0
03 03 F0
03 03 F0
03 03 F0
03 03 F0
03 03 F0
write:05 03 01 0F 00 08 74 77
03 03 F0
03 03 F0
03 03 F0
03 03 F0
03 03 F0
03 03 F0
03 03 F0
write:06 03 00 38 00 34 C4 67
03 03 F0
03 03 F0
03 03 F0
03 03 F0
03 03 F0
03 03 F0
03 03 F0
03 03 F0
write:06 03 07 CF 00 78 75 14
03 03 F0
03 03 F0
03 03 F0
03 03 F0
03 03 F0
03 03 F0
03 03 F0
03 03 F0
write:06 03 01 0F 00 08 74 44
03 03 F0
03 03 F0
03 03 F0
03 03 F0
03 03 F0
03 03 F0
03 03 F0
write:07 03 00 38 00 34 C5 B6
03 03 F0
03 03 F0
03 03 F0
03 03 F0
03 03 F0
03 03 F0
03 03 F0
03 03 F0
write:07 03 07 CF 00 78 74 C5
03 03 F0
03 03 F0
03 03 F0
03 03 F0
03 03 F0
03 03 F0
03 03 F0
03 03 F0
write:07 03 01 0F 00 08 75 95
03 03 F0
03 03 F0
03 03 F0
03 03 F0
03 03 F0
03 03 F0
03 03 F0
write:08 03 00 38 00 34 C5 49
03 03 F0
03 03 F0
03 03 F0
03 03 F0
03 03 F0
03 03 F0
03 03 F0
03 03 F0
write:08 03 07 CF 00 78 74 3A
03 03 F0
03 03 F0
03 03 F0
03 03 F0
03 03 F0
03 03 F0
03 03 F0
03 03 F0
write:08 03 01 0F 00 08 75 6A
03 03 F0
03 03 F0
03 03 F0
03 03 F0
03 03 F0
03 03 F0
03 03 F0
write:09 03 00 38 00 34 C4 98
03 03 F0
03 03 F0
03 03 F0
03 03 F0
03 03 F0
03 03 F0
03 03 F0
03 03 F0
write:09 03 07 CF 00 78 75 EB
03 03 F0
03 03 F0
03 03 F0
03 03 F0
03 03 F0
03 03 F0
03 03 F0
03 03 F0
write:09 03 01 0F 00 08 74 BB
03 03 F0
03 03 F0
03 03 F0
03 03 F0
03 03 F0
03 03 F0
03 03 F0
03 03 F0
03 03 F0
write:01 03 00 38 00 34 C5 D0
03 03 F0
03 03 F0
03 03 F0
03 03 F0
03 03 F0
03 03 F0
03 03 F0
03 03 F0
write:01 03 07 CF 00 78 74 A3
03 03 F0
03 03 F0
03 03 F0
03 03 F0
03 03 F0
03 03 F0
03 03 F0
write:01 03 01 0F 00 08 75 F3
03 03 F0
03 03 F0
03 03 F0
03 03 F0
03 03 F0
03 03 F0
03 03 F0
03 03 F0
write:02 03 00 38 00 34 C5 E3
03 03 F0
03 03 F0
03 03 F0
03 03 F0
03 03 F0
03 03 F0
03 03 F0
03 03 F0
write:02 03 07 CF 00 78 74 90
03 03 F0
03 03 F0
03 03 F0
03 03 F0
03 03 F0
03 03 F0
03 03 F0
write:02 03 01 0F 00 08 75 C0
03 03 F0
03 03 F0
03 03 F0
03 03 F0
03 03 F0
03 03 F0
03 03 F0
03 03 F0
write:03 03 00 38 00 34 C4 32
03 03 F0
03 03 F0
03 03 F0
03 03 F0
03 03 F0
03 03 F0
03 03 F0
03 03 F0
write:03 03 07 CF 00 78 75 41
03 03 F0
03 03 F0
03 03 F0
03 03 F0
03 03 F0
03 03 F0
03 03 F0
write:03 03 01 0F 00 08 74 11
03 03 F0
03 03 F0
03 03 F0
03 03 F0
03 03 F0
03 03 F0
03 03 F0
03 03 F0
write:04 03 00 38 00 34 C5 85
03 03 F0
03 03 F0
03 03 F0
03 03 F0
03 03 F0
03 03 F0
03 03 F0
03 03 F0
write:04 03 07 CF 00 78 74 F6
03 03 F0
03 03 F0
03 03 F0
03 03 F0
03 03 F0
03 03 F0
03 03 F0
write:04 03 01 0F 00 08 75 A6
03 03 F0
03 03 F0
03 03 F0
03 03 F0
03 03 F0
03 03 F0
03 03 F0
03 03 F0
write:05 03 00 38 00 34 C4 54
03 03 F0
03 03 F0
03 03 F0
03 03 F0
03 03 F0
03 03 F0
03 03 F0
03 03 F0
write:05 03 07 CF 00 78 75 27
03 03 F0
03 03 F0
03 03 F0
03 03 F0
03 03 F0
03 03 F0
03 03 F0
write:05 03 01 0F 00 08 74 77
03 03 F0
03 03 F0
03 03 F0
03 03 F0
03 03 F0
03 03 F0
03 03 F0
03 03 F0
write:06 03 00 38 00 34 C4 67
03 03 F0
03 03 F0
03 03 F0
03 03 F0
03 03 F0
03 03 F0
03 03 F0
03 03 F0
write:06 03 07 CF 00 78 75 14
03 03 F0
03 03 F0
03 03 F0
03 03 F0
03 03 F0
03 03 F0
03 03 F0
write:06 03 01 0F 00 08 74 44
03 03 F0
03 03 F0
03 03 F0
03 03 F0
03 03 F0
03 03 F0
03 03 F0
03 03 F0
write:07 03 00 38 00 34 C5 B6
03 03 F0
03 03 F0
03 03 F0
03 03 F0
03 03 F0
03 03 F0
03 03 F0
03 03 F0
write:07 03 07 CF 00 78 74 C5
03 03 F0
03 03 F0
03 03 F0
03 03 F0
03 03 F0
03 03 F0
03 03 F0
write:07 03 01 0F 00 08 75 95
03 03 F0
03 03 F0
03 03 F0
03 03 F0
03 03 F0
03 03 F0
03 03 F0
03 03 F0
write:08 03 00 38 00 34 C5 49
03 03 F0
03 03 F0
03 03 F0
03 03 F0
03 03 F0
03 03 F0
03 03 F0
03 03 F0
write:08 03 07 CF 00 78 74 3A
03 03 F0
03 03 F0
03 03 F0
03 03 F0
03 03 F0
03 03 F0
03 03 F0
write:08 03 01 0F 00 08 75 6A
03 03 F0
03 03 F0
03 03 F0
03 03 F0
03 03 F0
03 03 F0
03 03 F0
03 03 F0
write:09 03 00 38 00 34 C4 98
03 03 F0
03 03 F0
03 03 F0
03 03 F0
03 03 F0
03 03 F0
03 03 F0
03 03 F0
write:09 03 07 CF 00 78 75 EB
03 03 F0
03 03 F0
03 03 F0
03 03 F0
03 03 F0
03 03 F0
03 03 F0
write:09 03 01 0F 00 08 74 BB
03 03 F0
03 03 F0
03 03 F0
03 03 F0
03 03 F0
03 03 F0
03 03 F0
03 03 F0
03 03 F0
03 03 F0
write:01 03 00 38 00 34 C5 D0
03 03 F0
03 03 F0
03 03 F0
03 03 F0
03 03 F0
03 03 F0
03 03 F0
write:01 03 07 CF 00 78 74 A3
03 03 F0
03 03 F0
03 03 F0
03 03 F0
03 03 F0
03 03 F0
03 03 F0
03 03 F0
write:01 03 01 0F 00 08 75 F3
03 03 F0
03 03 F0
03 03 F0
03 03 F0
03 03 F0
03 03 F0
03 03 F0
03 03 F0
write:02 03 00 38 00 34 C5 E3
03 03 F0
03 03 F0
03 03 F0
03 03 F0
03 03 F0
03 03 F0
03 03 F0
write:02 03 07 CF 00 78 74 90
03 03 F0
03 03 F0
03 03 F0
03 03 F0
03 03 F0
03 03 F0
03 03 F0
03 03 F0
write:02 03 01 0F 00 08 75 C0
03 03 F0
03 03 F0
03 03 F0
03 03 F0
03 03 F0
03 03 F0
03 03 F0
03 03 F0
write:03 03 00 38 00 34 C4 32
03 03 F0
03 03 F0
03 03 F0
03 03 F0
03 03 F0
03 03 F0
03 03 F0
write:03 03 07 CF 00 78 75 41
03 03 F0
03 03 F0
03 03 F0
03 03 F0
03 03 F0
03 03 F0
03 03 F0
03 03 F0
write:03 03 01 0F 00 08 74 11
03 03 F0
03 03 F0
03 03 F0
03 03 F0
03 03 F0
03 03 F0
03 03 F0
03 03 F0
write:04 03 00 38 00 34 C5 85
03 03 F0
03 03 F0
03 03 F0
03 03 F0
03 03 F0
03 03 F0
03 03 F0
write:04 03 07 CF 00 78 74 F6
03 03 F0
03 03 F0
03 03 F0
03 03 F0
03 03 F0
03 03 F0
03 03 F0
03 03 F0
write:04 03 01 0F 00 08 75 A6
03 03 F0
03 03 F0
03 03 F0
03 03 F0
03 03 F0
03 03 F0
03 03 F0
03 03 F0
write:05 03 00 38 00 34 C4 54
03 03 F0
03 03 F0
03 03 F0
03 03 F0
03 03 F0
03 03 F0
03 03 F0
write:05 03 07 CF 00 78 75 27
03 03 F0
03 03 F0
03 03 F0
03 03 F0
03 03 F0
03 03 F0
03 03 F0
03 03 F0
write:05 03 01 0F 00 08 74 77
03 03 F0
03 03 F0
03 03 F0
03 03 F0
03 03 F0
03 03 F0
03 03 F0
03 03 F0
write:06 03 00 38 00 34 C4 67
03 03 F0
03 03 F0
03 03 F0
03 03 F0
03 03 F0
03 03 F0
03 03 F0
write:06 03 07 CF 00 78 75 14
03 03 F0
03 03 F0
03 03 F0
03 03 F0
03 03 F0
03 03 F0
03 03 F0
03 03 F0
write:06 03 01 0F 00 08 74 44
03 03 F0
03 03 F0
03 03 F0
03 03 F0
03 03 F0
03 03 F0
03 03 F0
03 03 F0
write:07 03 00 38 00 34 C5 B6
03 03 F0
03 03 F0
03 03 F0
03 03 F0
03 03 F0
03 03 F0
03 03 F0
write:07 03 07 CF 00 78 74 C5
03 03 F0
03 03 F0
03 03 F0
03 03 F0
03 03 F0
03 03 F0
03 03 F0
03 03 F0
write:07 03 01 0F 00 08 75 95
03 03 F0
03 03 F0
03 03 F0
03 03 F0
03 03 F0
03 03 F0
03 03 F0
03 03 F0
write:08 03 00 38 00 34 C5 49
03 03 F0
03 03 F0
03 03 F0
03 03 F0
03 03 F0
03 03 F0
03 03 F0
write:08 03 07 CF 00 78 74 3A
03 03 F0
03 03 F0
03 03 F0
03 03 F0
03 03 F0
03 03 F0
03 03 F0
03 03 F0
write:08 03 01 0F 00 08 75 6A
03 03 F0
03 03 F0
03 03 F0
03 03 F0
03 03 F0
03 03 F0
03 03 F0
03 03 F0
write:09 03 00 38 00 34 C4 98
03 03 F0
03 03 F0
03 03 F0
03 03 F0
03 03 F0
03 03 F0
03 03 F0
write:09 03 07 CF 00 78 75 EB
03 03 F0
03 03 F0
03 03 F0
03 03 F0
03 03 F0
03 03 F0
03 03 F0
03 03 F0
write:09 03 01 0F 00 08 74 BB
03 03 F0
03 03 F0
03 03 F0
03 03 F0
03 03 F0
03 03 F0
03 03 F0
03 03 F0
03 03 F0
write:01 03 00 38 00 34 C5 D0
03 03 F0
03 03 F0
03 03 F0
03 03 F0
03 03 F0
03 03 F0
03 03 F0
03 03 F0
write:01 03 07 CF 00 78 74 A3
03 03 F0
03 03 F0
03 03 F0
03 03 F0
03 03 F0
03 03 F0
03 03 F0
03 03 F0
write:01 03 01 0F 00 08 75 F3
03 03 F0
03 03 F0
03 03 F0
03 03 F0
03 03 F0
03 03 F0
03 03 F0
write:02 03 00 38 00 34 C5 E3
03 03 F0
03 03 F0
03 03 F0
03 03 F0
03 03 F0
03 03 F0
03 03 F0
03 03 F0
write:02 03 07 CF 00 78 74 90
03 03 F0
03 03 F0
03 03 F0
03 03 F0
03 03 F0
03 03 F0
03 03 F0
03 03 F0
write:02 03 01 0F 00 08 75 C0
03 03 F0
03 03 F0
03 03 F0
03 03 F0
03 03 F0
03 03 F0
03 03 F0
write:03 03 00 38 00 34 C4 32
03 03 F0
03 03 F0
03 03 F0
03 03 F0
03 03 F0
03 03 F0
03 03 F0
03 03 F0
write:03 03 07 CF 00 78 75 41
03 03 F0
03 03 F0
03 03 F0
03 03 F0
03 03 F0
03 03 F0
03 03 F0
03 03 F0
write:03 03 01 0F 00 08 74 11
03 03 F0
03 03 F0
03 03 F0
03 03 F0
03 03 F0
03 03 F0
03 03 F0
write:04 03 00 38 00 34 C5 85
03 03 F0
03 03 F0
03 03 F0
03 03 F0
03 03 F0
03 03 F0
03 03 F0
03 03 F0
write:04 03 07 CF 00 78 74 F6
03 03 F0
03 03 F0
03 03 F0
03 03 F0
03 03 F0
03 03 F0
03 03 F0
03 03 F0
write:04 03 01 0F 00 08 75 A6
03 03 F0
03 03 F0
03 03 F0
03 03 F0
03 03 F0
03 03 F0
03 03 F0
write:05 03 00 38 00 34 C4 54
03 03 F0
03 03 F0
03 03 F0
03 03 F0
03 03 F0
03 03 F0
03 03 F0
03 03 F0
write:05 03 07 CF 00 78 75 27
03 03 F0
03 03 F0
03 03 F0
03 03 F0
03 03 F0
03 03 F0
03 03 F0
03 03 F0
write:05 03 01 0F 00 08 74 77
03 03 F0
03 03 F0
03 03 F0
03 03 F0
03 03 F0
03 03 F0
03 03 F0
write:06 03 00 38 00 34 C4 67
03 03 F0
03 03 F0
03 03 F0
03 03 F0
03 03 F0
03 03 F0
03 03 F0
03 03 F0
write:06 03 07 CF 00 78 75 14
03 03 F0
03 03 F0
03 03 F0
03 03 F0
03 03 F0
03 03 F0
03 03 F0
03 03 F0
write:06 03 01 0F 00 08 74 44
03 03 F0
03 03 F0
03 03 F0
03 03 F0
03 03 F0
03 03 F0
03 03 F0
write:07 03 00 38 00 34 C5 B6
03 03 F0
03 03 F0
03 03 F0
03 03 F0
03 03 F0
03 03 F0
03 03 F0
03 03 F0
write:07 03 07 CF 00 78 74 C5
03 03 F0
03 03 F0
03 03 F0
03 03 F0
03 03 F0
03 03 F0
03 03 F0
03 03 F0
write:07 03 01 0F 00 08 75 95
03 03 F0
03 03 F0
03 03 F0
03 03 F0
03 03 F0
03 03 F0
03 03 F0
write:08 03 00 38 00 34 C5 49
03 03 F0
03 03 F0
03 03 F0
03 03 F0
03 03 F0
03 03 F0
03 03 F0
03 03 F0
write:08 03 07 CF 00 78 74 3A
03 03 F0
03 03 F0
03 03 F0
03 03 F0
03 03 F0
03 03 F0
03 03 F0
write:08 03 01 0F 00 08 75 6A
03 03 F0
03 03 F0
03 03 F0
03 03 F0
03 03 F0
03 03 F0
03 03 F0
03 03 F0
write:09 03 00 38 00 34 C4 98
03 03 F0
03 03 F0
03 03 F0
03 03 F0
03 03 F0
03 03 F0
03 03 F0
03 03 F0
write:09 03 07 CF 00 78 75 EB
03 03 F0
03 03 F0
03 03 F0
03 03 F0
03 03 F0
03 03 F0
03 03 F0
write:09 03 01 0F 00 08 74 BB
03 03 F0
03 03 F0
03 03 F0
03 03 F0
03 03 F0
03 03 F0
03 03 F0
03 03 F0
03 03 F0
03 03 F0
write:01 03 00 38 00 34 C5 D0
03 03 F0
03 03 F0
03 03 F0
03 03 F0
03 03 F0
03 03 F0
03 03 F0
write:01 03 07 CF 00 78 74 A3
03 03 F0
03 03 F0
03 03 F0
03 03 F0
03 03 F0
03 03 F0
03 03 F0
03 03 F0
write:01 03 01 0F 00 08 75 F3
03 03 F0
03 03 F0
03 03 F0
03 03 F0
03 03 F0
03 03 F0
03 03 F0
03 03 F0
write:02 03 00 38 00 34 C5 E3
03 03 F0
03 03 F0
03 03 F0
03 03 F0
03 03 F0
03 03 F0
03 03 F0
write:02 03 07 CF 00 78 74 90
03 03 F0
03 03 F0
03 03 F0
03 03 F0
03 03 F0
03 03 F0
03 03 F0
03 03 F0
write:02 03 01 0F 00 08 75 C0
03 03 F0
03 03 F0
03 03 F0
03 03 F0
03 03 F0
03 03 F0
03 03 F0
03 03 F0
write:03 03 00 38 00 34 C4 32
03 03 F0
03 03 F0
03 03 F0
03 03 F0
03 03 F0
03 03 F0
03 03 F0
write:03 03 07 CF 00 78 75 41
03 03 F0
03 03 F0
03 03 F0
03 03 F0
03 03 F0
03 03 F0
03 03 F0
03 03 F0
write:03 03 01 0F 00 08 74 11
03 03 F0
03 03 F0
03 03 F0
03 03 F0
03 03 F0
03 03 F0
03 03 F0
03 03 F0
write:04 03 00 38 00 34 C5 85
03 03 F0
03 03 F0
03 03 F0
03 03 F0
03 03 F0
03 03 F0
03 03 F0
write:04 03 07 CF 00 78 74 F6
03 03 F0
03 03 F0
03 03 F0
03 03 F0
03 03 F0
03 03 F0
03 03 F0
03 03 F0
write:04 03 01 0F 00 08 75 A6
03 03 F0
03 03 F0
03 03 F0
03 03 F0
03 03 F0
03 03 F0
03 03 F0
03 03 F0
write:05 03 00 38 00 34 C4 54
03 03 F0
03 03 F0
03 03 F0
03 03 F0
03 03 F0
03 03 F0
03 03 F0
write:05 03 07 CF 00 78 75 27
03 03 F0
03 03 F0
03 03 F0
03 03 F0
03 03 F0
03 03 F0
03 03 F0
03 03 F0
write:05 03 01 0F 00 08 74 77
03 03 F0
03 03 F0
03 03 F0
03 03 F0
03 03 F0
03 03 F0
03 03 F0
03 03 F0
write:06 03 00 38 00 34 C4 67
03 03 F0
03 03 F0
03 03 F0
03 03 F0
03 03 F0
03 03 F0
03 03 F0
write:06 03 07 CF 00 78 75 14
03 03 F0
03 03 F0
03 03 F0
03 03 F0
03 03 F0
03 03 F0
03 03 F0
03 03 F0
write:06 03 01 0F 00 08 74 44
03 03 F0
03 03 F0
03 03 F0
03 03 F0
03 03 F0
03 03 F0
03 03 F0
03 03 F0
write:07 03 00 38 00 34 C5 B6
03 03 F0
03 03 F0
03 03 F0
03 03 F0
03 03 F0
03 03 F0
03 03 F0
write:07 03 07 CF 00 78 74 C5
03 03 F0
03 03 F0
03 03 F0
03 03 F0
03 03 F0
03 03 F0
03 03 F0
03 03 F0
write:07 03 01 0F 00 08 75 95
03 03 F0
03 03 F0
03 03 F0
03 03 F0
03 03 F0
03 03 F0
03 03 F0
03 03 F0
write:08 03 00 38 00 34 C5 49
03 03 F0
03 03 F0
03 03 F0
03 03 F0
03 03 F0
03 03 F0
03 03 F0
write:08 03 07 CF 00 78 74 3A
03 03 F0
03 03 F0
03 03 F0
03 03 F0
03 03 F0
03 03 F0
03 03 F0
03 03 F0
write:08 03 01 0F 00 08 75 6A
03 03 F0
03 03 F0
03 03 F0
03 03 F0
03 03 F0
03 03 F0
03 03 F0
03 03 F0
write:09 03 00 38 00 34 C4 98
03 03 F0
03 03 F0
03 03 F0
03 03 F0
03 03 F0
03 03 F0
03 03 F0
write:09 03 07 CF 00 78 75 EB
03 03 F0
03 03 F0
03 03 F0
03 03 F0
03 03 F0
03 03 F0
03 03 F0
03 03 F0
write:09 03 01 0F 00 08 74 BB
03 03 F0
03 03 F0
03 03 F0
03 03 F0
03 03 F0
03 03 F0
03 03 F0
03 03 F0
03 03 F0
write:01 03 00 38 00 34 C5 D0
03 03 F0
03 03 F0
03 03 F0
03 03 F0
03 03 F0
03 03 F0
03 03 F0
03 03 F0
write:01 03 07 CF 00 78 74 A3
03 03 F0
03 03 F0
03 03 F0
03 03 F0
03 03 F0
03 03 F0
03 03 F0
03 03 F0
write:01 03 01 0F 00 08 75 F3
03 03 F0
03 03 F0
03 03 F0
03 03 F0
03 03 F0
03 03 F0
03 03 F0
write:02 03 00 38 00 34 C5 E3
03 03 F0
03 03 F0
03 03 F0
03 03 F0
03 03 F0
03 03 F0
03 03 F0
03 03 F0
write:02 03 07 CF 00 78 74 90
03 03 F0
03 03 F0
03 03 F0
03 03 F0
03 03 F0
03 03 F0
03 03 F0
03 03 F0
write:02 03 01 0F 00 08 75 C0
03 03 F0
03 03 F0
03 03 F0
03 03 F0
03 03 F0
03 03 F0
03 03 F0
write:03 03 00 38 00 34 C4 32
03 03 F0
03 03 F0
03 03 F0
03 03 F0
03 03 F0
03 03 F0
03 03 F0
03 03 F0
write:03 03 07 CF 00 78 75 41
03 03 F0
03 03 F0
03 03 F0
03 03 F0
03 03 F0
03 03 F0
03 03 F0
03 03 F0
write:03 03 01 0F 00 08 74 11
03 03 F0
03 03 F0
03 03 F0
03 03 F0
03 03 F0
03 03 F0
03 03 F0
write:04 03 00 38 00 34 C5 85
03 03 F0
03 03 F0
03 03 F0
03 03 F0
03 03 F0
03 03 F0
03 03 F0
03 03 F0
write:04 03 07 CF 00 78 74 F6
03 03 F0
03 03 F0
03 03 F0
03 03 F0
03 03 F0
03 03 F0
03 03 F0
03 03 F0
write:04 03 01 0F 00 08 75 A6
03 03 F0
03 03 F0
03 03 F0
03 03 F0
03 03 F0
03 03 F0
03 03 F0
write:05 03 00 38 00 34 C4 54
03 03 F0
03 03 F0
03 03 F0
03 03 F0
03 03 F0
03 03 F0
03 03 F0
03 03 F0
write:05 03 07 CF 00 78 75 27
03 03 F0
03 03 F0
03 03 F0
03 03 F0
03 03 F0
03 03 F0
03 03 F0
03 03 F0
write:05 03 01 0F 00 08 74 77
03 03 F0
03 03 F0
03 03 F0
03 03 F0
03 03 F0
03 03 F0
03 03 F0
write:06 03 00 38 00 34 C4 67
03 03 F0
03 03 F0
03 03 F0
03 03 F0
03 03 F0
03 03 F0
03 03 F0
03 03 F0
write:06 03 07 CF 00 78 75 14
03 03 F0
03 03 F0
03 03 F0
03 03 F0
03 03 F0
03 03 F0
03 03 F0
03 03 F0
write:06 03 01 0F 00 08 74 44
03 03 F0
03 03 F0
03 03 F0
03 03 F0
03 03 F0
03 03 F0
03 03 F0
write:07 03 00 38 00 34 C5 B6
03 03 F0
03 03 F0
03 03 F0
03 03 F0
03 03 F0
03 03 F0
03 03 F0
03 03 F0
write:07 03 07 CF 00 78 74 C5
03 03 F0
03 03 F0
03 03 F0
03 03 F0
03 03 F0
03 03 F0
03 03 F0
03 03 F0
write:07 03 01 0F 00 08 75 95
03 03 F0
03 03 F0
03 03 F0
03 03 F0
03 03 F0
03 03 F0
03 03 F0
write:08 03 00 38 00 34 C5 49
03 03 F0
03 03 F0
03 03 F0
03 03 F0
03 03 F0
03 03 F0
03 03 F0
03 03 F0
write:08 03 07 CF 00 78 74 3A
03 03 F0
03 03 F0
03 03 F0
03 03 F0
03 03 F0
03 03 F0
03 03 F0
03 03 F0
write:08 03 01 0F 00 08 75 6A
03 03 F0
03 03 F0
03 03 F0
03 03 F0
03 03 F0
03 03 F0
03 03 F0
write:09 03 00 38 00 34 C4 98
03 03 F0
03 03 F0
03 03 F0
03 03 F0
03 03 F0
03 03 F0
03 03 F0
03 03 F0
write:09 03 07 CF 00 78 75 EB
03 03 F0
03 03 F0
03 03 F0
03 03 F0
03 03 F0
03 03 F0
03 03 F0
03 03 F0
write:09 03 01 0F 00 08 74 BB
03 03 F0
03 03 F0
03 03 F0
03 03 F0
03 03 F0
03 03 F0
03 03 F0
03 03 F0
03 03 F0
write:01 03 00 38 00 34 C5 D0
03 03 F0
03 03 F0
03 03 F0
03 03 F0
