nohup: ignoring input
Listening on :6005
received messag ?->? 
 124.160.213.138:52110 172.16.246.153:6005
34 30 36
heart:34 30 36 36 32 33 30 31 30 31 30 35 30 32
write:01 03 00 38 00 34 C5 D0
01 03 68
143 6D FE FA 43 6E 86 A8 43 6E 0F 5C 43 CE 49 79 43 CE 54 9C 43 CE 12 0C 00 00 00 00 3F A3 D7 0A 00 00 00 00 43 20 00 00 43 70 00 00 00 00 00 00 43 A0 00 00 00 00 00 00 00 00 00 00 00 00 00 00 43 70 00 00 43 70 00 00 43 A0 00 00 00 00 00 00 43 C8 00 00 3F 01 06 25 3F 2C 49 BA 00 00 00 00 3F 5C AC 08 42 48 5B 51
write:01 03 07 CF 00 78 74 A3
01 03 F0
1totalsize 240
44 01 66 66 42 2C CC CD 43 A3 CC CD 00 00 00 00 43 12 00 00 00 00 00 00 00 00 00 00 00 00 00 00 00 00 00 00 00 00 00 00 3F 4C CC CD 00 00 00 00 3F 4C CC CD 00 00 00 00 00 00 00 00 43 26 00 00 41 B0 00 00 42 A8 CC CD 00 00 00 00 42 6C CC CD 44 0E 99 9A 42 56 66 66 43 B2 00 00 00 00 00 00 43 20 00 00 00 00 00 00 00 00 00 00 00 00 00 00 00 00 00 00 00 00 00 00 3F CC CC CD 00 00 00 00 3F CC CC CD 00 00 00 00 00 00 00 00 43 33 33 33 41 C0 00 00 42 B7 33 33 00 00 00 00 42 7C CC CD 44 42 66 66 42 AF 33 33 43 F7 66 66 00 00 00 00 43 42 CC CD 00 00 00 00 00 00 00 00 00 00 00 00 00 00 00 00 00 00 00 00 42 21 99 9A 3F CC CC CD 41 F3 33 33 00 00 00 00 41 00 00 00 43 36 CC CD 41 DC CC CD 42 BE 66 66 00 00 00 00 42 6E D9 3E
write:01 03 01 0F 00 08 75 F3
01 03 10
100 01 9F C6 00 00 00 00 00 00 8A CF 00 00 C9 E1
43 6D FE FA
237.996
43 6E 86 A8
238.526
43 6E 0F 5C
238.06
43 CE 49 79
412.574
43 CE 54 9C
412.661
43 CE 12 0C
412.141
00 00 00 00
0
3F A3 D7 0A
1.28
00 00 00 00
0
43 20 00 00
160
43 70 00 00
240
00 00 00 00
0
43 A0 00 00
320
00 00 00 00
0
00 00 00 00
0
00 00 00 00
0
43 70 00 00
240
43 70 00 00
240
43 A0 00 00
320
00 00 00 00
0
43 C8 00 00
400
3F 01 06 25
0.504
3F 2C 49 BA
0.673
00 00 00 00
0
3F 5C AC 08
0.862
42 48 5B 51
50.089176
44 01 66 66
517.6
42 2C CC CD
43.2
43 A3 CC CD
327.6
00 00 00 00
0
43 12 00 00
146
00 00 00 00
0
00 00 00 00
0
00 00 00 00
0
00 00 00 00
0
00 00 00 00
0
3F 4C CC CD
0.8
00 00 00 00
0
3F 4C CC CD
0.8
00 00 00 00
0
00 00 00 00
0
43 26 00 00
166
41 B0 00 00
22
42 A8 CC CD
84.4
00 00 00 00
0
42 6C CC CD
59.2
44 0E 99 9A
570.4
42 56 66 66
53.6
43 B2 00 00
356
00 00 00 00
0
43 20 00 00
160
00 00 00 00
0
00 00 00 00
0
00 00 00 00
0
00 00 00 00
0
00 00 00 00
0
3F CC CC CD
1.6
00 00 00 00
0
3F CC CC CD
1.6
00 00 00 00
0
00 00 00 00
0
43 33 33 33
179.2
41 C0 00 00
24
42 B7 33 33
91.6
00 00 00 00
0
42 7C CC CD
63.2
44 42 66 66
777.6
42 AF 33 33
87.6
43 F7 66 66
494.8
00 00 00 00
0
43 42 CC CD
194.8
00 00 00 00
0
00 00 00 00
0
00 00 00 00
0
00 00 00 00
0
00 00 00 00
0
42 21 99 9A
40.4
3F CC CC CD
1.6
41 F3 33 33
30.4
00 00 00 00
0
41 00 00 00
8
43 36 CC CD
182.8
41 DC CC CD
27.6
42 BE 66 66
95.2
00 00 00 00
0
42 6E D9 3E
59.71215
00 01 9F C6
106438
00 00 00 00
0
00 00 8A CF
35535
00 00 C9 E1
51681
237.996238.526238.06412.574412.661412.14101.280160240032000024024032004000.5040.67300.86250.089176517.643.2327.60146000000.800.8001662284.4059.2570.453.63560160000001.601.600179.22491.6063.2777.687.6494.80194.80000040.41.630.408182.827.695.2059.71215120171126225018106.438035.53551.681insert into tbl_power_info_v2(P_A_DIANYA,P_B_DIANYA,P_C_DIANYA,P_UAB_XIANDIANYA,P_UBC_XIANDIANYA,P_UCA_XIANDIANYA,P_A_DIANLIU,P_B_DIANLIU,P_C_DIANLIU,P_A_YGGL,P_B_YGGL,P_C_YGGL,P_HXYGGL,P_A_WGGL,P_B_WGGL,P_C_WGGL,P_HXWGGL,P_A_SZGL,P_B_SZGL,P_C_SZGL,P_HXSZGL,P_A_GLYS,P_B_GLYS,P_C_GLYS,P_HXGLYS,P_DWPL,P_BY_KwhZ,P_BY_KwhJ,P_BY_KwhF,P_BY_KwhP,P_BY_KwhG,P_BY_HKwhZ,P_BY_HKwhJ,P_BY_HKwhF,P_BY_HKwhP,P_BY_HKwhG, P_BY_KvarhZ,P_BY_KvarhJ,P_BY_KvarhF,P_BY_KvarhP,P_BY_KvarhG, P_BY_HKvarhZ,P_BY_HKvarhJ,P_BY_HKvarhF,P_BY_HKvarhP,P_BY_HKvarhG, P_SY_KwhZ,P_SY_KwhJ,P_SY_KwhF,P_SY_KwhP,P_SY_KwhG, P_SY_HKwhZ,P_SY_HKwhJ,P_SY_HKwhF,P_SY_HKwhP,P_SY_HKwhG, P_SY_KvarhZ,P_SY_KvarhJ,P_SY_KvarhF,P_SY_KvarhP,P_SY_KvarhG, P_SY_HKvarhZ,P_SY_HKvarhJ,P_SY_HKvarhF,P_SY_HKvarhP,P_SY_HKvarhG, P_SSY_KwhZ,P_SSY_KwhJ,P_SSY_KwhF,P_SSY_KwhP,P_SSY_KwhG, P_SSY_HKwhZ,P_SSY_HKwhJ,P_SSY_HKwhF,P_SSY_HKwhP,P_SSY_HKwhG, P_SSY_KvarhZ,P_SSY_KvarhJ,P_SSY_KvarhF,P_SSY_KvarhP,P_SSY_KvarhG, P_SSY_HKvarhZ,P_SSY_HKvarhJ,P_SSY_HKvarhF,P_SSY_HKvarhP,P_SSY_HKvarhG,P_CODE,P_TIME,P_ZXYGDN,P_FXYGDN,P_ZXWGDN,P_FXWGDN)values(237.996,238.526,238.06,412.574,412.661,412.141,0,1.28,0,160,240,0,320,0,0,0,240,240,320,0,400,0.504,0.673,0,0.862,50.089176,517.6,43.2,327.6,0,146,0,0,0,0,0,0.8,0,0.8,0,0,166,22,84.4,0,59.2,570.4,53.6,356,0,160,0,0,0,0,0,1.6,0,1.6,0,0,179.2,24,91.6,0,63.2,777.6,87.6,494.8,0,194.8,0,0,0,0,0,40.4,1.6,30.4,0,8,182.8,27.6,95.2,0,59.71215,1,20171126225018,106.438,0,35.535,51.681)
写入成功读取完毕一个
write:02 03 00 38 00 34 C5 E3
02 03 68
243 6D C4 19 43 6E 49 79 43 6D C8 31 43 CE 12 0C 43 CE 12 0C 43 CD DA A0 00 00 00 00 3F B8 51 EC 00 00 00 00 43 70 00 00 43 70 00 00 43 20 00 00 44 34 00 00 00 00 00 00 43 70 00 00 00 00 00 00 43 20 00 00 43 70 00 00 43 A0 00 00 43 70 00 00 44 34 00 00 3F 7E F9 DB 3F 4B 85 1F 3F 64 9B A6 3F 7B 64 5A 42 48 55 70
write:02 03 07 CF 00 78 74 90
02 03 F0
2write:02 03 01 0F 00 08 75 C0
totalsize 240
44 AB 33 33 43 1C 66 66 44 4F 19 9A 00 00 00 00 43 C0 00 00 00 00 00 00 00 00 00 00 00 00 00 00 00 00 00 00 00 00 00 00 42 F4 00 00 41 53 33 33 42 9C CC CD 00 00 00 00 41 F0 00 00 42 33 33 33 40 33 33 33 42 01 99 9A 00 00 00 00 41 13 33 33 44 8E D9 9A 43 18 CC CD 44 1F E6 66 00 00 00 00 43 AF 00 00 00 00 00 00 00 00 00 00 00 00 00 00 00 00 00 00 00 00 00 00 42 21 99 9A 41 20 00 00 41 A9 99 9A 00 00 00 00 41 0C CC CD 42 30 00 00 40 4C CC CD 41 F3 33 33 00 00 00 00 41 19 99 9A 45 2F 66 66 43 E3 99 9A 44 DC 33 33 00 00 00 00 44 13 4C CD 00 00 00 00 00 00 00 00 00 00 00 00 00 00 00 00 00 00 00 00 44 77 E6 66 43 2E CC CD 44 24 B3 33 00 00 00 00 43 1D 99 9A 42 13 33 33 40 00 00 00 41 D9 99 9A 00 00 00 00 40 E6 46 13
02 03 10
200 03 4F 54 00 00 00 05 00 01 34 72 00 00 62 2F
43 6D C4 19
237.766
43 6E 49 79
238.287
43 6D C8 31
237.782
43 CE 12 0C
412.141
43 CE 12 0C
412.141
43 CD DA A0
411.708
00 00 00 00
0
3F B8 51 EC
1.44
00 00 00 00
0
43 70 00 00
240
43 70 00 00
240
43 20 00 00
160
44 34 00 00
720
00 00 00 00
0
43 70 00 00
240
00 00 00 00
0
43 20 00 00
160
43 70 00 00
240
43 A0 00 00
320
43 70 00 00
240
44 34 00 00
720
3F 7E F9 DB
0.996
3F 4B 85 1F
0.795
3F 64 9B A6
0.893
3F 7B 64 5A
0.982
42 48 55 70
50.083435
44 AB 33 33
1369.6
43 1C 66 66
156.4
44 4F 19 9A
828.4
00 00 00 00
0
43 C0 00 00
384
00 00 00 00
0
00 00 00 00
0
00 00 00 00
0
00 00 00 00
0
00 00 00 00
0
42 F4 00 00
122
41 53 33 33
13.2
42 9C CC CD
78.4
00 00 00 00
0
41 F0 00 00
30
42 33 33 33
44.8
40 33 33 33
2.8
42 01 99 9A
32.4
00 00 00 00
0
41 13 33 33
9.2
44 8E D9 9A
1142.8
43 18 CC CD
152.8
44 1F E6 66
639.6
00 00 00 00
0
43 AF 00 00
350
00 00 00 00
0
00 00 00 00
0
00 00 00 00
0
00 00 00 00
0
00 00 00 00
0
42 21 99 9A
40.4
41 20 00 00
10
41 A9 99 9A
21.2
00 00 00 00
0
41 0C CC CD
8.8
42 30 00 00
44
40 4C CC CD
3.2
41 F3 33 33
30.4
00 00 00 00
0
41 19 99 9A
9.6
45 2F 66 66
2806.4
43 E3 99 9A
455.2
44 DC 33 33
1761.6
00 00 00 00
0
44 13 4C CD
589.2
00 00 00 00
0
00 00 00 00
0
00 00 00 00
0
00 00 00 00
0
00 00 00 00
0
44 77 E6 66
991.6
43 2E CC CD
174.8
44 24 B3 33
658.8
00 00 00 00
0
43 1D 99 9A
157.6
42 13 33 33
36.8
40 00 00 00
2
41 D9 99 9A
27.2
00 00 00 00
0
40 E6 46 13
7.196054
00 03 4F 54
216916
00 00 00 05
5
00 01 34 72
78962
00 00 62 2F
25135
237.766238.287237.782412.141412.141411.70801.440240240160720024001602403202407200.9960.7950.8930.98250.0834351369.6156.4828.403840000012213.278.403044.82.832.409.21142.8152.8639.603500000040.41021.208.8443.230.409.62806.4455.21761.60589.200000991.6174.8658.80157.636.8227.207.196054220171126225108216.9160.00578.96225.135insert into tbl_power_info_v2(P_A_DIANYA,P_B_DIANYA,P_C_DIANYA,P_UAB_XIANDIANYA,P_UBC_XIANDIANYA,P_UCA_XIANDIANYA,P_A_DIANLIU,P_B_DIANLIU,P_C_DIANLIU,P_A_YGGL,P_B_YGGL,P_C_YGGL,P_HXYGGL,P_A_WGGL,P_B_WGGL,P_C_WGGL,P_HXWGGL,P_A_SZGL,P_B_SZGL,P_C_SZGL,P_HXSZGL,P_A_GLYS,P_B_GLYS,P_C_GLYS,P_HXGLYS,P_DWPL,P_BY_KwhZ,P_BY_KwhJ,P_BY_KwhF,P_BY_KwhP,P_BY_KwhG,P_BY_HKwhZ,P_BY_HKwhJ,P_BY_HKwhF,P_BY_HKwhP,P_BY_HKwhG, P_BY_KvarhZ,P_BY_KvarhJ,P_BY_KvarhF,P_BY_KvarhP,P_BY_KvarhG, P_BY_HKvarhZ,P_BY_HKvarhJ,P_BY_HKvarhF,P_BY_HKvarhP,P_BY_HKvarhG, P_SY_KwhZ,P_SY_KwhJ,P_SY_KwhF,P_SY_KwhP,P_SY_KwhG, P_SY_HKwhZ,P_SY_HKwhJ,P_SY_HKwhF,P_SY_HKwhP,P_SY_HKwhG, P_SY_KvarhZ,P_SY_KvarhJ,P_SY_KvarhF,P_SY_KvarhP,P_SY_KvarhG, P_SY_HKvarhZ,P_SY_HKvarhJ,P_SY_HKvarhF,P_SY_HKvarhP,P_SY_HKvarhG, P_SSY_KwhZ,P_SSY_KwhJ,P_SSY_KwhF,P_SSY_KwhP,P_SSY_KwhG, P_SSY_HKwhZ,P_SSY_HKwhJ,P_SSY_HKwhF,P_SSY_HKwhP,P_SSY_HKwhG, P_SSY_KvarhZ,P_SSY_KvarhJ,P_SSY_KvarhF,P_SSY_KvarhP,P_SSY_KvarhG, P_SSY_HKvarhZ,P_SSY_HKvarhJ,P_SSY_HKvarhF,P_SSY_HKvarhP,P_SSY_HKvarhG,P_CODE,P_TIME,P_ZXYGDN,P_FXYGDN,P_ZXWGDN,P_FXWGDN)values(237.766,238.287,237.782,412.141,412.141,411.708,0,1.44,0,240,240,160,720,0,240,0,160,240,320,240,720,0.996,0.795,0.893,0.982,50.083435,1369.6,156.4,828.4,0,384,0,0,0,0,0,122,13.2,78.4,0,30,44.8,2.8,32.4,0,9.2,1142.8,152.8,639.6,0,350,0,0,0,0,0,40.4,10,21.2,0,8.8,44,3.2,30.4,0,9.6,2806.4,455.2,1761.6,0,589.2,0,0,0,0,0,991.6,174.8,658.8,0,157.6,36.8,2,27.2,0,7.196054,2,20171126225108,216.916,0.005,78.962,25.135)
写入成功读取完毕一个
write:03 03 00 38 00 34 C4 32
03 03 68
343 6E 5B E7 43 6E B9 9A 43 6E 30 E5 43 CE 8C 08 43 CE 75 E3 43 CE 49 79 3E E6 66 66 40 02 8F 5C 3F F9 99 9A 42 B4 00 00 43 E1 00 00 42 F0 00 00 44 00 00 00 00 00 00 00 00 00 00 00 00 00 00 00 00 00 00 00 00 00 00 00 00 00 00 00 00 00 00 00 00 00 00 00 00 00 00 00 00 00 00 00 00 00 00 00 00 00 00 00 00 00 00 00
25 00 00
heart:25 00 00 00 00 00 00 43 34 00 00 43 E1 00 00 44 0E 80 00 42 F0 00 00 43 F0 00 00 43 E1 00 00 44 59 80 00 3F 5E F9 DB 3F 64 DD 2F 3E 92 6E 98 3F 40 00 00 42 48 45 C6
write:03 03 07 CF 00 78 75 41
03 03 F0
3totalsize 240
43 C5 79 9A 42 9C E6 66 43 59 CC CD 00 00 00 00 42 C5 19 9A 00 00 00 00 00 00 00 00 00 00 00 00 00 00 00 00 00 00 00 00 42 A9 33 33 41 7C 00 00 42 5C CC CD 00 00 00 00 41 58 00 00 40 9E 66 66 3F 66 66 66 40 53 33 33 00 00 00 00 3F 19 99 9A 43 EF 2C CD 42 F0 00 00 43 7D 33 33 00 00 00 00 42 D1 B3 33 00 00 00 00 00 00 00 00 00 00 00 00 00 00 00 00 00 00 00 00 42 9C E6 66 40 E6 66 66 42 5B 99 9A 00 00 00 00 41 80 66 66 41 68 CC CD 40 A8 00 00 40 F9 99 9A 00 00 00 00 3F AC CC CD 43 D8 60 00 42 B5 80 00 43 81 86 66 00 00 00 00 42 A5 99 9A 00 00 00 00 00 00 00 00 00 00 00 00 00 00 00 00 00 00 00 00 42 F7 CC CD 41 90 00 00 42 A5 99 9A 00 00 00 00 41 B8 CC CD 40 EB 33 33 40 06 66 66 40 53 33 33 00 00 00 00 3F E6 65 A6
write:03 03 01 0F 00 08 74 11
write:04 03 00 38 00 34 C5 85
write:04 03 07 CF 00 78 74 F6
write:04 03 01 0F 00 08 75 A6
write:05 03 00 38 00 34 C4 54
write:05 03 07 CF 00 78 75 27
write:05 03 01 0F 00 08 74 77
write:06 03 00 38 00 34 C4 67
write:06 03 07 CF 00 78 75 14
write:06 03 01 0F 00 08 74 44
34 30 36
heart:34 30 36 36 32 33 30 31 30 31 30 35 30 32
34 30 36
heart:34 30 36 36 32 33 30 31 30 31 30 35 30 32
03 03 10
300 00 C5 58 00 00 00 00 00 00 27 68 00 00 32 A5
43 6E 5B E7
238.359
43 6E B9 9A
238.725
43 6E 30 E5
238.191
43 CE 8C 08
413.094
43 CE 75 E3
412.921
43 CE 49 79
412.574
3E E6 66 66
0.45
40 02 8F 5C
2.04
3F F9 99 9A
1.95
42 B4 00 00
90
43 E1 00 00
450
42 F0 00 00
120
44 00 00 00
512
00 00 00 00
0
00 00 00 00
0
00 00 00 00
0
00 00 00 00
0
00 00 00 00
0
00 00 00 00
0
00 00 00 00
0
00 00 00 00
0
00 00 00 00
0
00 00 00 00
0
00 00 00 00
0
00 00 00 00
0
00 00 00 00
0
43 C5 79 9A
394.95
42 9C E6 66
78.45
43 59 CC CD
217.8
00 00 00 00
0
42 C5 19 9A
98.55
00 00 00 00
0
00 00 00 00
0
00 00 00 00
0
00 00 00 00
0
00 00 00 00
0
42 A9 33 33
84.6
41 7C 00 00
15.75
42 5C CC CD
55.2
00 00 00 00
0
41 58 00 00
13.5
40 9E 66 66
4.95
3F 66 66 66
0.9
40 53 33 33
3.3
00 00 00 00
0
3F 19 99 9A
0.6
43 EF 2C CD
478.35
42 F0 00 00
120
43 7D 33 33
253.2
00 00 00 00
0
42 D1 B3 33
104.85
00 00 00 00
0
00 00 00 00
0
00 00 00 00
0
00 00 00 00
0
00 00 00 00
0
42 9C E6 66
78.45
40 E6 66 66
7.2
42 5B 99 9A
54.9
00 00 00 00
0
41 80 66 66
16.05
41 68 CC CD
14.55
40 A8 00 00
5.25
40 F9 99 9A
7.8
00 00 00 00
0
3F AC CC CD
1.35
43 D8 60 00
432.75
42 B5 80 00
90.75
43 81 86 66
259.05
00 00 00 00
0
42 A5 99 9A
82.8
00 00 00 00
0
00 00 00 00
0
00 00 00 00
0
00 00 00 00
0
00 00 00 00
0
42 F7 CC CD
123.9
41 90 00 00
18
42 A5 99 9A
82.8
00 00 00 00
0
41 B8 CC CD
23.1
40 EB 33 33
7.35
40 06 66 66
2.1
40 53 33 33
3.3
00 00 00 00
0
3F E6 65 A6
1.7999771
00 00 C5 58
50520
00 00 00 00
0
00 00 27 68
10088
00 00 32 A5
12965
238.359238.725238.191413.094412.921412.5740.452.041.95904501205120000000000000394.9578.45217.8098.550000084.615.7555.2013.54.950.93.300.6478.35120253.20104.850000078.457.254.9016.0514.555.257.801.35432.7590.75259.05082.800000123.91882.8023.17.352.13.301.799977132017112622551050.52010.08812.965insert into tbl_power_info_v2(P_A_DIANYA,P_B_DIANYA,P_C_DIANYA,P_UAB_XIANDIANYA,P_UBC_XIANDIANYA,P_UCA_XIANDIANYA,P_A_DIANLIU,P_B_DIANLIU,P_C_DIANLIU,P_A_YGGL,P_B_YGGL,P_C_YGGL,P_HXYGGL,P_A_WGGL,P_B_WGGL,P_C_WGGL,P_HXWGGL,P_A_SZGL,P_B_SZGL,P_C_SZGL,P_HXSZGL,P_A_GLYS,P_B_GLYS,P_C_GLYS,P_HXGLYS,P_DWPL,P_BY_KwhZ,P_BY_KwhJ,P_BY_KwhF,P_BY_KwhP,P_BY_KwhG,P_BY_HKwhZ,P_BY_HKwhJ,P_BY_HKwhF,P_BY_HKwhP,P_BY_HKwhG, P_BY_KvarhZ,P_BY_KvarhJ,P_BY_KvarhF,P_BY_KvarhP,P_BY_KvarhG, P_BY_HKvarhZ,P_BY_HKvarhJ,P_BY_HKvarhF,P_BY_HKvarhP,P_BY_HKvarhG, P_SY_KwhZ,P_SY_KwhJ,P_SY_KwhF,P_SY_KwhP,P_SY_KwhG, P_SY_HKwhZ,P_SY_HKwhJ,P_SY_HKwhF,P_SY_HKwhP,P_SY_HKwhG, P_SY_KvarhZ,P_SY_KvarhJ,P_SY_KvarhF,P_SY_KvarhP,P_SY_KvarhG, P_SY_HKvarhZ,P_SY_HKvarhJ,P_SY_HKvarhF,P_SY_HKvarhP,P_SY_HKvarhG, P_SSY_KwhZ,P_SSY_KwhJ,P_SSY_KwhF,P_SSY_KwhP,P_SSY_KwhG, P_SSY_HKwhZ,P_SSY_HKwhJ,P_SSY_HKwhF,P_SSY_HKwhP,P_SSY_HKwhG, P_SSY_KvarhZ,P_SSY_KvarhJ,P_SSY_KvarhF,P_SSY_KvarhP,P_SSY_KvarhG, P_SSY_HKvarhZ,P_SSY_HKvarhJ,P_SSY_HKvarhF,P_SSY_HKvarhP,P_SSY_HKvarhG,P_CODE,P_TIME,P_ZXYGDN,P_FXYGDN,P_ZXWGDN,P_FXWGDN)values(238.359,238.725,238.191,413.094,412.921,412.574,0.45,2.04,1.95,90,450,120,512,0,0,0,0,0,0,0,0,0,0,0,0,0,394.95,78.45,217.8,0,98.55,0,0,0,0,0,84.6,15.75,55.2,0,13.5,4.95,0.9,3.3,0,0.6,478.35,120,253.2,0,104.85,0,0,0,0,0,78.45,7.2,54.9,0,16.05,14.55,5.25,7.8,0,1.35,432.75,90.75,259.05,0,82.8,0,0,0,0,0,123.9,18,82.8,0,23.1,7.35,2.1,3.3,0,1.7999771,3,20171126225510,50.52,0,10.088,12.965)
写入成功读取完毕一个
7E 7C 7B
heart:7E 7C 7B F1 F8 FF EF 7D FE FF F6 FD FF FB FF 0F FC DF FB 57 FF FF FB CD FF FE FF DD FD FF D7 CC CD 40 19 99 9A 43 48 00 00
42 F0 00
heart:42 F0 00 00 44 02 00 00 44 52 00 00 42 A0 00 00 00 00 00 00 00 00 00 00 00 00 00 00 43 70 00 00 43 48 00 00 44 0C 00 00 44 52 00 00 3F 60 41 89 3F 29 37 4C 3F 64 18 93 3F 80 00 00 42 48 15 66
write:07 03 00 38 00 34 C5 B6
write:07 03 07 CF 00 78 74 C5
write:07 03 01 0F 00 08 75 95
write:08 03 00 38 00 34 C5 49
08 03 68
843 6C EE 56 43 6D 92 2D 43 6C EC 08 43 CD 6B C7 43 CD 6B C7 43 CD 29 37 00 00 00 00 00 00 00 00 00 00 00 00 00 00 00 00 00 00 00 00 00 00 00 00 00 00 00 00 00 00 00 00 00 00 00 00 00 00 00 00 00 00 00 00 00 00 00 00 42 70 00 00 00 00 00 00 00 00 00 00 00 00 00 00 3F 0D 4F DF 00 00 00 00 00 00 00 00 42 47 B1 98
write:08 03 07 CF 00 78 74 3A
08 03 F0
8totalsize 240
42 76 00 00 00 00 00 00 42 23 33 33 00 00 00 00 41 A5 99 9A 00 00 00 00 00 00 00 00 00 00 00 00 00 00 00 00 00 00 00 00 00 00 00 00 00 00 00 00 00 00 00 00 00 00 00 00 00 00 00 00 41 36 66 66 00 00 00 00 40 E1 99 9A 00 00 00 00 40 86 66 66 42 67 00 00 00 00 00 00 42 28 00 00 00 00 00 00 41 79 99 9A 00 00 00 00 00 00 00 00 00 00 00 00 00 00 00 00 00 00 00 00 00 00 00 00 00 00 00 00 00 00 00 00 00 00 00 00 00 00 00 00 41 1E 66 66 00 00 00 00 40 DC CC CD 00 00 00 00 40 40 00 00 42 95 19 9A 00 00 00 00 42 3B CC CD 00 00 00 00 41 DB 99 9A 00 00 00 00 00 00 00 00 00 00 00 00 00 00 00 00 00 00 00 00 00 00 00 00 00 00 00 00 00 00 00 00 00 00 00 00 00 00 00 00 41 4E 66 66 00 00 00 00 41 06 66 66 00 00 00 00 40 8B 3B B7
write:08 03 01 0F 00 08 75 6A
write:09 03 00 38 00 34 C4 98
write:09 03 07 CF 00 78 75 EB
write:09 03 01 0F 00 08 74 BB
write:01 03 00 38 00 34 C5 D0
write:01 03 07 CF 00 78 74 A3
write:01 03 01 0F 00 08 75 F3
write:02 03 00 38 00 34 C5 E3
write:02 03 07 CF 00 78 74 90
write:02 03 01 0F 00 08 75 C0
34 30 36
heart:34 30 36 36 32 33 30 31 30 31 30 35 30 32
34 30 36
heart:34 30 36 36 32 33 30 31 30 31 30 35 30 32 FB CF D7 3C 7B 7C FF DF 00 00 00 00 00 00 00 00 00 00 E6 B7 F9 FF EF F7 FC 7F 7C FF E9 FD FF F5 86 FE FF FB E4 F9 FD FC 02 03 10 00 00 00 03 4F 55 00 00 00 05 00 01 34 73 00 00 37 13
write:03 03 00 38 00 34 C4 32
03 03 68
343 6D AB 85 43 6E 31 EC 43 6D BD 2F 43 CD FB E7 43 CE 06 E9 43 CD CF 7D 3E F5 C2 8F 3F DA E1 48 00 00 00 00 42 B4 00 00 43 C3 00 00 00 00 00 00 43 FF 00 00 00 00 00 00 00 00 00 00 00 00 00 00 00 00 00 00 42 F0 00 00 43 D2 00 00 00 00 00 00 43 FF 00 00 3F 63 53 F8 3F 70 E5 60 00 00 00 00 3F 7F 3B 64 42 48 E8 F6
write:03 03 07 CF 00 78 75 41
03 03 F0
3totalsize 240
43 C5 79 9A 42 9C E6 66 43 59 CC CD 00 00 00 00 42 C5 19 9A 00 00 00 00 00 00 00 00 00 00 00 00 00 00 00 00 00 00 00 00 42 A9 33 33 41 7C 00 00 42 5C CC CD 00 00 00 00 41 58 00 00 40 9E 66 66 3F 66 66 66 40 53 33 33 00 00 00 00 3F 19 99 9A 43 EF 2C CD 42 F0 00 00 43 7D 33 33 00 00 00 00 42 D1 B3 33 00 00 00 00 00 00 00 00 00 00 00 00 00 00 00 00 00 00 00 00 42 9C E6 66 40 E6 66 66 42 5B 99 9A 00 00 00 00 41 80 66 66 41 68 CC CD 40 A8 00 00 40 F9 99 9A 00 00 00 00 3F AC CC CD 43 D8 60 00 42 B5 80 00 43 81 86 66 00 00 00 00 42 A5 99 9A 00 00 00 00 00 00 00 00 00 00 00 00 00 00 00 00 00 00 00 00 42 F7 CC CD 41 90 00 00 42 A5 99 9A 00 00 00 00 41 B8 CC CD 40 EB 33 33 40 06 66 66 40 53 33 33 00 00 00 00 3F E6 65 A6
write:03 03 01 0F 00 08 74 11
03 03 10
300 00 C5 5A 00 00 00 00 00 00 27 6A 00 00 98 DD
43 6D AB 85
237.67
43 6E 31 EC
238.195
43 6D BD 2F
237.739
43 CD FB E7
411.968
43 CE 06 E9
412.054
43 CD CF 7D
411.621
3E F5 C2 8F
0.48
3F DA E1 48
1.71
00 00 00 00
0
42 B4 00 00
90
43 C3 00 00
390
00 00 00 00
0
43 FF 00 00
510
00 00 00 00
0
00 00 00 00
0
00 00 00 00
0
00 00 00 00
0
42 F0 00 00
120
43 D2 00 00
420
00 00 00 00
0
43 FF 00 00
510
3F 63 53 F8
0.888
3F 70 E5 60
0.941
00 00 00 00
0
3F 7F 3B 64
0.997
42 48 E8 F6
50.2275
43 C5 79 9A
394.95
42 9C E6 66
78.45
43 59 CC CD
217.8
00 00 00 00
0
42 C5 19 9A
98.55
00 00 00 00
0
00 00 00 00
0
00 00 00 00
0
00 00 00 00
0
00 00 00 00
0
42 A9 33 33
84.6
41 7C 00 00
15.75
42 5C CC CD
55.2
00 00 00 00
0
41 58 00 00
13.5
40 9E 66 66
4.95
3F 66 66 66
0.9
40 53 33 33
3.3
00 00 00 00
0
3F 19 99 9A
0.6
43 EF 2C CD
478.35
42 F0 00 00
120
43 7D 33 33
253.2
00 00 00 00
0
42 D1 B3 33
104.85
00 00 00 00
0
00 00 00 00
0
00 00 00 00
0
00 00 00 00
0
00 00 00 00
0
42 9C E6 66
78.45
40 E6 66 66
7.2
42 5B 99 9A
54.9
00 00 00 00
0
41 80 66 66
16.05
41 68 CC CD
14.55
40 A8 00 00
5.25
40 F9 99 9A
7.8
00 00 00 00
0
3F AC CC CD
1.35
43 D8 60 00
432.75
42 B5 80 00
90.75
43 81 86 66
259.05
00 00 00 00
0
42 A5 99 9A
82.8
00 00 00 00
0
00 00 00 00
0
00 00 00 00
0
00 00 00 00
0
00 00 00 00
0
42 F7 CC CD
123.9
41 90 00 00
18
42 A5 99 9A
82.8
00 00 00 00
0
41 B8 CC CD
23.1
40 EB 33 33
7.35
40 06 66 66
2.1
40 53 33 33
3.3
00 00 00 00
0
3F E6 65 A6
1.7999771
00 00 C5 5A
50522
00 00 00 00
0
00 00 27 6A
10090
00 00 98 DD
39133
237.67238.195237.739411.968412.054411.6210.481.710903900510000012042005100.8880.94100.99750.2275394.9578.45217.8098.550000084.615.7555.2013.54.950.93.300.6478.35120253.20104.850000078.457.254.9016.0514.555.257.801.35432.7590.75259.05082.800000123.91882.8023.17.352.13.301.799977132017112623011450.522010.0939.133insert into tbl_power_info_v2(P_A_DIANYA,P_B_DIANYA,P_C_DIANYA,P_UAB_XIANDIANYA,P_UBC_XIANDIANYA,P_UCA_XIANDIANYA,P_A_DIANLIU,P_B_DIANLIU,P_C_DIANLIU,P_A_YGGL,P_B_YGGL,P_C_YGGL,P_HXYGGL,P_A_WGGL,P_B_WGGL,P_C_WGGL,P_HXWGGL,P_A_SZGL,P_B_SZGL,P_C_SZGL,P_HXSZGL,P_A_GLYS,P_B_GLYS,P_C_GLYS,P_HXGLYS,P_DWPL,P_BY_KwhZ,P_BY_KwhJ,P_BY_KwhF,P_BY_KwhP,P_BY_KwhG,P_BY_HKwhZ,P_BY_HKwhJ,P_BY_HKwhF,P_BY_HKwhP,P_BY_HKwhG, P_BY_KvarhZ,P_BY_KvarhJ,P_BY_KvarhF,P_BY_KvarhP,P_BY_KvarhG, P_BY_HKvarhZ,P_BY_HKvarhJ,P_BY_HKvarhF,P_BY_HKvarhP,P_BY_HKvarhG, P_SY_KwhZ,P_SY_KwhJ,P_SY_KwhF,P_SY_KwhP,P_SY_KwhG, P_SY_HKwhZ,P_SY_HKwhJ,P_SY_HKwhF,P_SY_HKwhP,P_SY_HKwhG, P_SY_KvarhZ,P_SY_KvarhJ,P_SY_KvarhF,P_SY_KvarhP,P_SY_KvarhG, P_SY_HKvarhZ,P_SY_HKvarhJ,P_SY_HKvarhF,P_SY_HKvarhP,P_SY_HKvarhG, P_SSY_KwhZ,P_SSY_KwhJ,P_SSY_KwhF,P_SSY_KwhP,P_SSY_KwhG, P_SSY_HKwhZ,P_SSY_HKwhJ,P_SSY_HKwhF,P_SSY_HKwhP,P_SSY_HKwhG, P_SSY_KvarhZ,P_SSY_KvarhJ,P_SSY_KvarhF,P_SSY_KvarhP,P_SSY_KvarhG, P_SSY_HKvarhZ,P_SSY_HKvarhJ,P_SSY_HKvarhF,P_SSY_HKvarhP,P_SSY_HKvarhG,P_CODE,P_TIME,P_ZXYGDN,P_FXYGDN,P_ZXWGDN,P_FXWGDN)values(237.67,238.195,237.739,411.968,412.054,411.621,0.48,1.71,0,90,390,0,510,0,0,0,0,120,420,0,510,0.888,0.941,0,0.997,50.2275,394.95,78.45,217.8,0,98.55,0,0,0,0,0,84.6,15.75,55.2,0,13.5,4.95,0.9,3.3,0,0.6,478.35,120,253.2,0,104.85,0,0,0,0,0,78.45,7.2,54.9,0,16.05,14.55,5.25,7.8,0,1.35,432.75,90.75,259.05,0,82.8,0,0,0,0,0,123.9,18,82.8,0,23.1,7.35,2.1,3.3,0,1.7999771,3,20171126230114,50.522,0,10.09,39.133)
写入成功读取完毕一个
write:04 03 00 38 00 34 C5 85
04 03 68
443 6D 5D 2F 43 6D CC 08 43 6D 5F 7D 43 CD AE 56 43 CD AE 56 43 CD 81 EC 3F 85 1E B8 3F 4C CC CD 41 25 1E B8 43 70 00 00 42 F0 00 00 45 16 00 00 45 2C 80 00 42 A0 00 00 00 00 00 00 43 A0 00 00 43 B4 00 00 43 70 00 00 43 48 00 00 45 18 80 00 45 2F 00 00 3F 64 5A 1D 3F 29 78 D5 3F 7D 2F 1B 3F 7D F3 B6 42 48 81 AB
write:04 03 07 CF 00 78 74 F6
04 03 F0
4totalsize 240
44 26 D9 9A 43 0C 33 33 43 BD 99 9A 00 00 00 00 43 13 CC CD 00 00 00 00 00 00 00 00 00 00 00 00 00 00 00 00 00 00 00 00 40 C0 00 00 3E 4C CC CD 3F CC CC CD 00 00 00 00 40 86 66 66 42 86 66 66 41 63 33 33 42 04 CC CD 00 00 00 00 41 9E 66 66 44 1B 00 00 42 CE CC CD 43 AE 00 00 00 00 00 00 43 28 66 66 00 00 00 00 00 00 00 00 00 00 00 00 00 00 00 00 00 00 00 00 41 B0 00 00 40 26 66 66 40 C0 00 00 00 00 00 00 41 53 33 33 42 48 CC CD 41 06 66 66 41 D0 00 00 00 00 00 00 41 76 66 66 44 21 8C CD 42 DE CC CD 43 B0 99 9A 00 00 00 00 43 35 33 33 00 00 00 00 00 00 00 00 00 00 00 00 00 00 00 00 00 00 00 00 41 E8 00 00 40 B9 99 9A 40 E0 00 00 00 00 00 00 41 81 99 9A 42 14 CC CD 40 8C CC CD 41 9B 33 33 00 00 00 00 41 50 F5 F6
write:04 03 01 0F 00 08 75 A6
04 03 10
400 02 92 C5 00 00 00 00 00 00 42 3E 00 00 8D EA
43 6D 5D 2F
237.364
43 6D CC 08
237.797
43 6D 5F 7D
237.373
43 CD AE 56
411.362
43 CD AE 56
411.362
43 CD 81 EC
411.015
3F 85 1E B8
1.04
3F 4C CC CD
0.8
41 25 1E B8
10.32
43 70 00 00
240
42 F0 00 00
120
45 16 00 00
2400
45 2C 80 00
2760
42 A0 00 00
80
00 00 00 00
0
43 A0 00 00
320
43 B4 00 00
360
43 70 00 00
240
43 48 00 00
200
45 18 80 00
2440
45 2F 00 00
2800
3F 64 5A 1D
0.892
3F 29 78 D5
0.662
3F 7D 2F 1B
0.989
3F 7D F3 B6
0.992
42 48 81 AB
50.12663
44 26 D9 9A
667.4
43 0C 33 33
140.2
43 BD 99 9A
379.2
00 00 00 00
0
43 13 CC CD
147.8
00 00 00 00
0
00 00 00 00
0
00 00 00 00
0
00 00 00 00
0
00 00 00 00
0
40 C0 00 00
6
3E 4C CC CD
0.2
3F CC CC CD
1.6
00 00 00 00
0
40 86 66 66
4.2
42 86 66 66
67.2
41 63 33 33
14.2
42 04 CC CD
33.2
00 00 00 00
0
41 9E 66 66
19.8
44 1B 00 00
620
42 CE CC CD
103.4
43 AE 00 00
348
00 00 00 00
0
43 28 66 66
168.4
00 00 00 00
0
00 00 00 00
0
00 00 00 00
0
00 00 00 00
0
00 00 00 00
0
41 B0 00 00
22
40 26 66 66
2.6
40 C0 00 00
6
00 00 00 00
0
41 53 33 33
13.2
42 48 CC CD
50.2
41 06 66 66
8.4
41 D0 00 00
26
00 00 00 00
0
41 76 66 66
15.4
44 21 8C CD
646.2
42 DE CC CD
111.4
43 B0 99 9A
353.2
00 00 00 00
0
43 35 33 33
181.2
00 00 00 00
0
00 00 00 00
0
00 00 00 00
0
00 00 00 00
0
00 00 00 00
0
41 E8 00 00
29
40 B9 99 9A
5.8
40 E0 00 00
7
00 00 00 00
0
41 81 99 9A
16.2
42 14 CC CD
37.2
40 8C CC CD
4.4
41 9B 33 33
19.4
00 00 00 00
0
41 50 F5 F6
13.060049
00 02 92 C5
168645
00 00 00 00
0
00 00 42 3E
16958
00 00 8D EA
36330
237.364237.797237.373411.362411.362411.0151.040.810.3224012024002760800320360240200244028000.8920.6620.9890.99250.12663667.4140.2379.20147.80000060.21.604.267.214.233.2019.8620103.43480168.400000222.66013.250.28.426015.4646.2111.4353.20181.200000295.87016.237.24.419.4013.060049420171126230214168.645016.95836.33insert into tbl_power_info_v2(P_A_DIANYA,P_B_DIANYA,P_C_DIANYA,P_UAB_XIANDIANYA,P_UBC_XIANDIANYA,P_UCA_XIANDIANYA,P_A_DIANLIU,P_B_DIANLIU,P_C_DIANLIU,P_A_YGGL,P_B_YGGL,P_C_YGGL,P_HXYGGL,P_A_WGGL,P_B_WGGL,P_C_WGGL,P_HXWGGL,P_A_SZGL,P_B_SZGL,P_C_SZGL,P_HXSZGL,P_A_GLYS,P_B_GLYS,P_C_GLYS,P_HXGLYS,P_DWPL,P_BY_KwhZ,P_BY_KwhJ,P_BY_KwhF,P_BY_KwhP,P_BY_KwhG,P_BY_HKwhZ,P_BY_HKwhJ,P_BY_HKwhF,P_BY_HKwhP,P_BY_HKwhG, P_BY_KvarhZ,P_BY_KvarhJ,P_BY_KvarhF,P_BY_KvarhP,P_BY_KvarhG, P_BY_HKvarhZ,P_BY_HKvarhJ,P_BY_HKvarhF,P_BY_HKvarhP,P_BY_HKvarhG, P_SY_KwhZ,P_SY_KwhJ,P_SY_KwhF,P_SY_KwhP,P_SY_KwhG, P_SY_HKwhZ,P_SY_HKwhJ,P_SY_HKwhF,P_SY_HKwhP,P_SY_HKwhG, P_SY_KvarhZ,P_SY_KvarhJ,P_SY_KvarhF,P_SY_KvarhP,P_SY_KvarhG, P_SY_HKvarhZ,P_SY_HKvarhJ,P_SY_HKvarhF,P_SY_HKvarhP,P_SY_HKvarhG, P_SSY_KwhZ,P_SSY_KwhJ,P_SSY_KwhF,P_SSY_KwhP,P_SSY_KwhG, P_SSY_HKwhZ,P_SSY_HKwhJ,P_SSY_HKwhF,P_SSY_HKwhP,P_SSY_HKwhG, P_SSY_KvarhZ,P_SSY_KvarhJ,P_SSY_KvarhF,P_SSY_KvarhP,P_SSY_KvarhG, P_SSY_HKvarhZ,P_SSY_HKvarhJ,P_SSY_HKvarhF,P_SSY_HKvarhP,P_SSY_HKvarhG,P_CODE,P_TIME,P_ZXYGDN,P_FXYGDN,P_ZXWGDN,P_FXWGDN)values(237.364,237.797,237.373,411.362,411.362,411.015,1.04,0.8,10.32,240,120,2400,2760,80,0,320,360,240,200,2440,2800,0.892,0.662,0.989,0.992,50.12663,667.4,140.2,379.2,0,147.8,0,0,0,0,0,6,0.2,1.6,0,4.2,67.2,14.2,33.2,0,19.8,620,103.4,348,0,168.4,0,0,0,0,0,22,2.6,6,0,13.2,50.2,8.4,26,0,15.4,646.2,111.4,353.2,0,181.2,0,0,0,0,0,29,5.8,7,0,16.2,37.2,4.4,19.4,0,13.060049,4,20171126230214,168.645,0,16.958,36.33)
写入成功读取完毕一个
write:05 03 00 38 00 34 C4 54
write:05 03 07 CF 00 78 75 27
write:05 03 01 0F 00 08 74 77
write:06 03 00 38 00 34 C4 67
write:06 03 07 CF 00 78 75 14
write:06 03 01 0F 00 08 74 44
write:07 03 00 38 00 34 C5 B6
write:07 03 07 CF 00 78 74 C5
write:07 03 01 0F 00 08 75 95
write:08 03 00 38 00 34 C5 49
write:08 03 07 CF 00 78 74 3A
write:08 03 01 0F 00 08 75 6A
34 30 36
heart:34 30 36 36 32 33 30 31 30 31 30 35 30 32
34 30 36
heart:34 30 36 36 32 33 30 31 30 31 30 35 30 32
F9 7C FF
heart:F9 7C FF 45 F0 6E 49 FC 43 6E D5 3F 43 6E 27 F0 43 CE 8C
08 43 CE
heart:08 43 CE 80 E5 43 CE 49 79 40 4C CC CD 40 D5 C2 8F 40 A6 66 66 43 DC 00 00 44 B9 00 00 44 91 00 00 45 40 80 00 42 F0 00 00 43 48 00 00 00 00 00 00 43 C8 00 00 44 3E 00 00 44 C8 00 00 44 9B 00 00 45 43 00 00 3F 0E 14 7B 3F 70 20 C5 3F 72 F1 AA 3F 7D F3 B6 42 48 00 5E
7E EF F7
heart:7E EF F7 C4 FE FC F9 B7 FD DE EF F7 F9 FF D7 C7 5F F5 FD F9 F1 ED FF F1 EF D5 E9 6E F1 27 43 6E 32 F2 43 CE A2 2D 43 CE 8C 08 43 CE 49 79 00 00 00 00 00 00 00 00 00 00 00 00 00 00 00 00 00 00 00 00 00 00 00 00 00 00 00 00 00 00 00 00 00 00 00 00 00 00 00 00 00 00 00 00 00 00 00 00 42 70 00 00 00 00 00 00 00 00 00 00 00 00 00 00 3F 0E 97 8D 00 00 00 00 00 00 00 00 42 48 F7 A7
write:09 03 00 38 00 34 C4 98
write:09 03 07 CF 00 78 75 EB
09 03 68
943 6E 5C EE 43 6E E9 79 43 6E 31 68 43 CE A2 2D 43 CE 8C 08 43 CE 49 79 00 00 00 00 00 00 00 00 3F 5E B8 52 00 00 00 00 00 00 00 00 43 34 00 00 43 70 00 00 42 70 00 00 42 70 00 00 42 B4 00 00 43 52 00 00 42 B4 00 00 42 70 00 00 43 52 00 00 43 A5 00 00 3E ED 0E 56 3E 3B 64 5A 3F 5A 5E 35 3F 3B E7 6D 42 48 42 9A
09 03 F0
9totalsize 240
43 22 E6 66 41 AF 33 33 42 A0 CC CD 00 00 00 00 42 71 CC CD 00 00 00 00 00 00 00 00 00 00 00 00 00 00 00 00 00 00 00 00 00 00 00 00 00 00 00 00 00 00 00 00 00 00 00 00 00 00 00 00 43 07 26 66 41 B0 66 66 42 62 CC CD 00 00 00 00 42 61 00 00 43 BC 2C CD 41 E7 99 9A 43 4D CC CD 00 00 00 00 43 0D 73 33 00 00 00 00 00 00 00 00 00 00 00 00 00 00 00 00 00 00 00 00 40 A3 33 33 00 00 00 00 40 19 99 9A 00 00 00 00 40 23 33 33 43 2C 33 33 41 D6 CC CD 42 95 19 9A 00 00 00 00 42 8D 4C CD 43 CA B9 9A 42 5D 66 66 43 44 33 33 00 00 00 00 43 19 C0 00 00 00 00 00 00 00 00 00 00 00 00 00 00 00 00 00 00 00 00 00 43 18 B3 33 41 B1 99 9A 42 8B 80 00 00 00 00 00 42 72 66 66 43 0F 8C CD 41 BC 66 66 42 72 66 66 00 00 00 00 42 6D 48 42
write:09 03 01 0F 00 08 74 BB
write:01 03 00 38 00 34 C5 D0
F9 FF EF
heart:F9 FF EF F7 FC 00 00 95 E5 00 00 00 00 00 00 18 DA 00 00 A8 E1
write:01 03 07 CF 00 78 74 A3
01 03 F0
1totalsize 240
44 01 66 66 42 2E 66 66 43 A3 CC CD 00 00 00 00 43 12 00 00 00 00 00 00 00 00 00 00 00 00 00 00 00 00 00 00 00 00 00 00 3F 4C CC CD 00 00 00 00 3F 4C CC CD 00 00 00 00 00 00 00 00 43 26 00 00 41 B0 00 00 42 A8 CC CD 00 00 00 00 42 6C CC CD 44 0E 99 9A 42 56 66 66 43 B2 00 00 00 00 00 00 43 20 00 00 00 00 00 00 00 00 00 00 00 00 00 00 00 00 00 00 00 00 00 00 3F CC CC CD 00 00 00 00 3F CC CC CD 00 00 00 00 00 00 00 00 43 33 33 33 41 C0 00 00 42 B7 33 33 00 00 00 00 42 7C CC CD 44 42 66 66 42 AF 33 33 43 F7 66 66 00 00 00 00 43 42 CC CD 00 00 00 00 00 00 00 00 00 00 00 00 00 00 00 00 00 00 00 00 42 21 99 9A 3F CC CC CD 41 F3 33 33 00 00 00 00 41 00 00 00 43 36 CC CD 41 DC CC CD 42 BE 66 66 00 00 00 00 42 6E F3 E2
write:01 03 01 0F 00 08 75 F3
01 03 10
100 01 9F C8 00 00 00 00 00 00 8A CF 00 00 FD 09
write:02 03 00 38 00 34 C5 E3
02 03 68
243 6E 1F 3B 43 6E D8 10 43 6E 3B A6 43 CE 80 E5 43 CE 8C 08 43 CE 3E 56 00 00 00 00 3F B8 51 EC 00 00 00 00 43 70 00 00 43 70 00 00 43 20 00 00 44 34 00 00 00 00 00 00 43 70 00 00 00 00 00 00 43 20 00 00 43 70 00 00 43 A0 00 00 43 70 00 00 44 34 00 00 3F 7E F9 DB 3F 4B 02 0C 3F 67 2B 02 3F 7B 64 5A 42 48 B1 BD
write:02 03 07 CF 00 78 74 90
02 03 F0
2totalsize 240
44 AB 33 33 43 1C CC CD 44 4F 19 9A 00 00 00 00 43 C0 00 00 00 00 00 00 00 00 00 00 00 00 00 00 00 00 00 00 00 00 00 00 42 F4 00 00 41 53 33 33 42 9C CC CD 00 00 00 00 41 F0 00 00 42 33 33 33 40 33 33 33 42 01 99 9A 00 00 00 00 41 13 33 33 44 8E D9 9A 43 18 CC CD 44 1F E6 66 00 00 00 00 43 AF 00 00 00 00 00 00 00 00 00 00 00 00 00 00 00 00 00 00 00 00 00 00 42 21 99 9A 41 20 00 00 41 A9 99 9A 00 00 00 00 41 0C CC CD 42 30 00 00 40 4C CC CD 41 F3 33 33 00 00 00 00 41 19 99 9A 45 2F 66 66 43 E3 99 9A 44 DC 33 33 00 00 00 00 44 13 4C CD 00 00 00 00 00 00 00 00 00 00 00 00 00 00 00 00 00 00 00 00 44 77 E6 66 43 2E CC CD 44 24 B3 33 00 00 00 00 43 1D 99 9A 42 13 33 33 40 00 00 00 41 D9 99 9A 00 00 00 00 40 E6 B8 23
write:02 03 01 0F 00 08 75 C0
02 03 10
200 03 4F 57 00 00 00 05 00 01 34 73 00 00 3C AB
43 6E 1F 3B
238.122
43 6E D8 10
238.844
43 6E 3B A6
238.233
43 CE 80 E5
413.007
43 CE 8C 08
413.094
43 CE 3E 56
412.487
00 00 00 00
0
3F B8 51 EC
1.44
00 00 00 00
0
43 70 00 00
240
43 70 00 00
240
43 20 00 00
160
44 34 00 00
720
00 00 00 00
0
43 70 00 00
240
00 00 00 00
0
43 20 00 00
160
43 70 00 00
240
43 A0 00 00
320
43 70 00 00
240
44 34 00 00
720
3F 7E F9 DB
0.996
3F 4B 02 0C
0.793
3F 67 2B 02
0.903
3F 7B 64 5A
0.982
42 48 B1 BD
50.173573
44 AB 33 33
1369.6
43 1C CC CD
156.8
44 4F 19 9A
828.4
00 00 00 00
0
43 C0 00 00
384
00 00 00 00
0
00 00 00 00
0
00 00 00 00
0
00 00 00 00
0
00 00 00 00
0
42 F4 00 00
122
41 53 33 33
13.2
42 9C CC CD
78.4
00 00 00 00
0
41 F0 00 00
30
42 33 33 33
44.8
40 33 33 33
2.8
42 01 99 9A
32.4
00 00 00 00
0
41 13 33 33
9.2
44 8E D9 9A
1142.8
43 18 CC CD
152.8
44 1F E6 66
639.6
00 00 00 00
0
43 AF 00 00
350
00 00 00 00
0
00 00 00 00
0
00 00 00 00
0
00 00 00 00
0
00 00 00 00
0
42 21 99 9A
40.4
41 20 00 00
10
41 A9 99 9A
21.2
00 00 00 00
0
41 0C CC CD
8.8
42 30 00 00
44
40 4C CC CD
3.2
41 F3 33 33
30.4
00 00 00 00
0
41 19 99 9A
9.6
45 2F 66 66
2806.4
43 E3 99 9A
455.2
44 DC 33 33
1761.6
00 00 00 00
0
44 13 4C CD
589.2
00 00 00 00
0
00 00 00 00
0
00 00 00 00
0
00 00 00 00
0
00 00 00 00
0
44 77 E6 66
991.6
43 2E CC CD
174.8
44 24 B3 33
658.8
00 00 00 00
0
43 1D 99 9A
157.6
42 13 33 33
36.8
40 00 00 00
2
41 D9 99 9A
27.2
00 00 00 00
0
40 E6 B8 23
7.2099776
00 03 4F 57
216919
00 00 00 05
5
00 01 34 73
78963
00 00 3C AB
15531
238.122238.844238.233413.007413.094412.48701.440240240160720024001602403202407200.9960.7930.9030.98250.1735731369.6156.8828.403840000012213.278.403044.82.832.409.21142.8152.8639.603500000040.41021.208.8443.230.409.62806.4455.21761.60589.200000991.6174.8658.80157.636.8227.207.2099776220171126230919216.9190.00578.96315.531insert into tbl_power_info_v2(P_A_DIANYA,P_B_DIANYA,P_C_DIANYA,P_UAB_XIANDIANYA,P_UBC_XIANDIANYA,P_UCA_XIANDIANYA,P_A_DIANLIU,P_B_DIANLIU,P_C_DIANLIU,P_A_YGGL,P_B_YGGL,P_C_YGGL,P_HXYGGL,P_A_WGGL,P_B_WGGL,P_C_WGGL,P_HXWGGL,P_A_SZGL,P_B_SZGL,P_C_SZGL,P_HXSZGL,P_A_GLYS,P_B_GLYS,P_C_GLYS,P_HXGLYS,P_DWPL,P_BY_KwhZ,P_BY_KwhJ,P_BY_KwhF,P_BY_KwhP,P_BY_KwhG,P_BY_HKwhZ,P_BY_HKwhJ,P_BY_HKwhF,P_BY_HKwhP,P_BY_HKwhG, P_BY_KvarhZ,P_BY_KvarhJ,P_BY_KvarhF,P_BY_KvarhP,P_BY_KvarhG, P_BY_HKvarhZ,P_BY_HKvarhJ,P_BY_HKvarhF,P_BY_HKvarhP,P_BY_HKvarhG, P_SY_KwhZ,P_SY_KwhJ,P_SY_KwhF,P_SY_KwhP,P_SY_KwhG, P_SY_HKwhZ,P_SY_HKwhJ,P_SY_HKwhF,P_SY_HKwhP,P_SY_HKwhG, P_SY_KvarhZ,P_SY_KvarhJ,P_SY_KvarhF,P_SY_KvarhP,P_SY_KvarhG, P_SY_HKvarhZ,P_SY_HKvarhJ,P_SY_HKvarhF,P_SY_HKvarhP,P_SY_HKvarhG, P_SSY_KwhZ,P_SSY_KwhJ,P_SSY_KwhF,P_SSY_KwhP,P_SSY_KwhG, P_SSY_HKwhZ,P_SSY_HKwhJ,P_SSY_HKwhF,P_SSY_HKwhP,P_SSY_HKwhG, P_SSY_KvarhZ,P_SSY_KvarhJ,P_SSY_KvarhF,P_SSY_KvarhP,P_SSY_KvarhG, P_SSY_HKvarhZ,P_SSY_HKvarhJ,P_SSY_HKvarhF,P_SSY_HKvarhP,P_SSY_HKvarhG,P_CODE,P_TIME,P_ZXYGDN,P_FXYGDN,P_ZXWGDN,P_FXWGDN)values(238.122,238.844,238.233,413.007,413.094,412.487,0,1.44,0,240,240,160,720,0,240,0,160,240,320,240,720,0.996,0.793,0.903,0.982,50.173573,1369.6,156.8,828.4,0,384,0,0,0,0,0,122,13.2,78.4,0,30,44.8,2.8,32.4,0,9.2,1142.8,152.8,639.6,0,350,0,0,0,0,0,40.4,10,21.2,0,8.8,44,3.2,30.4,0,9.6,2806.4,455.2,1761.6,0,589.2,0,0,0,0,0,991.6,174.8,658.8,0,157.6,36.8,2,27.2,0,7.2099776,2,20171126230919,216.919,0.005,78.963,15.531)
写入成功读取完毕一个
write:03 03 00 38 00 34 C4 32
write:03 03 07 CF 00 78 75 41
03 03 68
343 6E 56 87 43 6E C0 C5 43 6E 52 B0 43 CE 8C 08 43 CE 8C 08 43 CE 5F 9E 3F 11 EB 85 3F DA E1 48 40 25 1E B8 42 F0 00 00 43 C3 00 00 43 70 00 00 44 3B 80 00 00 00 00 00 00 00 00 00 42 F0 00 00 42 70 00 00 43 16 00 00 43 D2 00 00 44 1D 80 00 44 3B 80 00 3F 67 2B 02 3F 70 E5 60 3E C3 12 6F 3F 7F 7C EE 42 47 BC 53
write:03 03 01 0F 00 08 74 11
03 03 F0
3totalsize 240
43 C5 8C CD 42 9D 33 33 43 59 CC CD 00 00 00 00 42 C5 19 9A 00 00 00 00 00 00 00 00 00 00 00 00 00 00 00 00 00 00 00 00 42 A9 33 33 41 7C 00 00 42 5C CC CD 00 00 00 00 41 58 00 00 40 9E 66 66 3F 66 66 66 40 53 33 33 00 00 00 00 3F 19 99 9A 43 EF 2C CD 42 F0 00 00 43 7D 33 33 00 00 00 00 42 D1 B3 33 00 00 00 00 00 00 00 00 00 00 00 00 00 00 00 00 00 00 00 00 42 9C E6 66 40 E6 66 66 42 5B 99 9A 00 00 00 00 41 80 66 66 41 68 CC CD 40 A8 00 00 40 F9 99 9A 00 00 00 00 3F AC CC CD 43 D8 60 00 42 B5 80 00 43 81 86 66 00 00 00 00 42 A5 99 9A 00 00 00 00 00 00 00 00 00 00 00 00 00 00 00 00 00 00 00 00 42 F7 CC CD 41 90 00 00 42 A5 99 9A 00 00 00 00 41 B8 CC CD 40 EB 33 33 40 06 66 66 40 53 33 33 00 00 00 00 3F E6 63 16
03 03 10
300 00 C5 5D 00 00 00 00 00 00 27 6B 00 00 D3 69
43 6E 56 87
238.338
43 6E C0 C5
238.753
43 6E 52 B0
238.323
43 CE 8C 08
413.094
43 CE 8C 08
413.094
43 CE 5F 9E
412.747
3F 11 EB 85
0.57
3F DA E1 48
1.71
40 25 1E B8
2.58
42 F0 00 00
120
43 C3 00 00
390
43 70 00 00
240
44 3B 80 00
750
00 00 00 00
0
00 00 00 00
0
42 F0 00 00
120
42 70 00 00
60
43 16 00 00
150
43 D2 00 00
420
44 1D 80 00
630
44 3B 80 00
750
3F 67 2B 02
0.903
3F 70 E5 60
0.941
3E C3 12 6F
0.381
3F 7F 7C EE
0.998
42 47 BC 53
49.93391
43 C5 8C CD
395.1
42 9D 33 33
78.6
43 59 CC CD
217.8
00 00 00 00
0
42 C5 19 9A
98.55
00 00 00 00
0
00 00 00 00
0
00 00 00 00
0
00 00 00 00
0
00 00 00 00
0
42 A9 33 33
84.6
41 7C 00 00
15.75
42 5C CC CD
55.2
00 00 00 00
0
41 58 00 00
13.5
40 9E 66 66
4.95
3F 66 66 66
0.9
40 53 33 33
3.3
00 00 00 00
0
3F 19 99 9A
0.6
43 EF 2C CD
478.35
42 F0 00 00
120
43 7D 33 33
253.2
00 00 00 00
0
42 D1 B3 33
104.85
00 00 00 00
0
00 00 00 00
0
00 00 00 00
0
00 00 00 00
0
00 00 00 00
0
42 9C E6 66
78.45
40 E6 66 66
7.2
42 5B 99 9A
54.9
00 00 00 00
0
41 80 66 66
16.05
41 68 CC CD
14.55
40 A8 00 00
5.25
40 F9 99 9A
7.8
00 00 00 00
0
3F AC CC CD
1.35
43 D8 60 00
432.75
42 B5 80 00
90.75
43 81 86 66
259.05
00 00 00 00
0
42 A5 99 9A
82.8
00 00 00 00
0
00 00 00 00
0
00 00 00 00
0
00 00 00 00
0
00 00 00 00
0
42 F7 CC CD
123.9
41 90 00 00
18
42 A5 99 9A
82.8
00 00 00 00
0
41 B8 CC CD
23.1
40 EB 33 33
7.35
40 06 66 66
2.1
40 53 33 33
3.3
00 00 00 00
0
3F E6 63 16
1.7998989
00 00 C5 5D
50525
00 00 00 00
0
00 00 27 6B
10091
00 00 D3 69
54121
238.338238.753238.323413.094413.094412.7470.571.712.5812039024075000120601504206307500.9030.9410.3810.99849.93391395.178.6217.8098.550000084.615.7555.2013.54.950.93.300.6478.35120253.20104.850000078.457.254.9016.0514.555.257.801.35432.7590.75259.05082.800000123.91882.8023.17.352.13.301.799898932017112623102250.525010.09154.121insert into tbl_power_info_v2(P_A_DIANYA,P_B_DIANYA,P_C_DIANYA,P_UAB_XIANDIANYA,P_UBC_XIANDIANYA,P_UCA_XIANDIANYA,P_A_DIANLIU,P_B_DIANLIU,P_C_DIANLIU,P_A_YGGL,P_B_YGGL,P_C_YGGL,P_HXYGGL,P_A_WGGL,P_B_WGGL,P_C_WGGL,P_HXWGGL,P_A_SZGL,P_B_SZGL,P_C_SZGL,P_HXSZGL,P_A_GLYS,P_B_GLYS,P_C_GLYS,P_HXGLYS,P_DWPL,P_BY_KwhZ,P_BY_KwhJ,P_BY_KwhF,P_BY_KwhP,P_BY_KwhG,P_BY_HKwhZ,P_BY_HKwhJ,P_BY_HKwhF,P_BY_HKwhP,P_BY_HKwhG, P_BY_KvarhZ,P_BY_KvarhJ,P_BY_KvarhF,P_BY_KvarhP,P_BY_KvarhG, P_BY_HKvarhZ,P_BY_HKvarhJ,P_BY_HKvarhF,P_BY_HKvarhP,P_BY_HKvarhG, P_SY_KwhZ,P_SY_KwhJ,P_SY_KwhF,P_SY_KwhP,P_SY_KwhG, P_SY_HKwhZ,P_SY_HKwhJ,P_SY_HKwhF,P_SY_HKwhP,P_SY_HKwhG, P_SY_KvarhZ,P_SY_KvarhJ,P_SY_KvarhF,P_SY_KvarhP,P_SY_KvarhG, P_SY_HKvarhZ,P_SY_HKvarhJ,P_SY_HKvarhF,P_SY_HKvarhP,P_SY_HKvarhG, P_SSY_KwhZ,P_SSY_KwhJ,P_SSY_KwhF,P_SSY_KwhP,P_SSY_KwhG, P_SSY_HKwhZ,P_SSY_HKwhJ,P_SSY_HKwhF,P_SSY_HKwhP,P_SSY_HKwhG, P_SSY_KvarhZ,P_SSY_KvarhJ,P_SSY_KvarhF,P_SSY_KvarhP,P_SSY_KvarhG, P_SSY_HKvarhZ,P_SSY_HKvarhJ,P_SSY_HKvarhF,P_SSY_HKvarhP,P_SSY_HKvarhG,P_CODE,P_TIME,P_ZXYGDN,P_FXYGDN,P_ZXWGDN,P_FXWGDN)values(238.338,238.753,238.323,413.094,413.094,412.747,0.57,1.71,2.58,120,390,240,750,0,0,120,60,150,420,630,750,0.903,0.941,0.381,0.998,49.93391,395.1,78.6,217.8,0,98.55,0,0,0,0,0,84.6,15.75,55.2,0,13.5,4.95,0.9,3.3,0,0.6,478.35,120,253.2,0,104.85,0,0,0,0,0,78.45,7.2,54.9,0,16.05,14.55,5.25,7.8,0,1.35,432.75,90.75,259.05,0,82.8,0,0,0,0,0,123.9,18,82.8,0,23.1,7.35,2.1,3.3,0,1.7998989,3,20171126231022,50.525,0,10.091,54.121)
写入成功读取完毕一个
write:04 03 00 38 00 34 C5 85
04 03 68
443 6E 5A A0 43 6E D0 21 00 00 00 00 00 00 00 00 00 00 00 00 00 00 00 00 00 00 00 00 00 00 00 00 00 00 00 00 00 00 00 00 00 00 00 00 00 00 00 00 00 00 00 00 00 00 00 00 00 00 00 00 00 00 00 00 00 00 00 00 00 00 00 00 00 00 00 00 00 00 00 00 00 00 00 00 00 00 00 00 00 00 00 00 00 00 00 00 00 00 00 00 00 00 00 00
43 6E 33
heart:43 6E 33 75 43 CE 8C 08 43 CE 80 E5 43 CE 54 9C 3F 85 1E B8 3F 4C CC CD 40 C2 8F 5C 43 48 00 00 42 F0 00 00 44 AF 00 00 44 DC 00 00 42 A0 00 00 00 00 00 00 43 70 00 00 43 70 00 00 43 70 00 00 43 48 00 00 44 B4 00 00 44 DC 00 00 3F 62 8F 5C 3F 26 24 DD 3F 79 DB 23 3F 7D 70 A4 42 48 55 56
write:04 03 07 CF 00 78 74 F6
04 03 F0
4totalsize 240
44 26 F3 33 43 0C 99 9A 43 BD 99 9A 00 00 00 00 43 13 CC CD 00 00 00 00 00 00 00 00 00 00 00 00 00 00 00 00 00 00 00 00 40 C0 00 00 3E 4C CC CD 3F CC CC CD 00 00 00 00 40 86 66 66 42 86 66 66 41 63 33 33 42 04 CC CD 00 00 00 00 41 9E 66 66 44 1B 00 00 42 CE CC CD 43 AE 00 00 00 00 00 00 43 28 66 66 00 00 00 00 00 00 00 00 00 00 00 00 00 00 00 00 00 00 00 00 41 B0 00 00 40 26 66 66 40 C0 00 00 00 00 00 00 41 53 33 33 42 48 CC CD 41 06 66 66 41 D0 00 00 00 00 00 00 41 76 66 66 44 21 8C CD 42 DE CC CD 43 B0 99 9A 00 00 00 00 43 35 33 33 00 00 00 00 00 00 00 00 00 00 00 00 00 00 00 00 00 00 00 00 41 E8 00 00 40 B9 99 9A 40 E0 00 00 00 00 00 00 41 81 99 9A 42 14 CC CD 40 8C CC CD 41 9B 33 33 00 00 00 00 41 50 FE 41
write:04 03 01 0F 00 08 75 A6
write:05 03 00 38 00 34 C4 54
write:05 03 07 CF 00 78 75 27
write:05 03 01 0F 00 08 74 77
write:06 03 00 38 00 34 C4 67
write:06 03 07 CF 00 78 75 14
write:06 03 01 0F 00 08 74 44
write:07 03 00 38 00 34 C5 B6
write:07 03 07 CF 00 78 74 C5
write:07 03 01 0F 00 08 75 95
write:08 03 00 38 00 34 C5 49
write:08 03 07 CF 00 78 74 3A
write:08 03 01 0F 00 08 75 6A
write:09 03 00 38 00 34 C4 98
write:09 03 07 CF 00 78 75 EB
write:09 03 01 0F 00 08 74 BB
write:01 03 00 38 00 34 C5 D0
write:01 03 07 CF 00 78 74 A3
write:01 03 01 0F 00 08 75 F3
write:02 03 00 38 00 34 C5 E3
write:02 03 07 CF 00 78 74 90
write:02 03 01 0F 00 08 75 C0
04 03 10
400 02 92 CC 00 00 00 00 00 00 42 3E 00 00 A3 76
43 6E 5A A0
238.354
43 6E D0 21
238.813
00 00 00 00
0
00 00 00 00
0
00 00 00 00
0
00 00 00 00
0
00 00 00 00
0
00 00 00 00
0
00 00 00 00
0
00 00 00 00
0
00 00 00 00
0
00 00 00 00
0
00 00 00 00
0
00 00 00 00
0
00 00 00 00
0
00 00 00 00
0
00 00 00 00
0
00 00 00 00
0
00 00 00 00
0
00 00 00 00
0
00 00 00 00
0
00 00 00 00
0
00 00 00 00
0
00 00 00 00
0
00 00 00 00
0
00 00 00 00
0
44 26 F3 33
667.8
43 0C 99 9A
140.6
43 BD 99 9A
379.2
00 00 00 00
0
43 13 CC CD
147.8
00 00 00 00
0
00 00 00 00
0
00 00 00 00
0
00 00 00 00
0
00 00 00 00
0
40 C0 00 00
6
3E 4C CC CD
0.2
3F CC CC CD
1.6
00 00 00 00
0
40 86 66 66
4.2
42 86 66 66
67.2
41 63 33 33
14.2
42 04 CC CD
33.2
00 00 00 00
0
41 9E 66 66
19.8
44 1B 00 00
620
42 CE CC CD
103.4
43 AE 00 00
348
00 00 00 00
0
43 28 66 66
168.4
00 00 00 00
0
00 00 00 00
0
00 00 00 00
0
00 00 00 00
0
00 00 00 00
0
41 B0 00 00
22
40 26 66 66
2.6
40 C0 00 00
6
00 00 00 00
0
41 53 33 33
13.2
42 48 CC CD
50.2
41 06 66 66
8.4
41 D0 00 00
26
00 00 00 00
0
41 76 66 66
15.4
44 21 8C CD
646.2
42 DE CC CD
111.4
43 B0 99 9A
353.2
00 00 00 00
0
43 35 33 33
181.2
00 00 00 00
0
00 00 00 00
0
00 00 00 00
0
00 00 00 00
0
00 00 00 00
0
41 E8 00 00
29
40 B9 99 9A
5.8
40 E0 00 00
7
00 00 00 00
0
41 81 99 9A
16.2
42 14 CC CD
37.2
40 8C CC CD
4.4
41 9B 33 33
19.4
00 00 00 00
0
41 50 FE 41
13.062074
00 02 92 CC
168652
00 00 00 00
0
00 00 42 3E
16958
00 00 A3 76
41846
238.354238.813000000000000000000000000667.8140.6379.20147.80000060.21.604.267.214.233.2019.8620103.43480168.400000222.66013.250.28.426015.4646.2111.4353.20181.200000295.87016.237.24.419.4013.062074420171126231823168.652016.95841.846insert into tbl_power_info_v2(P_A_DIANYA,P_B_DIANYA,P_C_DIANYA,P_UAB_XIANDIANYA,P_UBC_XIANDIANYA,P_UCA_XIANDIANYA,P_A_DIANLIU,P_B_DIANLIU,P_C_DIANLIU,P_A_YGGL,P_B_YGGL,P_C_YGGL,P_HXYGGL,P_A_WGGL,P_B_WGGL,P_C_WGGL,P_HXWGGL,P_A_SZGL,P_B_SZGL,P_C_SZGL,P_HXSZGL,P_A_GLYS,P_B_GLYS,P_C_GLYS,P_HXGLYS,P_DWPL,P_BY_KwhZ,P_BY_KwhJ,P_BY_KwhF,P_BY_KwhP,P_BY_KwhG,P_BY_HKwhZ,P_BY_HKwhJ,P_BY_HKwhF,P_BY_HKwhP,P_BY_HKwhG, P_BY_KvarhZ,P_BY_KvarhJ,P_BY_KvarhF,P_BY_KvarhP,P_BY_KvarhG, P_BY_HKvarhZ,P_BY_HKvarhJ,P_BY_HKvarhF,P_BY_HKvarhP,P_BY_HKvarhG, P_SY_KwhZ,P_SY_KwhJ,P_SY_KwhF,P_SY_KwhP,P_SY_KwhG, P_SY_HKwhZ,P_SY_HKwhJ,P_SY_HKwhF,P_SY_HKwhP,P_SY_HKwhG, P_SY_KvarhZ,P_SY_KvarhJ,P_SY_KvarhF,P_SY_KvarhP,P_SY_KvarhG, P_SY_HKvarhZ,P_SY_HKvarhJ,P_SY_HKvarhF,P_SY_HKvarhP,P_SY_HKvarhG, P_SSY_KwhZ,P_SSY_KwhJ,P_SSY_KwhF,P_SSY_KwhP,P_SSY_KwhG, P_SSY_HKwhZ,P_SSY_HKwhJ,P_SSY_HKwhF,P_SSY_HKwhP,P_SSY_HKwhG, P_SSY_KvarhZ,P_SSY_KvarhJ,P_SSY_KvarhF,P_SSY_KvarhP,P_SSY_KvarhG, P_SSY_HKvarhZ,P_SSY_HKvarhJ,P_SSY_HKvarhF,P_SSY_HKvarhP,P_SSY_HKvarhG,P_CODE,P_TIME,P_ZXYGDN,P_FXYGDN,P_ZXWGDN,P_FXWGDN)values(238.354,238.813,0,0,0,0,0,0,0,0,0,0,0,0,0,0,0,0,0,0,0,0,0,0,0,0,667.8,140.6,379.2,0,147.8,0,0,0,0,0,6,0.2,1.6,0,4.2,67.2,14.2,33.2,0,19.8,620,103.4,348,0,168.4,0,0,0,0,0,22,2.6,6,0,13.2,50.2,8.4,26,0,15.4,646.2,111.4,353.2,0,181.2,0,0,0,0,0,29,5.8,7,0,16.2,37.2,4.4,19.4,0,13.062074,4,20171126231823,168.652,0,16.958,41.846)
写入成功读取完毕一个
05 03 68
543 6E 61 89 43 6E C8 F6 43 6E 3E 77 43 CE 8C 08 43 CE 80 E5 43 CE 54 9C 40 4F 5C 29 40 98 51 EC 40 9E B8 52 43 DC 00 00 44 87 00 00 44 8C 00 00 45 22 80 00 42 F0 00 00 43 20 00 00 00 00 00 00 43 A0 00 00 44 3E 00 00 44 8C 00 00 44 91 00 00 45 25 00 00 3F 0E D9 17 3F 6F 5C 29 3F 73 B6 46 3F 7D F3 B6 42 47 2B ED
34 30 36
heart:34 30 36 36 32 33 30 31 30 31 30 35 30 32
34 30 36
heart:34 30 36 36 32 33 30 31 30 31 30 35 30 32 34 30 36 36 32 33 30 31 30 31 30 35 30 32 34 30 36 36 32 33 30 31 30 31 30 35 30 32 05 7E 7C 7B C5 FB FF FF FD 7E FF 7B 4F FF 6F FD FD FF F1 FF 45 FF FF FD EF 74 FB FF FF AD FF FF FF FF E6 FF ED F9 E1 FF F1 F9 FF FF DF 7F BE FE DF FA FD FF EF B0 FF 8F F9 0E BF E9 EF DF F9 F4 00 44 A5 00 00 43 48 00 00 43 DC 00 00 44 9B 00 00 3F 15 C2 8F 3F 19 DB 23 3F 2D D2 F2 3F 76 C8 B4 42 47 0E D1
write:03 03 00 38 00 34 C4 32
03 03 68
343 6E 6B 44 43 6E EF DF 43 6E 9F BE 43 CE AD 50 43 CE C3 75 43 CE 8C 08 3F 11 EB 85 40 02 8F 5C 3F F9 99 9A 42 F0 00 00 43 D2 00 00 42 F0 00 00 44 2C 80 00 00 00 00 00 43 34 00 00 43 E1 00 00 44 0E 80 00 42 F0 00 00 43 F0 00 00 43 E1 00 00 44 61 00 00 3F 68 31 27 3F 64 18 93 3E 8E 56 04 3F 42 D0 E5 42 48 AD 5E
write:03 03 07 CF 00 78 75 41
write:03 03 01 0F 00 08 74 11
FE 7F FF
heart:FE 7F FF EF DD 43 C5 A0 00 42 9D 80 00 43 59 CC CD 00 00 00 00 42 C5 19 9A 00 00 00 00 00 00 00 00 00 00 00 00 00 00 00 00 00 00 00 00 42 A9 80 00 41 7E 66 66 42 5C CC CD 00 00 00 00 41 58 00 00 40 9E 66 66 3F 66 66 66 40 53 33 33 00 00 00 00 3F 19 99 9A 43 EF 2C CD 42 F0 00 00 43 7D 33 33 00 00 00 00 42 D1 B3 33 00 00 00 00 00 00 00 00 00 00 00 00 00 00 00 00 00 00 00 00 42 9C E6 66 40 E6 66 66 42 5B 99 9A 00 00 00 00 41 80 66 66 41 68 CC CD 40 A8 00 00 40 F9 99 9A 00 00 00 00 3F AC CC CD 43 D8 60 00 42 B5 80 00 43 81 86 66 00 00 00 00 42 A5 99 9A 00 00 00 00 00 00 00 00 00 00 00 00 00 00 00 00 00 00 00 00 42 F7 CC CD 41 90 00 00 42 A5 99 9A 00 00 00 00 41 B8 CC CD 40 EB 33 33 40 06 66 66 40 53 33 33 00 00 00 00 3F E6 F0 D7
write:04 03 00 38 00 34 C5 85
04 03 68
443 6E 61 48 43 6E CA C1 43 6E 80 C5 43 CE 8C 08 43 CE A2 2D 43 CE 75 C3 3F 85 1E B8 3F 4C CC CD 40 D4 7A E1 43 48 00 00 42 F0 00 00 44 C3 00 00 44 F0 00 00 42 A0 00 00 00 00 00 00 42 F0 00 00 43 20 00 00 43 70 00 00 43 48 00 00 44 C3 00 00 44 F0 00 00 3F 62 D0 E5 3F 26 66 66 3F 7D 70 A4 3F 7E F9 DB 42 48 06 7B
write:04 03 07 CF 00 78 74 F6
write:04 03 01 0F 00 08 75 A6
write:05 03 00 38 00 34 C4 54
write:05 03 07 CF 00 78 75 27
write:05 03 01 0F 00 08 74 77
write:06 03 00 38 00 34 C4 67
write:06 03 07 CF 00 78 75 14
write:06 03 01 0F 00 08 74 44
34 30 36
heart:34 30 36 36 32 33 30 31 30 31 30 35 30 32
write:07 03 00 38 00 34 C5 B6
F9 7F FF
heart:F9 7F FF EF B3 44 27 00 00 43 0C CC CD 43 BD 99 9A 00 00 00 00 43 13 CC CD 00 00 00 00 00 00 00 00 00 00 00 00 00 00 00 00 00 00 00 00 40 C0 00 00 3E 4C CC CD 3F CC CC CD 00 00 00 00 40 86 66 66 42 86 66 66 41 63 33 33 42 04 CC CD 00 00 00 00 41 9E 66 66 44 1B 00 00 42 CE CC CD 43 AE 00 00 00 00 00 00 43 28 66 66 00 00 00 00 00 00 00 00 00 00 00 00 00 00 00 00 00 00 00 00 41 B0 00 00 40 26 66 66 40 C0 00 00 00 00 00 00 41 53 33 33 42 48 CC CD 41 06 66 66 41 D0 00 00 00 00 00 00 41 76 66 66 44 21 8C CD 42 DE CC CD 43 B0 99 9A 00 00 00 00 43 35 33 33 00 00 00 00 00 00 00 00 00 00 00 00 00 00 00 00 00 00 00 00 41 E8 00 00 40 B9 99 9A 40 E0 00 00 00 00 00 00 41 81 99 9A 42 14 CC CD 40 8C CC CD 41 9B 33 33 00 00 00 00 41 50 BB 1C
write:07 03 07 CF 00 78 74 C5
write:07 03 01 0F 00 08 75 95
write:08 03 00 38 00 34 C5 49
05 06 08
heart:05 06 08 03 68 00 00 43 6E 29 BA 43 6E B7 8D 43 6E 75 81 43 CE 75 E3 43 CE 97 0A 43 CE 54 9C 00 00 00 00 00 00 00 00 00 00 00 00 00 00 00 00 00 00 00 00 00 00 00 00 00 00 00 00 00 00 00 00 00 00 00 00 00 00 00 00 00 00 00 00 00 00 00 00 42 70 00 00 00 00 00 00 00 00 00 00 00 00 00 00 3F 0C CC CD 00 00 00 00 00 00 00 00 42 48 9F 58
write:08 03 07 CF 00 78 74 3A
08 03 F0
8totalsize 240
42 76 00 00 00 00 00 00 42 23 33 33 00 00 00 00 41 A5 99 9A 00 00 00 00 00 00 00 00 00 00 00 00 00 00 00 00 00 00 00 00 00 00 00 00 00 00 00 00 00 00 00 00 00 00 00 00 00 00 00 00 41 36 66 66 00 00 00 00 40 E1 99 9A 00 00 00 00 40 86 66 66 42 67 00 00 00 00 00 00 42 28 00 00 00 00 00 00 41 79 99 9A 00 00 00 00 00 00 00 00 00 00 00 00 00 00 00 00 00 00 00 00 00 00 00 00 00 00 00 00 00 00 00 00 00 00 00 00 00 00 00 00 41 1E 66 66 00 00 00 00 40 DC CC CD 00 00 00 00 40 40 00 00 42 95 19 9A 00 00 00 00 42 3B CC CD 00 00 00 00 41 DB 99 9A 00 00 00 00 00 00 00 00 00 00 00 00 00 00 00 00 00 00 00 00 00 00 00 00 00 00 00 00 00 00 00 00 00 00 00 00 00 00 00 00 41 4E 66 66 00 00 00 00 41 06 66 66 00 00 00 00 40 8B 3B B7
write:08 03 01 0F 00 08 75 6A
08 03 10
800 00 49 3C 00 00 00 00 00 00 00 00 00 00 E6 B7
43 6C EE 56
236.931
43 6D 92 2D
237.571
43 6C EC 08
236.922
43 CD 6B C7
410.842
43 CD 6B C7
410.842
43 CD 29 37
410.322
00 00 00 00
0
00 00 00 00
0
00 00 00 00
0
00 00 00 00
0
00 00 00 00
0
00 00 00 00
0
00 00 00 00
0
00 00 00 00
0
00 00 00 00
0
00 00 00 00
0
00 00 00 00
0
00 00 00 00
0
42 70 00 00
60
00 00 00 00
0
00 00 00 00
0
00 00 00 00
0
3F 0D 4F DF
0.552
00 00 00 00
0
00 00 00 00
0
42 47 B1 98
49.92343
42 76 00 00
61.5
00 00 00 00
0
42 23 33 33
40.8
00 00 00 00
0
41 A5 99 9A
20.7
00 00 00 00
0
00 00 00 00
0
00 00 00 00
0
00 00 00 00
0
00 00 00 00
0
00 00 00 00
0
00 00 00 00
0
00 00 00 00
0
00 00 00 00
0
00 00 00 00
0
41 36 66 66
11.4
00 00 00 00
0
40 E1 99 9A
7.05
00 00 00 00
0
40 86 66 66
4.2
42 67 00 00
57.75
00 00 00 00
0
42 28 00 00
42
00 00 00 00
0
41 79 99 9A
15.6
00 00 00 00
0
00 00 00 00
0
00 00 00 00
0
00 00 00 00
0
00 00 00 00
0
00 00 00 00
0
00 00 00 00
0
00 00 00 00
0
00 00 00 00
0
00 00 00 00
0
41 1E 66 66
9.9
00 00 00 00
0
40 DC CC CD
6.9
00 00 00 00
0
40 40 00 00
3
42 95 19 9A
74.55
00 00 00 00
0
42 3B CC CD
46.95
00 00 00 00
0
41 DB 99 9A
27.45
00 00 00 00
0
00 00 00 00
0
00 00 00 00
0
00 00 00 00
0
00 00 00 00
0
00 00 00 00
0
00 00 00 00
0
00 00 00 00
0
00 00 00 00
0
00 00 00 00
0
41 4E 66 66
12.9
00 00 00 00
0
41 06 66 66
8.4
00 00 00 00
0
40 8B 3B B7
4.3510394
00 00 49 3C
18748
00 00 00 00
0
00 00 00 00
0
00 00 E6 B7
59063
236.931237.571236.922410.842410.842410.322000000000000600000.5520049.9234361.5040.8020.7000000000011.407.0504.257.75042015.600000000009.906.90374.55046.95027.45000000000012.908.404.351039482017112623242618.7480059.063insert into tbl_power_info_v2(P_A_DIANYA,P_B_DIANYA,P_C_DIANYA,P_UAB_XIANDIANYA,P_UBC_XIANDIANYA,P_UCA_XIANDIANYA,P_A_DIANLIU,P_B_DIANLIU,P_C_DIANLIU,P_A_YGGL,P_B_YGGL,P_C_YGGL,P_HXYGGL,P_A_WGGL,P_B_WGGL,P_C_WGGL,P_HXWGGL,P_A_SZGL,P_B_SZGL,P_C_SZGL,P_HXSZGL,P_A_GLYS,P_B_GLYS,P_C_GLYS,P_HXGLYS,P_DWPL,P_BY_KwhZ,P_BY_KwhJ,P_BY_KwhF,P_BY_KwhP,P_BY_KwhG,P_BY_HKwhZ,P_BY_HKwhJ,P_BY_HKwhF,P_BY_HKwhP,P_BY_HKwhG, P_BY_KvarhZ,P_BY_KvarhJ,P_BY_KvarhF,P_BY_KvarhP,P_BY_KvarhG, P_BY_HKvarhZ,P_BY_HKvarhJ,P_BY_HKvarhF,P_BY_HKvarhP,P_BY_HKvarhG, P_SY_KwhZ,P_SY_KwhJ,P_SY_KwhF,P_SY_KwhP,P_SY_KwhG, P_SY_HKwhZ,P_SY_HKwhJ,P_SY_HKwhF,P_SY_HKwhP,P_SY_HKwhG, P_SY_KvarhZ,P_SY_KvarhJ,P_SY_KvarhF,P_SY_KvarhP,P_SY_KvarhG, P_SY_HKvarhZ,P_SY_HKvarhJ,P_SY_HKvarhF,P_SY_HKvarhP,P_SY_HKvarhG, P_SSY_KwhZ,P_SSY_KwhJ,P_SSY_KwhF,P_SSY_KwhP,P_SSY_KwhG, P_SSY_HKwhZ,P_SSY_HKwhJ,P_SSY_HKwhF,P_SSY_HKwhP,P_SSY_HKwhG, P_SSY_KvarhZ,P_SSY_KvarhJ,P_SSY_KvarhF,P_SSY_KvarhP,P_SSY_KvarhG, P_SSY_HKvarhZ,P_SSY_HKvarhJ,P_SSY_HKvarhF,P_SSY_HKvarhP,P_SSY_HKvarhG,P_CODE,P_TIME,P_ZXYGDN,P_FXYGDN,P_ZXWGDN,P_FXWGDN)values(236.931,237.571,236.922,410.842,410.842,410.322,0,0,0,0,0,0,0,0,0,0,0,0,60,0,0,0,0.552,0,0,49.92343,61.5,0,40.8,0,20.7,0,0,0,0,0,0,0,0,0,0,11.4,0,7.05,0,4.2,57.75,0,42,0,15.6,0,0,0,0,0,0,0,0,0,0,9.9,0,6.9,0,3,74.55,0,46.95,0,27.45,0,0,0,0,0,0,0,0,0,0,12.9,0,8.4,0,4.3510394,8,20171126232426,18.748,0,0,59.063)
写入成功读取完毕一个
write:09 03 00 38 00 34 C4 98
09 03 68
943 6E 98 52 43 6E E7 6D 43 6E BA A0 43 CE B8 52 43 CE CE 77 43 CE A2 2D 00 00 00 00 00 00 00 00 3F 5E B8 52 00 00 00 00 00 00 00 00 43 34 00 00 43 70 00 00 42 70 00 00 42 70 00 00 42 B4 00 00 43 52 00 00 42 B4 00 00 42 70 00 00 43 52 00 00 43 A5 00 00 3E EB 02 0C 3E 40 83 12 3F 59 DB 23 3F 3C 28 F6 42 48 5D BC
write:09 03 07 CF 00 78 75 EB
write:09 03 01 0F 00 08 74 BB
09 03 F0
9totalsize 240
43 23 0C CD 41 B0 66 66 42 A0 CC CD 00 00 00 00 42 71 CC CD 00 00 00 00 00 00 00 00 00 00 00 00 00 00 00 00 00 00 00 00 00 00 00 00 00 00 00 00 00 00 00 00 00 00 00 00 00 00 00 00 43 07 26 66 41 B0 66 66 42 62 CC CD 00 00 00 00 42 61 00 00 43 BC 2C CD 41 E7 99 9A 43 4D CC CD 00 00 00 00 43 0D 73 33 00 00 00 00 00 00 00 00 00 00 00 00 00 00 00 00 00 00 00 00 40 A3 33 33 00 00 00 00 40 19 99 9A 00 00 00 00 40 23 33 33 43 2C 33 33 41 D6 CC CD 42 95 19 9A 00 00 00 00 42 8D 4C CD 43 CA B9 9A 42 5D 66 66 43 44 33 33 00 00 00 00 43 19 C0 00 00 00 00 00 00 00 00 00 00 00 00 00 00 00 00 00 00 00 00 00 43 18 B3 33 41 B1 99 9A 42 8B 80 00 00 00 00 00 42 72 66 66 43 0F 8C CD 41 BC 66 66 42 72 66 66 00 00 00 00 42 6D 08 73
09 03 10
900 00 95 E7 00 00 00 00 00 00 18 DA 00 00 A3 59
43 6E 98 52
238.595
43 6E E7 6D
238.904
43 6E BA A0
238.729
43 CE B8 52
413.44
43 CE CE 77
413.613
43 CE A2 2D
413.267
00 00 00 00
0
00 00 00 00
0
3F 5E B8 52
0.87
00 00 00 00
0
00 00 00 00
0
43 34 00 00
180
43 70 00 00
240
42 70 00 00
60
42 70 00 00
60
42 B4 00 00
90
43 52 00 00
210
42 B4 00 00
90
42 70 00 00
60
43 52 00 00
210
43 A5 00 00
330
3E EB 02 0C
0.459
3E 40 83 12
0.188
3F 59 DB 23
0.851
3F 3C 28 F6
0.735
42 48 5D BC
50.091537
43 23 0C CD
163.05
41 B0 66 66
22.05
42 A0 CC CD
80.4
00 00 00 00
0
42 71 CC CD
60.45
00 00 00 00
0
00 00 00 00
0
00 00 00 00
0
00 00 00 00
0
00 00 00 00
0
00 00 00 00
0
00 00 00 00
0
00 00 00 00
0
00 00 00 00
0
00 00 00 00
0
43 07 26 66
135.15
41 B0 66 66
22.05
42 62 CC CD
56.7
00 00 00 00
0
42 61 00 00
56.25
43 BC 2C CD
376.35
41 E7 99 9A
28.95
43 4D CC CD
205.8
00 00 00 00
0
43 0D 73 33
141.45
00 00 00 00
0
00 00 00 00
0
00 00 00 00
0
00 00 00 00
0
00 00 00 00
0
40 A3 33 33
5.1
00 00 00 00
0
40 19 99 9A
2.4
00 00 00 00
0
40 23 33 33
2.55
43 2C 33 33
172.2
41 D6 CC CD
26.85
42 95 19 9A
74.55
00 00 00 00
0
42 8D 4C CD
70.65
43 CA B9 9A
405.45
42 5D 66 66
55.35
43 44 33 33
196.2
00 00 00 00
0
43 19 C0 00
153.75
00 00 00 00
0
00 00 00 00
0
00 00 00 00
0
00 00 00 00
0
00 00 00 00
0
43 18 B3 33
152.7
41 B1 99 9A
22.2
42 8B 80 00
69.75
00 00 00 00
0
42 72 66 66
60.6
43 0F 8C CD
143.55
41 BC 66 66
23.55
42 72 66 66
60.6
00 00 00 00
0
42 6D 08 73
59.25825
00 00 95 E7
38375
00 00 00 00
0
00 00 18 DA
6362
00 00 A3 59
41817
238.595238.904238.729413.44413.613413.267000.870018024060609021090602103300.4590.1880.8510.73550.091537163.0522.0580.4060.450000000000135.1522.0556.7056.25376.3528.95205.80141.45000005.102.402.55172.226.8574.55070.65405.4555.35196.20153.7500000152.722.269.75060.6143.5523.5560.6059.2582592017112623252638.37506.36241.817insert into tbl_power_info_v2(P_A_DIANYA,P_B_DIANYA,P_C_DIANYA,P_UAB_XIANDIANYA,P_UBC_XIANDIANYA,P_UCA_XIANDIANYA,P_A_DIANLIU,P_B_DIANLIU,P_C_DIANLIU,P_A_YGGL,P_B_YGGL,P_C_YGGL,P_HXYGGL,P_A_WGGL,P_B_WGGL,P_C_WGGL,P_HXWGGL,P_A_SZGL,P_B_SZGL,P_C_SZGL,P_HXSZGL,P_A_GLYS,P_B_GLYS,P_C_GLYS,P_HXGLYS,P_DWPL,P_BY_KwhZ,P_BY_KwhJ,P_BY_KwhF,P_BY_KwhP,P_BY_KwhG,P_BY_HKwhZ,P_BY_HKwhJ,P_BY_HKwhF,P_BY_HKwhP,P_BY_HKwhG, P_BY_KvarhZ,P_BY_KvarhJ,P_BY_KvarhF,P_BY_KvarhP,P_BY_KvarhG, P_BY_HKvarhZ,P_BY_HKvarhJ,P_BY_HKvarhF,P_BY_HKvarhP,P_BY_HKvarhG, P_SY_KwhZ,P_SY_KwhJ,P_SY_KwhF,P_SY_KwhP,P_SY_KwhG, P_SY_HKwhZ,P_SY_HKwhJ,P_SY_HKwhF,P_SY_HKwhP,P_SY_HKwhG, P_SY_KvarhZ,P_SY_KvarhJ,P_SY_KvarhF,P_SY_KvarhP,P_SY_KvarhG, P_SY_HKvarhZ,P_SY_HKvarhJ,P_SY_HKvarhF,P_SY_HKvarhP,P_SY_HKvarhG, P_SSY_KwhZ,P_SSY_KwhJ,P_SSY_KwhF,P_SSY_KwhP,P_SSY_KwhG, P_SSY_HKwhZ,P_SSY_HKwhJ,P_SSY_HKwhF,P_SSY_HKwhP,P_SSY_HKwhG, P_SSY_KvarhZ,P_SSY_KvarhJ,P_SSY_KvarhF,P_SSY_KvarhP,P_SSY_KvarhG, P_SSY_HKvarhZ,P_SSY_HKvarhJ,P_SSY_HKvarhF,P_SSY_HKvarhP,P_SSY_HKvarhG,P_CODE,P_TIME,P_ZXYGDN,P_FXYGDN,P_ZXWGDN,P_FXWGDN)values(238.595,238.904,238.729,413.44,413.613,413.267,0,0,0.87,0,0,180,240,60,60,90,210,90,60,210,330,0.459,0.188,0.851,0.735,50.091537,163.05,22.05,80.4,0,60.45,0,0,0,0,0,0,0,0,0,0,135.15,22.05,56.7,0,56.25,376.35,28.95,205.8,0,141.45,0,0,0,0,0,5.1,0,2.4,0,2.55,172.2,26.85,74.55,0,70.65,405.45,55.35,196.2,0,153.75,0,0,0,0,0,152.7,22.2,69.75,0,60.6,143.55,23.55,60.6,0,59.25825,9,20171126232526,38.375,0,6.362,41.817)
写入成功读取完毕一个
write:01 03 00 38 00 34 C5 D0
01 03 68
143 6E B9 DB 43 6F 14 FE 43 6E D4 BC 43 CE D9 9A 43 CE E4 9C 43 CE C3 75 00 00 00 00 3F 99 99 9A 00 00 00 00 43 20 00 00 43 20 00 00 00 00 00 00 43 A0 00 00 00 00 00 00 00 00 00 00 00 00 00 00 43 70 00 00 43 70 00 00 43 A0 00 00 00 00 00 00 43 C8 00 00 3F 01 CA C1 3F 2D 4F DF 00 00 00 00 3F 5C 6A 7F 42 48 88 A8
write:01 03 07 CF 00 78 74 A3
01 03 F0
1totalsize 240
44 01 66 66 42 2E 66 66 43 A3 CC CD 00 00 00 00 43 12 00 00 00 00 00 00 00 00 00 00 00 00 00 00 00 00 00 00 00 00 00 00 3F 4C CC CD 00 00 00 00 3F 4C CC CD 00 00 00 00 00 00 00 00 43 26 00 00 41 B0 00 00 42 A8 CC CD 00 00 00 00 42 6C CC CD 44 0E 99 9A 42 56 66 66 43 B2 00 00 00 00 00 00 43 20 00 00 00 00 00 00 00 00 00 00 00 00 00 00 00 00 00 00 00 00 00 00 3F CC CC CD 00 00 00 00 3F CC CC CD 00 00 00 00 00 00 00 00 43 33 33 33 41 C0 00 00 42 B7 33 33 00 00 00 00 42 7C CC CD 44 42 66 66 42 AF 33 33 43 F7 66 66 00 00 00 00 43 42 CC CD 00 00 00 00 00 00 00 00 00 00 00 00 00 00 00 00 00 00 00 00 42 21 99 9A 3F CC CC CD 41 F3 33 33 00 00 00 00 41 00 00 00 43 36 CC CD 41 DC CC CD 42 BE 66 66 00 00 00 00 42 6E F3 E2
write:01 03 01 0F 00 08 75 F3
01 03 10
100 01 9F C9 00 00 00 00 00 00 8A CF 00 00 F9 F5
43 6E B9 DB
238.726
43 6F 14 FE
239.082
43 6E D4 BC
238.831
43 CE D9 9A
413.7
43 CE E4 9C
413.786
43 CE C3 75
413.527
00 00 00 00
0
3F 99 99 9A
1.2
00 00 00 00
0
43 20 00 00
160
43 20 00 00
160
00 00 00 00
0
43 A0 00 00
320
00 00 00 00
0
00 00 00 00
0
00 00 00 00
0
43 70 00 00
240
43 70 00 00
240
43 A0 00 00
320
00 00 00 00
0
43 C8 00 00
400
3F 01 CA C1
0.507
3F 2D 4F DF
0.677
00 00 00 00
0
3F 5C 6A 7F
0.861
42 48 88 A8
50.133453
44 01 66 66
517.6
42 2E 66 66
43.6
43 A3 CC CD
327.6
00 00 00 00
0
43 12 00 00
146
00 00 00 00
0
00 00 00 00
0
00 00 00 00
0
00 00 00 00
0
00 00 00 00
0
3F 4C CC CD
0.8
00 00 00 00
0
3F 4C CC CD
0.8
00 00 00 00
0
00 00 00 00
0
43 26 00 00
166
41 B0 00 00
22
42 A8 CC CD
84.4
00 00 00 00
0
42 6C CC CD
59.2
44 0E 99 9A
570.4
42 56 66 66
53.6
43 B2 00 00
356
00 00 00 00
0
43 20 00 00
160
00 00 00 00
0
00 00 00 00
0
00 00 00 00
0
00 00 00 00
0
00 00 00 00
0
3F CC CC CD
1.6
00 00 00 00
0
3F CC CC CD
1.6
00 00 00 00
0
00 00 00 00
0
43 33 33 33
179.2
41 C0 00 00
24
42 B7 33 33
91.6
00 00 00 00
0
42 7C CC CD
63.2
44 42 66 66
777.6
42 AF 33 33
87.6
43 F7 66 66
494.8
00 00 00 00
0
43 42 CC CD
194.8
00 00 00 00
0
00 00 00 00
0
00 00 00 00
0
00 00 00 00
0
00 00 00 00
0
42 21 99 9A
40.4
3F CC CC CD
1.6
41 F3 33 33
30.4
00 00 00 00
0
41 00 00 00
8
43 36 CC CD
182.8
41 DC CC CD
27.6
42 BE 66 66
95.2
00 00 00 00
0
42 6E F3 E2
59.738167
00 01 9F C9
106441
00 00 00 00
0
00 00 8A CF
35535
00 00 F9 F5
63989
238.726239.082238.831413.7413.786413.52701.20160160032000024024032004000.5070.67700.86150.133453517.643.6327.60146000000.800.8001662284.4059.2570.453.63560160000001.601.600179.22491.6063.2777.687.6494.80194.80000040.41.630.408182.827.695.2059.738167120171126232630106.441035.53563.989insert into tbl_power_info_v2(P_A_DIANYA,P_B_DIANYA,P_C_DIANYA,P_UAB_XIANDIANYA,P_UBC_XIANDIANYA,P_UCA_XIANDIANYA,P_A_DIANLIU,P_B_DIANLIU,P_C_DIANLIU,P_A_YGGL,P_B_YGGL,P_C_YGGL,P_HXYGGL,P_A_WGGL,P_B_WGGL,P_C_WGGL,P_HXWGGL,P_A_SZGL,P_B_SZGL,P_C_SZGL,P_HXSZGL,P_A_GLYS,P_B_GLYS,P_C_GLYS,P_HXGLYS,P_DWPL,P_BY_KwhZ,P_BY_KwhJ,P_BY_KwhF,P_BY_KwhP,P_BY_KwhG,P_BY_HKwhZ,P_BY_HKwhJ,P_BY_HKwhF,P_BY_HKwhP,P_BY_HKwhG, P_BY_KvarhZ,P_BY_KvarhJ,P_BY_KvarhF,P_BY_KvarhP,P_BY_KvarhG, P_BY_HKvarhZ,P_BY_HKvarhJ,P_BY_HKvarhF,P_BY_HKvarhP,P_BY_HKvarhG, P_SY_KwhZ,P_SY_KwhJ,P_SY_KwhF,P_SY_KwhP,P_SY_KwhG, P_SY_HKwhZ,P_SY_HKwhJ,P_SY_HKwhF,P_SY_HKwhP,P_SY_HKwhG, P_SY_KvarhZ,P_SY_KvarhJ,P_SY_KvarhF,P_SY_KvarhP,P_SY_KvarhG, P_SY_HKvarhZ,P_SY_HKvarhJ,P_SY_HKvarhF,P_SY_HKvarhP,P_SY_HKvarhG, P_SSY_KwhZ,P_SSY_KwhJ,P_SSY_KwhF,P_SSY_KwhP,P_SSY_KwhG, P_SSY_HKwhZ,P_SSY_HKwhJ,P_SSY_HKwhF,P_SSY_HKwhP,P_SSY_HKwhG, P_SSY_KvarhZ,P_SSY_KvarhJ,P_SSY_KvarhF,P_SSY_KvarhP,P_SSY_KvarhG, P_SSY_HKvarhZ,P_SSY_HKvarhJ,P_SSY_HKvarhF,P_SSY_HKvarhP,P_SSY_HKvarhG,P_CODE,P_TIME,P_ZXYGDN,P_FXYGDN,P_ZXWGDN,P_FXWGDN)values(238.726,239.082,238.831,413.7,413.786,413.527,0,1.2,0,160,160,0,320,0,0,0,240,240,320,0,400,0.507,0.677,0,0.861,50.133453,517.6,43.6,327.6,0,146,0,0,0,0,0,0.8,0,0.8,0,0,166,22,84.4,0,59.2,570.4,53.6,356,0,160,0,0,0,0,0,1.6,0,1.6,0,0,179.2,24,91.6,0,63.2,777.6,87.6,494.8,0,194.8,0,0,0,0,0,40.4,1.6,30.4,0,8,182.8,27.6,95.2,0,59.738167,1,20171126232630,106.441,0,35.535,63.989)
写入成功读取完毕一个
write:02 03 00 38 00 34 C5 E3
02 03 68
243 6E 70 62 43 6F 21 06 43 6E D3 F8 43 CE C3 75 43 CE EF BE 43 CE A2 2D 00 00 00 00 40 51 EB 85 00 00 00 00 43 70 00 00 44 34 00 00 43 70 00 00 44 A0 00 00 00 00 00 00 43 20 00 00 00 00 00 00 43 70 00 00 43 70 00 00 44 48 00 00 43 70 00 00 44 A0 00 00 3F 7E B8 52 3F 77 4B C7 3F 78 93 75 3F 7C 6A 7F 42 48 12 38
write:02 03 07 CF 00 78 74 90
02 03 F0
2totalsize 240
44 AB 40 00 43 1D 33 33 44 4F 19 9A 00 00 00 00 43 C0 00 00 00 00 00 00 00 00 00 00 00 00 00 00 00 00 00 00 00 00 00 00 42 F4 00 00 41 53 33 33 42 9C CC CD 00 00 00 00 41 F0 00 00 42 33 33 33 40 33 33 33 42 01 99 9A 00 00 00 00 41 13 33 33 44 8E D9 9A 43 18 CC CD 44 1F E6 66 00 00 00 00 43 AF 00 00 00 00 00 00 00 00 00 00 00 00 00 00 00 00 00 00 00 00 00 00 42 21 99 9A 41 20 00 00 41 A9 99 9A 00 00 00 00 41 0C CC CD 42 30 00 00 40 4C CC CD 41 F3 33 33 00 00 00 00 41 19 99 9A 45 2F 66 66 43 E3 99 9A 44 DC 33 33 00 00 00 00 44 13 4C CD 00 00 00 00 00 00 00 00 00 00 00 00 00 00 00 00 00 00 00 00 44 77 E6 66 43 2E CC CD 44 24 B3 33 00 00 00 00 43 1D 99 9A 42 13 33 33 40 00 00 00 41 D9 99 9A 00 00 00 00 40 E6 0F D7
write:02 03 01 0F 00 08 75 C0
write:03 03 00 38 00 34 C4 32
write:03 03 07 CF 00 78 75 41
write:03 03 01 0F 00 08 74 11
write:04 03 00 38 00 34 C5 85
write:04 03 07 CF 00 78 74 F6
write:04 03 01 0F 00 08 75 A6
write:05 03 00 38 00 34 C4 54
write:05 03 07 CF 00 78 75 27
write:05 03 01 0F 00 08 74 77
write:06 03 00 38 00 34 C4 67
write:06 03 07 CF 00 78 75 14
write:06 03 01 0F 00 08 74 44
write:07 03 00 38 00 34 C5 B6
34 30 36
heart:34 30 36 36 32 33 30 31 30 31 30 35 30 32
34 30 36
heart:34 30 36 36 32 33 30 31 30 31 30 35 30 32
34 30 36
heart:34 30 36 36 32 33 30 31 30 31 30 35 30 32
FE CF D7
heart:FE CF D7 6C 00 03 4F 5A 00 00 00 05 00 01 34 74 00 00 B6 C6
F9 7C FF
heart:F9 7C FF D1 71 FF D5 FB FF FF FE EF FF 99 F8 B5 FF FD FF F4 FE FF FF FF FF FF DF FF FE FF FB FF D9 1A 3D 71 43 48 00 00 42 F0 00 00 44 FA 00 00 45 13 80 00 42 A0 00 00 00 00 00 00 43 C8 00 00 43 DC 00 00 43 70 00 00 43 48 00 00 45 02 00 00 45 16 00 00 3F 63 12 6F 3F 25 A1 CB 3F 79 99 9A 09 FF 7B A5 E3 42 48 B0 4F
write:07 03 07 CF 00 78 74 C5
write:07 03 01 0F 00 08 75 95
write:08 03 00 38 00 34 C5 49
08 03 68
843 6E 42 8F 43 6E C8 73 43 6E 7A 1D 43 CE 80 E5 43 CE 97 0A 43 CE 5F 9E 00 00 00 00 00 00 00 00 00 00 00 00 00 00 00 00 00 00 00 00 00 00 00 00 00 00 00 00 00 00 00 00 00 00 00 00 00 00 00 00 00 00 00 00 00 00 00 00 42 70 00 00 00 00 00 00 00 00 00 00 00 00 00 00 3F 0D 0E 56 00 00 00 00 00 00 00 00 42 48 13 CA
write:08 03 07 CF 00 78 74 3A
08 03 F0
8totalsize 240
42 76 00 00 00 00 00 00 42 23 33 33 00 00 00 00 41 A5 99 9A 00 00 00 00 00 00 00 00 00 00 00 00 00 00 00 00 00 00 00 00 00 00 00 00 00 00 00 00 00 00 00 00 00 00 00 00 00 00 00 00 41 36 66 66 00 00 00 00 40 E1 99 9A 00 00 00 00 40 86 66 66 42 67 00 00 00 00 00 00 42 28 00 00 00 00 00 00 41 79 99 9A 00 00 00 00 00 00 00 00 00 00 00 00 00 00 00 00 00 00 00 00 00 00 00 00 00 00 00 00 00 00 00 00 00 00 00 00 00 00 00 00 41 1E 66 66 00 00 00 00 40 DC CC CD 00 00 00 00 40 40 00 00 42 95 19 9A 00 00 00 00 42 3B CC CD 00 00 00 00 41 DB 99 9A 00 00 00 00 00 00 00 00 00 00 00 00 00 00 00 00 00 00 00 00 00 00 00 00 00 00 00 00 00 00 00 00 00 00 00 00 00 00 00 00 41 4E 66 66 00 00 00 00 41 06 66 66 00 00 00 00 40 8B 3B B7
write:08 03 01 0F 00 08 75 6A
08 03 10
800 00 49 3C 00 00 00 00 00 00 00 00 00 00 E6 B7
43 6E 42 8F
238.26
43 6E C8 73
238.783
43 6E 7A 1D
238.477
43 CE 80 E5
413.007
43 CE 97 0A
413.18
43 CE 5F 9E
412.747
00 00 00 00
0
00 00 00 00
0
00 00 00 00
0
00 00 00 00
0
00 00 00 00
0
00 00 00 00
0
00 00 00 00
0
00 00 00 00
0
00 00 00 00
0
00 00 00 00
0
00 00 00 00
0
00 00 00 00
0
42 70 00 00
60
00 00 00 00
0
00 00 00 00
0
00 00 00 00
0
3F 0D 0E 56
0.551
00 00 00 00
0
00 00 00 00
0
42 48 13 CA
50.019325
42 76 00 00
61.5
00 00 00 00
0
42 23 33 33
40.8
00 00 00 00
0
41 A5 99 9A
20.7
00 00 00 00
0
00 00 00 00
0
00 00 00 00
0
00 00 00 00
0
00 00 00 00
0
00 00 00 00
0
00 00 00 00
0
00 00 00 00
0
00 00 00 00
0
00 00 00 00
0
41 36 66 66
11.4
00 00 00 00
0
40 E1 99 9A
7.05
00 00 00 00
0
40 86 66 66
4.2
42 67 00 00
57.75
00 00 00 00
0
42 28 00 00
42
00 00 00 00
0
41 79 99 9A
15.6
00 00 00 00
0
00 00 00 00
0
00 00 00 00
0
00 00 00 00
0
00 00 00 00
0
00 00 00 00
0
00 00 00 00
0
00 00 00 00
0
00 00 00 00
0
00 00 00 00
0
41 1E 66 66
9.9
00 00 00 00
0
40 DC CC CD
6.9
00 00 00 00
0
40 40 00 00
3
42 95 19 9A
74.55
00 00 00 00
0
42 3B CC CD
46.95
00 00 00 00
0
41 DB 99 9A
27.45
00 00 00 00
0
00 00 00 00
0
00 00 00 00
0
00 00 00 00
0
00 00 00 00
0
00 00 00 00
0
00 00 00 00
0
00 00 00 00
0
00 00 00 00
0
00 00 00 00
0
41 4E 66 66
12.9
00 00 00 00
0
41 06 66 66
8.4
00 00 00 00
0
40 8B 3B B7
4.3510394
00 00 49 3C
18748
00 00 00 00
0
00 00 00 00
0
00 00 E6 B7
59063
238.26238.783238.477413.007413.18412.747000000000000600000.5510050.01932561.5040.8020.7000000000011.407.0504.257.75042015.600000000009.906.90374.55046.95027.45000000000012.908.404.351039482017112623333418.7480059.063insert into tbl_power_info_v2(P_A_DIANYA,P_B_DIANYA,P_C_DIANYA,P_UAB_XIANDIANYA,P_UBC_XIANDIANYA,P_UCA_XIANDIANYA,P_A_DIANLIU,P_B_DIANLIU,P_C_DIANLIU,P_A_YGGL,P_B_YGGL,P_C_YGGL,P_HXYGGL,P_A_WGGL,P_B_WGGL,P_C_WGGL,P_HXWGGL,P_A_SZGL,P_B_SZGL,P_C_SZGL,P_HXSZGL,P_A_GLYS,P_B_GLYS,P_C_GLYS,P_HXGLYS,P_DWPL,P_BY_KwhZ,P_BY_KwhJ,P_BY_KwhF,P_BY_KwhP,P_BY_KwhG,P_BY_HKwhZ,P_BY_HKwhJ,P_BY_HKwhF,P_BY_HKwhP,P_BY_HKwhG, P_BY_KvarhZ,P_BY_KvarhJ,P_BY_KvarhF,P_BY_KvarhP,P_BY_KvarhG, P_BY_HKvarhZ,P_BY_HKvarhJ,P_BY_HKvarhF,P_BY_HKvarhP,P_BY_HKvarhG, P_SY_KwhZ,P_SY_KwhJ,P_SY_KwhF,P_SY_KwhP,P_SY_KwhG, P_SY_HKwhZ,P_SY_HKwhJ,P_SY_HKwhF,P_SY_HKwhP,P_SY_HKwhG, P_SY_KvarhZ,P_SY_KvarhJ,P_SY_KvarhF,P_SY_KvarhP,P_SY_KvarhG, P_SY_HKvarhZ,P_SY_HKvarhJ,P_SY_HKvarhF,P_SY_HKvarhP,P_SY_HKvarhG, P_SSY_KwhZ,P_SSY_KwhJ,P_SSY_KwhF,P_SSY_KwhP,P_SSY_KwhG, P_SSY_HKwhZ,P_SSY_HKwhJ,P_SSY_HKwhF,P_SSY_HKwhP,P_SSY_HKwhG, P_SSY_KvarhZ,P_SSY_KvarhJ,P_SSY_KvarhF,P_SSY_KvarhP,P_SSY_KvarhG, P_SSY_HKvarhZ,P_SSY_HKvarhJ,P_SSY_HKvarhF,P_SSY_HKvarhP,P_SSY_HKvarhG,P_CODE,P_TIME,P_ZXYGDN,P_FXYGDN,P_ZXWGDN,P_FXWGDN)values(238.26,238.783,238.477,413.007,413.18,412.747,0,0,0,0,0,0,0,0,0,0,0,0,60,0,0,0,0.551,0,0,50.019325,61.5,0,40.8,0,20.7,0,0,0,0,0,0,0,0,0,0,11.4,0,7.05,0,4.2,57.75,0,42,0,15.6,0,0,0,0,0,0,0,0,0,0,9.9,0,6.9,0,3,74.55,0,46.95,0,27.45,0,0,0,0,0,0,0,0,0,0,12.9,0,8.4,0,4.3510394,8,20171126233334,18.748,0,0,59.063)
写入成功读取完毕一个
write:09 03 00 38 00 34 C4 98
write:09 03 07 CF 00 78 75 EB
write:09 03 01 0F 00 08 74 BB
write:01 03 00 38 00 34 C5 D0
write:01 03 07 CF 00 78 74 A3
write:01 03 01 0F 00 08 75 F3
write:02 03 00 38 00 34 C5 E3
write:02 03 07 CF 00 78 74 90
write:02 03 01 0F 00 08 75 C0
write:03 03 00 38 00 34 C4 32
write:03 03 07 CF 00 78 75 41
write:03 03 01 0F 00 08 74 11
write:04 03 00 38 00 34 C5 85
write:04 03 07 CF 00 78 74 F6
write:04 03 01 0F 00 08 75 A6
write:05 03 00 38 00 34 C4 54
write:05 03 07 CF 00 78 75 27
write:05 03 01 0F 00 08 74 77
write:06 03 00 38 00 34 C4 67
write:06 03 07 CF 00 78 75 14
write:06 03 01 0F 00 08 74 44
write:07 03 00 38 00 34 C5 B6
34 30 36
heart:34 30 36 36 32 33 30 31 30 31 30 35 30 32
34 30 36
heart:34 30 36 36 32 33 30 31 30 31 30 35 30 32 34 30 36 36 32 33 30 31 30 31 30 35 30 32 34 30 36 36 32 33 30 31 30 31 30 35 30 32
09 F9 F1
heart:09 F9 F1 ED FF F1 FE FF F5 07 7F FB 5B E7 75 FC FD FF E7 FF F4 FF DF F7 DF F3 FE E8 FD FD EF FF FF FF F7 F7 D4 F9 E1 F1 F9 F1 FF FD 7D 9F FF BB D5 F1 CF F8 EB FD E1 FF 44 BF EF F7 C4 F9 BE FF F4 F9 FF D1 7C FF FB F5 00 43 A0 00 00 00 00 00 00 43 C8 00 00 3F 00 C4 9C 3F 2C 8B 44 00 00 00 00 3F 5D 2F 1B 42 48 84 ED
write:07 03 07 CF 00 78 74 C5
write:07 03 01 0F 00 08 75 95
write:08 03 00 38 00 34 C5 49
08 03 68
843 6E 56 04 43 6E B7 0A 43 6E 8E 98 43 CE 8C 08 43 CE A2 2D 43 CE 75 C3 00 00 00 00 00 00 00 00 00 00 00 00 00 00 00 00 00 00 00 00 00 00 00 00 00 00 00 00 00 00 00 00 00 00 00 00 00 00 00 00 00 00 00 00 00 00 00 00 42 70 00 00 00 00 00 00 00 00 00 00 00 00 00 00 3F 0C CC CD 00 00 00 00 00 00 00 00 42 48 6B 70
write:08 03 07 CF 00 78 74 3A
08 03 F0
8write:08 03 01 0F 00 08 75 6A
totalsize 240
42 76 00 00 00 00 00 00 42 23 33 33 00 00 00 00 41 A5 99 9A 00 00 00 00 00 00 00 00 00 00 00 00 00 00 00 00 00 00 00 00 00 00 00 00 00 00 00 00 00 00 00 00 00 00 00 00 00 00 00 00 41 36 66 66 00 00 00 00 40 E1 99 9A 00 00 00 00 40 86 66 66 42 67 00 00 00 00 00 00 42 28 00 00 00 00 00 00 41 79 99 9A 00 00 00 00 00 00 00 00 00 00 00 00 00 00 00 00 00 00 00 00 00 00 00 00 00 00 00 00 00 00 00 00 00 00 00 00 00 00 00 00 41 1E 66 66 00 00 00 00 40 DC CC CD 00 00 00 00 40 40 00 00 42 95 19 9A 00 00 00 00 42 3B CC CD 00 00 00 00 41 DB 99 9A 00 00 00 00 00 00 00 00 00 00 00 00 00 00 00 00 00 00 00 00 00 00 00 00 00 00 00 00 00 00 00 00 00 00 00 00 00 00 00 00 41 4E 66 66 00 00 00 00 41 06 66 66 00 00 00 00 40 8B 3B B7
08 03 10
800 00 49 3C 00 00 00 00 00 00 00 00 00 00 E6 B7
43 6E 56 04
238.336
43 6E B7 0A
238.715
43 6E 8E 98
238.557
43 CE 8C 08
413.094
43 CE A2 2D
413.267
43 CE 75 C3
412.92
00 00 00 00
0
00 00 00 00
0
00 00 00 00
0
00 00 00 00
0
00 00 00 00
0
00 00 00 00
0
00 00 00 00
0
00 00 00 00
0
00 00 00 00
0
00 00 00 00
0
00 00 00 00
0
00 00 00 00
0
42 70 00 00
60
00 00 00 00
0
00 00 00 00
0
00 00 00 00
0
3F 0C CC CD
0.55
00 00 00 00
0
00 00 00 00
0
42 48 6B 70
50.10492
42 76 00 00
61.5
00 00 00 00
0
42 23 33 33
40.8
00 00 00 00
0
41 A5 99 9A
20.7
00 00 00 00
0
00 00 00 00
0
00 00 00 00
0
00 00 00 00
0
00 00 00 00
0
00 00 00 00
0
00 00 00 00
0
00 00 00 00
0
00 00 00 00
0
00 00 00 00
0
41 36 66 66
11.4
00 00 00 00
0
40 E1 99 9A
7.05
00 00 00 00
0
40 86 66 66
4.2
42 67 00 00
57.75
00 00 00 00
0
42 28 00 00
42
00 00 00 00
0
41 79 99 9A
15.6
00 00 00 00
0
00 00 00 00
0
00 00 00 00
0
00 00 00 00
0
00 00 00 00
0
00 00 00 00
0
00 00 00 00
0
00 00 00 00
0
00 00 00 00
0
00 00 00 00
0
41 1E 66 66
9.9
00 00 00 00
0
40 DC CC CD
6.9
00 00 00 00
0
40 40 00 00
3
42 95 19 9A
74.55
00 00 00 00
0
42 3B CC CD
46.95
00 00 00 00
0
41 DB 99 9A
27.45
00 00 00 00
0
00 00 00 00
0
00 00 00 00
0
00 00 00 00
0
00 00 00 00
0
00 00 00 00
0
00 00 00 00
0
00 00 00 00
0
00 00 00 00
0
00 00 00 00
0
41 4E 66 66
12.9
00 00 00 00
0
41 06 66 66
8.4
00 00 00 00
0
40 8B 3B B7
4.3510394
00 00 49 3C
18748
00 00 00 00
0
00 00 00 00
0
00 00 E6 B7
59063
238.336238.715238.557413.094413.267412.92000000000000600000.550050.1049261.5040.8020.7000000000011.407.0504.257.75042015.600000000009.906.90374.55046.95027.45000000000012.908.404.351039482017112623424218.7480059.063insert into tbl_power_info_v2(P_A_DIANYA,P_B_DIANYA,P_C_DIANYA,P_UAB_XIANDIANYA,P_UBC_XIANDIANYA,P_UCA_XIANDIANYA,P_A_DIANLIU,P_B_DIANLIU,P_C_DIANLIU,P_A_YGGL,P_B_YGGL,P_C_YGGL,P_HXYGGL,P_A_WGGL,P_B_WGGL,P_C_WGGL,P_HXWGGL,P_A_SZGL,P_B_SZGL,P_C_SZGL,P_HXSZGL,P_A_GLYS,P_B_GLYS,P_C_GLYS,P_HXGLYS,P_DWPL,P_BY_KwhZ,P_BY_KwhJ,P_BY_KwhF,P_BY_KwhP,P_BY_KwhG,P_BY_HKwhZ,P_BY_HKwhJ,P_BY_HKwhF,P_BY_HKwhP,P_BY_HKwhG, P_BY_KvarhZ,P_BY_KvarhJ,P_BY_KvarhF,P_BY_KvarhP,P_BY_KvarhG, P_BY_HKvarhZ,P_BY_HKvarhJ,P_BY_HKvarhF,P_BY_HKvarhP,P_BY_HKvarhG, P_SY_KwhZ,P_SY_KwhJ,P_SY_KwhF,P_SY_KwhP,P_SY_KwhG, P_SY_HKwhZ,P_SY_HKwhJ,P_SY_HKwhF,P_SY_HKwhP,P_SY_HKwhG, P_SY_KvarhZ,P_SY_KvarhJ,P_SY_KvarhF,P_SY_KvarhP,P_SY_KvarhG, P_SY_HKvarhZ,P_SY_HKvarhJ,P_SY_HKvarhF,P_SY_HKvarhP,P_SY_HKvarhG, P_SSY_KwhZ,P_SSY_KwhJ,P_SSY_KwhF,P_SSY_KwhP,P_SSY_KwhG, P_SSY_HKwhZ,P_SSY_HKwhJ,P_SSY_HKwhF,P_SSY_HKwhP,P_SSY_HKwhG, P_SSY_KvarhZ,P_SSY_KvarhJ,P_SSY_KvarhF,P_SSY_KvarhP,P_SSY_KvarhG, P_SSY_HKvarhZ,P_SSY_HKvarhJ,P_SSY_HKvarhF,P_SSY_HKvarhP,P_SSY_HKvarhG,P_CODE,P_TIME,P_ZXYGDN,P_FXYGDN,P_ZXWGDN,P_FXWGDN)values(238.336,238.715,238.557,413.094,413.267,412.92,0,0,0,0,0,0,0,0,0,0,0,0,60,0,0,0,0.55,0,0,50.10492,61.5,0,40.8,0,20.7,0,0,0,0,0,0,0,0,0,0,11.4,0,7.05,0,4.2,57.75,0,42,0,15.6,0,0,0,0,0,0,0,0,0,0,9.9,0,6.9,0,3,74.55,0,46.95,0,27.45,0,0,0,0,0,0,0,0,0,0,12.9,0,8.4,0,4.3510394,8,20171126234242,18.748,0,0,59.063)
写入成功读取完毕一个
write:09 03 00 38 00 34 C4 98
09 03 68
943 6E AA 7F 43 6F 1D B2 43 6E C9 BA 43 CE D9 9A 43 CE E4 9C 43 CE AD 2F 00 00 00 00 00 00 00 00 3F 5E B8 52 00 00 00 00 00 00 00 00 43 34 00 00 43 70 00 00 42 70 00 00 42 70 00 00 42 B4 00 00 43 52 00 00 42 B4 00 00 42 70 00 00 43 52 00 00 43 A5 00 00 3E E7 EF 9E 3E 28 F5 C3 3F 59 99 9A 3F 3B 22 D1 42 48 98 A2
write:09 03 07 CF 00 78 75 EB
09 03 F0
9totalsize 240
43 23 0C CD 41 B0 66 66 42 A0 CC CD 00 00 00 00 42 71 CC CD 00 00 00 00 00 00 00 00 00 00 00 00 00 00 00 00 00 00 00 00 00 00 00 00 00 00 00 00 00 00 00 00 00 00 00 00 00 00 00 00 43 07 4C CD 41 B0 66 66 42 62 CC CD 00 00 00 00 42 61 00 00 43 BC 2C CD 41 E7 99 9A 43 4D CC CD 00 00 00 00 43 0D 73 33 00 00 00 00 00 00 00 00 00 00 00 00 00 00 00 00 00 00 00 00 40 A3 33 33 00 00 00 00 40 19 99 9A 00 00 00 00 40 23 33 33 43 2C 33 33 41 D6 CC CD 42 95 19 9A 00 00 00 00 42 8D 4C CD 43 CA B9 9A 42 5D 66 66 43 44 33 33 00 00 00 00 43 19 C0 00 00 00 00 00 00 00 00 00 00 00 00 00 00 00 00 00 00 00 00 00 43 18 B3 33 41 B1 99 9A 42 8B 80 00 00 00 00 00 42 72 66 66 43 0F 8C CD 41 BC 66 66 42 72 66 66 00 00 00 00 42 6D E1 E6
write:09 03 01 0F 00 08 74 BB
09 03 10
900 00 95 EA 00 00 00 00 00 00 18 DA 00 00 98 F5
43 6E AA 7F
238.666
43 6F 1D B2
239.116
43 6E C9 BA
238.788
43 CE D9 9A
413.7
43 CE E4 9C
413.786
43 CE AD 2F
413.353
00 00 00 00
0
00 00 00 00
0
3F 5E B8 52
0.87
00 00 00 00
0
00 00 00 00
0
43 34 00 00
180
43 70 00 00
240
42 70 00 00
60
42 70 00 00
60
42 B4 00 00
90
43 52 00 00
210
42 B4 00 00
90
42 70 00 00
60
43 52 00 00
210
43 A5 00 00
330
3E E7 EF 9E
0.453
3E 28 F5 C3
0.165
3F 59 99 9A
0.85
3F 3B 22 D1
0.731
42 48 98 A2
50.149055
43 23 0C CD
163.05
41 B0 66 66
22.05
42 A0 CC CD
80.4
00 00 00 00
0
42 71 CC CD
60.45
00 00 00 00
0
00 00 00 00
0
00 00 00 00
0
00 00 00 00
0
00 00 00 00
0
00 00 00 00
0
00 00 00 00
0
00 00 00 00
0
00 00 00 00
0
00 00 00 00
0
43 07 4C CD
135.3
41 B0 66 66
22.05
42 62 CC CD
56.7
00 00 00 00
0
42 61 00 00
56.25
43 BC 2C CD
376.35
41 E7 99 9A
28.95
43 4D CC CD
205.8
00 00 00 00
0
43 0D 73 33
141.45
00 00 00 00
0
00 00 00 00
0
00 00 00 00
0
00 00 00 00
0
00 00 00 00
0
40 A3 33 33
5.1
00 00 00 00
0
40 19 99 9A
2.4
00 00 00 00
0
40 23 33 33
2.55
43 2C 33 33
172.2
41 D6 CC CD
26.85
42 95 19 9A
74.55
00 00 00 00
0
42 8D 4C CD
70.65
43 CA B9 9A
405.45
42 5D 66 66
55.35
43 44 33 33
196.2
00 00 00 00
0
43 19 C0 00
153.75
00 00 00 00
0
00 00 00 00
0
00 00 00 00
0
00 00 00 00
0
00 00 00 00
0
43 18 B3 33
152.7
41 B1 99 9A
22.2
42 8B 80 00
69.75
00 00 00 00
0
42 72 66 66
60.6
43 0F 8C CD
143.55
41 BC 66 66
23.55
42 72 66 66
60.6
00 00 00 00
0
42 6D E1 E6
59.470604
00 00 95 EA
38378
00 00 00 00
0
00 00 18 DA
6362
00 00 98 F5
39157
238.666239.116238.788413.7413.786413.353000.870018024060609021090602103300.4530.1650.850.73150.149055163.0522.0580.4060.450000000000135.322.0556.7056.25376.3528.95205.80141.45000005.102.402.55172.226.8574.55070.65405.4555.35196.20153.7500000152.722.269.75060.6143.5523.5560.6059.47060492017112623433538.37806.36239.157insert into tbl_power_info_v2(P_A_DIANYA,P_B_DIANYA,P_C_DIANYA,P_UAB_XIANDIANYA,P_UBC_XIANDIANYA,P_UCA_XIANDIANYA,P_A_DIANLIU,P_B_DIANLIU,P_C_DIANLIU,P_A_YGGL,P_B_YGGL,P_C_YGGL,P_HXYGGL,P_A_WGGL,P_B_WGGL,P_C_WGGL,P_HXWGGL,P_A_SZGL,P_B_SZGL,P_C_SZGL,P_HXSZGL,P_A_GLYS,P_B_GLYS,P_C_GLYS,P_HXGLYS,P_DWPL,P_BY_KwhZ,P_BY_KwhJ,P_BY_KwhF,P_BY_KwhP,P_BY_KwhG,P_BY_HKwhZ,P_BY_HKwhJ,P_BY_HKwhF,P_BY_HKwhP,P_BY_HKwhG, P_BY_KvarhZ,P_BY_KvarhJ,P_BY_KvarhF,P_BY_KvarhP,P_BY_KvarhG, P_BY_HKvarhZ,P_BY_HKvarhJ,P_BY_HKvarhF,P_BY_HKvarhP,P_BY_HKvarhG, P_SY_KwhZ,P_SY_KwhJ,P_SY_KwhF,P_SY_KwhP,P_SY_KwhG, P_SY_HKwhZ,P_SY_HKwhJ,P_SY_HKwhF,P_SY_HKwhP,P_SY_HKwhG, P_SY_KvarhZ,P_SY_KvarhJ,P_SY_KvarhF,P_SY_KvarhP,P_SY_KvarhG, P_SY_HKvarhZ,P_SY_HKvarhJ,P_SY_HKvarhF,P_SY_HKvarhP,P_SY_HKvarhG, P_SSY_KwhZ,P_SSY_KwhJ,P_SSY_KwhF,P_SSY_KwhP,P_SSY_KwhG, P_SSY_HKwhZ,P_SSY_HKwhJ,P_SSY_HKwhF,P_SSY_HKwhP,P_SSY_HKwhG, P_SSY_KvarhZ,P_SSY_KvarhJ,P_SSY_KvarhF,P_SSY_KvarhP,P_SSY_KvarhG, P_SSY_HKvarhZ,P_SSY_HKvarhJ,P_SSY_HKvarhF,P_SSY_HKvarhP,P_SSY_HKvarhG,P_CODE,P_TIME,P_ZXYGDN,P_FXYGDN,P_ZXWGDN,P_FXWGDN)values(238.666,239.116,238.788,413.7,413.786,413.353,0,0,0.87,0,0,180,240,60,60,90,210,90,60,210,330,0.453,0.165,0.85,0.731,50.149055,163.05,22.05,80.4,0,60.45,0,0,0,0,0,0,0,0,0,0,135.3,22.05,56.7,0,56.25,376.35,28.95,205.8,0,141.45,0,0,0,0,0,5.1,0,2.4,0,2.55,172.2,26.85,74.55,0,70.65,405.45,55.35,196.2,0,153.75,0,0,0,0,0,152.7,22.2,69.75,0,60.6,143.55,23.55,60.6,0,59.470604,9,20171126234335,38.378,0,6.362,39.157)
写入成功读取完毕一个
write:01 03 00 38 00 34 C5 D0
01 03 68
143 6E 95 81 43 6F 0C 08 43 6E A5 A2 43 CE C3 75 43 CE CE 77 43 CE 97 0A 00 00 00 00 3F 99 99 9A 00 00 00 00 43 20 00 00 43 20 00 00 00 00 00 00 43 A0 00 00 00 00 00 00 00 00 00 00 00 00 00 00 43 70 00 00 43 70 00 00 43 A0 00 00 00 00 00 00 43 C8 00 00 3F 02 4D D3 3F 2D 4F DF 00 00 00 00 3F 5C 28 F6 42 48 59 5C
write:01 03 07 CF 00 78 74 A3
01 03 F0
1totalsize 240
44 01 66 66 42 2E 66 66 43 A3 CC CD 00 00 00 00 43 12 00 00 00 00 00 00 00 00 00 00 00 00 00 00 00 00 00 00 00 00 00 00 3F 4C CC CD 00 00 00 00 3F 4C CC CD 00 00 00 00 00 00 00 00 43 26 00 00 41 B0 00 00 42 A8 CC CD 00 00 00 00 42 6C CC CD 44 0E 99 9A 42 56 66 66 43 B2 00 00 00 00 00 00 43 20 00 00 00 00 00 00 00 00 00 00 00 00 00 00 00 00 00 00 00 00 00 00 3F CC CC CD 00 00 00 00 3F CC CC CD 00 00 00 00 00 00 00 00 43 33 33 33 41 C0 00 00 42 B7 33 33 00 00 00 00 42 7C CC CD 44 42 66 66 42 AF 33 33 43 F7 66 66 00 00 00 00 43 42 CC CD 00 00 00 00 00 00 00 00 00 00 00 00 00 00 00 00 00 00 00 00 42 21 99 9A 3F CC CC CD 41 F3 33 33 00 00 00 00 41 00 00 00 43 36 CC CD 41 DC CC CD 42 BE 66 66 00 00 00 00 42 6E F3 E2
write:01 03 01 0F 00 08 75 F3
01 03 10
100 01 9F CB 00 00 00 00 00 00 8A CF 00 00 F2 4D
43 6E 95 81
238.584
43 6F 0C 08
239.047
43 6E A5 A2
238.647
43 CE C3 75
413.527
43 CE CE 77
413.613
43 CE 97 0A
413.18
00 00 00 00
0
3F 99 99 9A
1.2
00 00 00 00
0
43 20 00 00
160
43 20 00 00
160
00 00 00 00
0
43 A0 00 00
320
00 00 00 00
0
00 00 00 00
0
00 00 00 00
0
43 70 00 00
240
43 70 00 00
240
43 A0 00 00
320
00 00 00 00
0
43 C8 00 00
400
3F 02 4D D3
0.509
3F 2D 4F DF
0.677
00 00 00 00
0
3F 5C 28 F6
0.86
42 48 59 5C
50.087265
44 01 66 66
517.6
42 2E 66 66
43.6
43 A3 CC CD
327.6
00 00 00 00
0
43 12 00 00
146
00 00 00 00
0
00 00 00 00
0
00 00 00 00
0
00 00 00 00
0
00 00 00 00
0
3F 4C CC CD
0.8
00 00 00 00
0
3F 4C CC CD
0.8
00 00 00 00
0
00 00 00 00
0
43 26 00 00
166
41 B0 00 00
22
42 A8 CC CD
84.4
00 00 00 00
0
42 6C CC CD
59.2
44 0E 99 9A
570.4
42 56 66 66
53.6
43 B2 00 00
356
00 00 00 00
0
43 20 00 00
160
00 00 00 00
0
00 00 00 00
0
00 00 00 00
0
00 00 00 00
0
00 00 00 00
0
3F CC CC CD
1.6
00 00 00 00
0
3F CC CC CD
1.6
00 00 00 00
0
00 00 00 00
0
43 33 33 33
179.2
41 C0 00 00
24
42 B7 33 33
91.6
00 00 00 00
0
42 7C CC CD
63.2
44 42 66 66
777.6
42 AF 33 33
87.6
43 F7 66 66
494.8
00 00 00 00
0
43 42 CC CD
194.8
00 00 00 00
0
00 00 00 00
0
00 00 00 00
0
00 00 00 00
0
00 00 00 00
0
42 21 99 9A
40.4
3F CC CC CD
1.6
41 F3 33 33
30.4
00 00 00 00
0
41 00 00 00
8
43 36 CC CD
182.8
41 DC CC CD
27.6
42 BE 66 66
95.2
00 00 00 00
0
42 6E F3 E2
59.738167
00 01 9F CB
106443
00 00 00 00
0
00 00 8A CF
35535
00 00 F2 4D
62029
238.584239.047238.647413.527413.613413.1801.20160160032000024024032004000.5090.67700.8650.087265517.643.6327.60146000000.800.8001662284.4059.2570.453.63560160000001.601.600179.22491.6063.2777.687.6494.80194.80000040.41.630.408182.827.695.2059.738167120171126234439106.443035.53562.029insert into tbl_power_info_v2(P_A_DIANYA,P_B_DIANYA,P_C_DIANYA,P_UAB_XIANDIANYA,P_UBC_XIANDIANYA,P_UCA_XIANDIANYA,P_A_DIANLIU,P_B_DIANLIU,P_C_DIANLIU,P_A_YGGL,P_B_YGGL,P_C_YGGL,P_HXYGGL,P_A_WGGL,P_B_WGGL,P_C_WGGL,P_HXWGGL,P_A_SZGL,P_B_SZGL,P_C_SZGL,P_HXSZGL,P_A_GLYS,P_B_GLYS,P_C_GLYS,P_HXGLYS,P_DWPL,P_BY_KwhZ,P_BY_KwhJ,P_BY_KwhF,P_BY_KwhP,P_BY_KwhG,P_BY_HKwhZ,P_BY_HKwhJ,P_BY_HKwhF,P_BY_HKwhP,P_BY_HKwhG, P_BY_KvarhZ,P_BY_KvarhJ,P_BY_KvarhF,P_BY_KvarhP,P_BY_KvarhG, P_BY_HKvarhZ,P_BY_HKvarhJ,P_BY_HKvarhF,P_BY_HKvarhP,P_BY_HKvarhG, P_SY_KwhZ,P_SY_KwhJ,P_SY_KwhF,P_SY_KwhP,P_SY_KwhG, P_SY_HKwhZ,P_SY_HKwhJ,P_SY_HKwhF,P_SY_HKwhP,P_SY_HKwhG, P_SY_KvarhZ,P_SY_KvarhJ,P_SY_KvarhF,P_SY_KvarhP,P_SY_KvarhG, P_SY_HKvarhZ,P_SY_HKvarhJ,P_SY_HKvarhF,P_SY_HKvarhP,P_SY_HKvarhG, P_SSY_KwhZ,P_SSY_KwhJ,P_SSY_KwhF,P_SSY_KwhP,P_SSY_KwhG, P_SSY_HKwhZ,P_SSY_HKwhJ,P_SSY_HKwhF,P_SSY_HKwhP,P_SSY_HKwhG, P_SSY_KvarhZ,P_SSY_KvarhJ,P_SSY_KvarhF,P_SSY_KvarhP,P_SSY_KvarhG, P_SSY_HKvarhZ,P_SSY_HKvarhJ,P_SSY_HKvarhF,P_SSY_HKvarhP,P_SSY_HKvarhG,P_CODE,P_TIME,P_ZXYGDN,P_FXYGDN,P_ZXWGDN,P_FXWGDN)values(238.584,239.047,238.647,413.527,413.613,413.18,0,1.2,0,160,160,0,320,0,0,0,240,240,320,0,400,0.509,0.677,0,0.86,50.087265,517.6,43.6,327.6,0,146,0,0,0,0,0,0.8,0,0.8,0,0,166,22,84.4,0,59.2,570.4,53.6,356,0,160,0,0,0,0,0,1.6,0,1.6,0,0,179.2,24,91.6,0,63.2,777.6,87.6,494.8,0,194.8,0,0,0,0,0,40.4,1.6,30.4,0,8,182.8,27.6,95.2,0,59.738167,1,20171126234439,106.443,0,35.535,62.029)
写入成功读取完毕一个
write:02 03 00 38 00 34 C5 E3
02 03 68
243 6E 9E FA 43 6F 22 8F 43 6E CE 56 43 CE D9 9A 43 CE EF BE 43 CE B8 52 00 00 00 00 3F B8 51 EC 00 00 00 00 43 70 00 00 43 70 00 00 43 20 00 00 44 34 00 00 00 00 00 00 43 70 00 00 00 00 00 00 43 20 00 00 43 70 00 00 43 A0 00 00 43 70 00 00 44 34 00 00 3F 7E B8 52 3F 4B 02 0C 3F 68 B4 39 3F 7B 64 5A 42 48 85 A2
write:02 03 07 CF 00 78 74 90
02 03 F0
2totalsize 240
44 AB 40 00 43 1D 33 33 44 4F 19 9A 00 00 00 00 43 C0 00 00 00 00 00 00 00 00 00 00 00 00 00 00 00 00 00 00 00 00 00 00 42 F4 00 00 41 53 33 33 42 9C CC CD 00 00 00 00 41 F0 00 00 42 33 33 33 40 33 33 33 42 01 99 9A 00 00 00 00 41 13 33 33 44 8E D9 9A 43 18 CC CD 44 1F E6 66 00 00 00 00 43 AF 00 00 00 00 00 00 00 00 00 00 00 00 00 00 00 00 00 00 00 00 00 00 42 21 99 9A 41 20 00 00 41 A9 99 9A 00 00 00 00 41 0C CC CD 42 30 00 00 40 4C CC CD 41 F3 33 33 00 00 00 00 41 19 99 9A 45 2F 66 66 43 E3 99 9A 44 DC 33 33 00 00 00 00 44 13 4C CD 00 00 00 00 00 00 00 00 00 00 00 00 00 00 00 00 00 00 00 00 44 77 E6 66 43 2E CC CD 44 24 B3 33 00 00 00 00 43 1D 99 9A 42 13 33 33 40 00 00 00 41 D9 99 9A 00 00 00 00 40 E6 0F D7
write:02 03 01 0F 00 08 75 C0
02 03 10
200 03 4F 5D 00 00 00 05 00 01 34 74 00 00 AC B2
43 6E 9E FA
238.621
43 6F 22 8F
239.135
43 6E CE 56
238.806
43 CE D9 9A
413.7
43 CE EF BE
413.873
43 CE B8 52
413.44
00 00 00 00
0
3F B8 51 EC
1.44
00 00 00 00
0
43 70 00 00
240
43 70 00 00
240
43 20 00 00
160
44 34 00 00
720
00 00 00 00
0
43 70 00 00
240
00 00 00 00
0
43 20 00 00
160
43 70 00 00
240
43 A0 00 00
320
43 70 00 00
240
44 34 00 00
720
3F 7E B8 52
0.995
3F 4B 02 0C
0.793
3F 68 B4 39
0.909
3F 7B 64 5A
0.982
42 48 85 A2
50.1305
44 AB 40 00
1370
43 1D 33 33
157.2
44 4F 19 9A
828.4
00 00 00 00
0
43 C0 00 00
384
00 00 00 00
0
00 00 00 00
0
00 00 00 00
0
00 00 00 00
0
00 00 00 00
0
42 F4 00 00
122
41 53 33 33
13.2
42 9C CC CD
78.4
00 00 00 00
0
41 F0 00 00
30
42 33 33 33
44.8
40 33 33 33
2.8
42 01 99 9A
32.4
00 00 00 00
0
41 13 33 33
9.2
44 8E D9 9A
1142.8
43 18 CC CD
152.8
44 1F E6 66
639.6
00 00 00 00
0
43 AF 00 00
350
00 00 00 00
0
00 00 00 00
0
00 00 00 00
0
00 00 00 00
0
00 00 00 00
0
42 21 99 9A
40.4
41 20 00 00
10
41 A9 99 9A
21.2
00 00 00 00
0
41 0C CC CD
8.8
42 30 00 00
44
40 4C CC CD
3.2
41 F3 33 33
30.4
00 00 00 00
0
41 19 99 9A
9.6
45 2F 66 66
2806.4
43 E3 99 9A
455.2
44 DC 33 33
1761.6
00 00 00 00
0
44 13 4C CD
589.2
00 00 00 00
0
00 00 00 00
0
00 00 00 00
0
00 00 00 00
0
00 00 00 00
0
44 77 E6 66
991.6
43 2E CC CD
174.8
44 24 B3 33
658.8
00 00 00 00
0
43 1D 99 9A
157.6
42 13 33 33
36.8
40 00 00 00
2
41 D9 99 9A
27.2
00 00 00 00
0
40 E6 0F D7
7.1894336
00 03 4F 5D
216925
00 00 00 05
5
00 01 34 74
78964
00 00 AC B2
44210
238.621239.135238.806413.7413.873413.4401.440240240160720024001602403202407200.9950.7930.9090.98250.13051370157.2828.403840000012213.278.403044.82.832.409.21142.8152.8639.603500000040.41021.208.8443.230.409.62806.4455.21761.60589.200000991.6174.8658.80157.636.8227.207.1894336220171126234539216.9250.00578.96444.21insert into tbl_power_info_v2(P_A_DIANYA,P_B_DIANYA,P_C_DIANYA,P_UAB_XIANDIANYA,P_UBC_XIANDIANYA,P_UCA_XIANDIANYA,P_A_DIANLIU,P_B_DIANLIU,P_C_DIANLIU,P_A_YGGL,P_B_YGGL,P_C_YGGL,P_HXYGGL,P_A_WGGL,P_B_WGGL,P_C_WGGL,P_HXWGGL,P_A_SZGL,P_B_SZGL,P_C_SZGL,P_HXSZGL,P_A_GLYS,P_B_GLYS,P_C_GLYS,P_HXGLYS,P_DWPL,P_BY_KwhZ,P_BY_KwhJ,P_BY_KwhF,P_BY_KwhP,P_BY_KwhG,P_BY_HKwhZ,P_BY_HKwhJ,P_BY_HKwhF,P_BY_HKwhP,P_BY_HKwhG, P_BY_KvarhZ,P_BY_KvarhJ,P_BY_KvarhF,P_BY_KvarhP,P_BY_KvarhG, P_BY_HKvarhZ,P_BY_HKvarhJ,P_BY_HKvarhF,P_BY_HKvarhP,P_BY_HKvarhG, P_SY_KwhZ,P_SY_KwhJ,P_SY_KwhF,P_SY_KwhP,P_SY_KwhG, P_SY_HKwhZ,P_SY_HKwhJ,P_SY_HKwhF,P_SY_HKwhP,P_SY_HKwhG, P_SY_KvarhZ,P_SY_KvarhJ,P_SY_KvarhF,P_SY_KvarhP,P_SY_KvarhG, P_SY_HKvarhZ,P_SY_HKvarhJ,P_SY_HKvarhF,P_SY_HKvarhP,P_SY_HKvarhG, P_SSY_KwhZ,P_SSY_KwhJ,P_SSY_KwhF,P_SSY_KwhP,P_SSY_KwhG, P_SSY_HKwhZ,P_SSY_HKwhJ,P_SSY_HKwhF,P_SSY_HKwhP,P_SSY_HKwhG, P_SSY_KvarhZ,P_SSY_KvarhJ,P_SSY_KvarhF,P_SSY_KvarhP,P_SSY_KvarhG, P_SSY_HKvarhZ,P_SSY_HKvarhJ,P_SSY_HKvarhF,P_SSY_HKvarhP,P_SSY_HKvarhG,P_CODE,P_TIME,P_ZXYGDN,P_FXYGDN,P_ZXWGDN,P_FXWGDN)values(238.621,239.135,238.806,413.7,413.873,413.44,0,1.44,0,240,240,160,720,0,240,0,160,240,320,240,720,0.995,0.793,0.909,0.982,50.1305,1370,157.2,828.4,0,384,0,0,0,0,0,122,13.2,78.4,0,30,44.8,2.8,32.4,0,9.2,1142.8,152.8,639.6,0,350,0,0,0,0,0,40.4,10,21.2,0,8.8,44,3.2,30.4,0,9.6,2806.4,455.2,1761.6,0,589.2,0,0,0,0,0,991.6,174.8,658.8,0,157.6,36.8,2,27.2,0,7.1894336,2,20171126234539,216.925,0.005,78.964,44.21)
写入成功读取完毕一个
write:03 03 00 38 00 34 C4 32
03 03 68
343 6E 9B 23 43 6F 16 87 43 6E BD B2 43 CE CE 77 43 CE D9 9A 43 CE AD 2F 00 00 00 00 3F DA E1 48 3F 75 C2 8F 00 00 00 00 43 C3 00 00 42 70 00 00 43 F0 00 00 00 00 00 00 00 00 00 00 43 52 00 00 43 34 00 00 42 70 00 00 43 D2 00 00 43 70 00 00 43 FF 00 00 3F 30 62 4E 3F 70 E5 60 3E 83 95 81 3F 71 A9 FC 42 48 0D 13
write:03 03 07 CF 00 78 75 41
03 03 F0
3totalsize 240
43 C5 C6 66 42 9D CC CD 43 59 CC CD 00 00 00 00 42 C5 19 9A 00 00 00 00 00 00 00 00 00 00 00 00 00 00 00 00 00 00 00 00 42 A9 CC CD 41 80 66 66 42 5C CC CD 00 00 00 00 41 58 00 00 40 9E 66 66 3F 66 66 66 40 53 33 33 00 00 00 00 3F 19 99 9A 43 EF 2C CD 42 F0 00 00 43 7D 33 33 00 00 00 00 42 D1 B3 33 00 00 00 00 00 00 00 00 00 00 00 00 00 00 00 00 00 00 00 00 42 9C E6 66 40 E6 66 66 42 5B 99 9A 00 00 00 00 41 80 66 66 41 68 CC CD 40 A8 00 00 40 F9 99 9A 00 00 00 00 3F AC CC CD 43 D8 60 00 42 B5 80 00 43 81 86 66 00 00 00 00 42 A5 99 9A 00 00 00 00 00 00 00 00 00 00 00 00 00 00 00 00 00 00 00 00 42 F7 CC CD 41 90 00 00 42 A5 99 9A 00 00 00 00 41 B8 CC CD 40 EB 33 33 40 06 66 66 40 53 33 33 00 00 00 00 3F E6 99 89
write:03 03 01 0F 00 08 74 11
03 03 10
300 00 C5 6A 00 00 00 00 00 00 27 73 00 00 B6 1A
43 6E 9B 23
238.606
43 6F 16 87
239.088
43 6E BD B2
238.741
43 CE CE 77
413.613
43 CE D9 9A
413.7
43 CE AD 2F
413.353
00 00 00 00
0
3F DA E1 48
1.71
3F 75 C2 8F
0.96
00 00 00 00
0
43 C3 00 00
390
42 70 00 00
60
43 F0 00 00
480
00 00 00 00
0
00 00 00 00
0
43 52 00 00
210
43 34 00 00
180
42 70 00 00
60
43 D2 00 00
420
43 70 00 00
240
43 FF 00 00
510
3F 30 62 4E
0.689
3F 70 E5 60
0.941
3E 83 95 81
0.257
3F 71 A9 FC
0.944
42 48 0D 13
50.012768
43 C5 C6 66
395.55
42 9D CC CD
78.9
43 59 CC CD
217.8
00 00 00 00
0
42 C5 19 9A
98.55
00 00 00 00
0
00 00 00 00
0
00 00 00 00
0
00 00 00 00
0
00 00 00 00
0
42 A9 CC CD
84.9
41 80 66 66
16.05
42 5C CC CD
55.2
00 00 00 00
0
41 58 00 00
13.5
40 9E 66 66
4.95
3F 66 66 66
0.9
40 53 33 33
3.3
00 00 00 00
0
3F 19 99 9A
0.6
43 EF 2C CD
478.35
42 F0 00 00
120
43 7D 33 33
253.2
00 00 00 00
0
42 D1 B3 33
104.85
00 00 00 00
0
00 00 00 00
0
00 00 00 00
0
00 00 00 00
0
00 00 00 00
0
42 9C E6 66
78.45
40 E6 66 66
7.2
42 5B 99 9A
54.9
00 00 00 00
0
41 80 66 66
16.05
41 68 CC CD
14.55
40 A8 00 00
5.25
40 F9 99 9A
7.8
00 00 00 00
0
3F AC CC CD
1.35
43 D8 60 00
432.75
42 B5 80 00
90.75
43 81 86 66
259.05
00 00 00 00
0
42 A5 99 9A
82.8
00 00 00 00
0
00 00 00 00
0
00 00 00 00
0
00 00 00 00
0
00 00 00 00
0
42 F7 CC CD
123.9
41 90 00 00
18
42 A5 99 9A
82.8
00 00 00 00
0
41 B8 CC CD
23.1
40 EB 33 33
7.35
40 06 66 66
2.1
40 53 33 33
3.3
00 00 00 00
0
3F E6 99 89
1.8015605
00 00 C5 6A
50538
00 00 00 00
0
00 00 27 73
10099
00 00 B6 1A
46618
238.606239.088238.741413.613413.7413.35301.710.9603906048000210180604202405100.6890.9410.2570.94450.012768395.5578.9217.8098.550000084.916.0555.2013.54.950.93.300.6478.35120253.20104.850000078.457.254.9016.0514.555.257.801.35432.7590.75259.05082.800000123.91882.8023.17.352.13.301.801560532017112623464050.538010.09946.618insert into tbl_power_info_v2(P_A_DIANYA,P_B_DIANYA,P_C_DIANYA,P_UAB_XIANDIANYA,P_UBC_XIANDIANYA,P_UCA_XIANDIANYA,P_A_DIANLIU,P_B_DIANLIU,P_C_DIANLIU,P_A_YGGL,P_B_YGGL,P_C_YGGL,P_HXYGGL,P_A_WGGL,P_B_WGGL,P_C_WGGL,P_HXWGGL,P_A_SZGL,P_B_SZGL,P_C_SZGL,P_HXSZGL,P_A_GLYS,P_B_GLYS,P_C_GLYS,P_HXGLYS,P_DWPL,P_BY_KwhZ,P_BY_KwhJ,P_BY_KwhF,P_BY_KwhP,P_BY_KwhG,P_BY_HKwhZ,P_BY_HKwhJ,P_BY_HKwhF,P_BY_HKwhP,P_BY_HKwhG, P_BY_KvarhZ,P_BY_KvarhJ,P_BY_KvarhF,P_BY_KvarhP,P_BY_KvarhG, P_BY_HKvarhZ,P_BY_HKvarhJ,P_BY_HKvarhF,P_BY_HKvarhP,P_BY_HKvarhG, P_SY_KwhZ,P_SY_KwhJ,P_SY_KwhF,P_SY_KwhP,P_SY_KwhG, P_SY_HKwhZ,P_SY_HKwhJ,P_SY_HKwhF,P_SY_HKwhP,P_SY_HKwhG, P_SY_KvarhZ,P_SY_KvarhJ,P_SY_KvarhF,P_SY_KvarhP,P_SY_KvarhG, P_SY_HKvarhZ,P_SY_HKvarhJ,P_SY_HKvarhF,P_SY_HKvarhP,P_SY_HKvarhG, P_SSY_KwhZ,P_SSY_KwhJ,P_SSY_KwhF,P_SSY_KwhP,P_SSY_KwhG, P_SSY_HKwhZ,P_SSY_HKwhJ,P_SSY_HKwhF,P_SSY_HKwhP,P_SSY_HKwhG, P_SSY_KvarhZ,P_SSY_KvarhJ,P_SSY_KvarhF,P_SSY_KvarhP,P_SSY_KvarhG, P_SSY_HKvarhZ,P_SSY_HKvarhJ,P_SSY_HKvarhF,P_SSY_HKvarhP,P_SSY_HKvarhG,P_CODE,P_TIME,P_ZXYGDN,P_FXYGDN,P_ZXWGDN,P_FXWGDN)values(238.606,239.088,238.741,413.613,413.7,413.353,0,1.71,0.96,0,390,60,480,0,0,210,180,60,420,240,510,0.689,0.941,0.257,0.944,50.012768,395.55,78.9,217.8,0,98.55,0,0,0,0,0,84.9,16.05,55.2,0,13.5,4.95,0.9,3.3,0,0.6,478.35,120,253.2,0,104.85,0,0,0,0,0,78.45,7.2,54.9,0,16.05,14.55,5.25,7.8,0,1.35,432.75,90.75,259.05,0,82.8,0,0,0,0,0,123.9,18,82.8,0,23.1,7.35,2.1,3.3,0,1.8015605,3,20171126234640,50.538,0,10.099,46.618)
写入成功读取完毕一个
write:04 03 00 38 00 34 C5 85
04 03 68
443 6E 4C 8B 43 6E D1 AA 43 6E 84 19 43 CE 8C 08 43 CE AD 2F 43 CE 6A C1 3F 80 00 00 3F 4C CC CD 40 05 1E B8 43 48 00 00 42 F0 00 00 43 B4 00 00 44 2A 00 00 42 A0 00 00 00 00 00 00 43 A0 00 00 43 B4 00 00 43 70 00 00 43 48 00 00 43 F0 00 00 44 3E 00 00 3F 61 06 25 3F 27 2B 02 3F 2F DF 3B 3F 64 9B A6 42 47 EE C4
write:04 03 07 CF 00 78 74 F6
04 03 F0
4totalsize 240
44 27 33 33 43 0D 99 9A 43 BD 99 9A 00 00 00 00 43 13 CC CD 00 00 00 00 00 00 00 00 00 00 00 00 00 00 00 00 00 00 00 00 40 C0 00 00 3E 4C CC CD 3F CC CC CD 00 00 00 00 40 86 66 66 42 86 CC CD 41 66 66 66 42 04 CC CD 00 00 00 00 41 9E 66 66 44 1B 00 00 42 CE CC CD 43 AE 00 00 00 00 00 00 43 28 66 66 00 00 00 00 00 00 00 00 00 00 00 00 00 00 00 00 00 00 00 00 41 B0 00 00 40 26 66 66 40 C0 00 00 00 00 00 00 41 53 33 33 42 48 CC CD 41 06 66 66 41 D0 00 00 00 00 00 00 41 76 66 66 44 21 8C CD 42 DE CC CD 43 B0 99 9A 00 00 00 00 43 35 33 33 00 00 00 00 00 00 00 00 00 00 00 00 00 00 00 00 00 00 00 00 41 E8 00 00 40 B9 99 9A 40 E0 00 00 00 00 00 00 41 81 99 9A 42 14 CC CD 40 8C CC CD 41 9B 33 33 00 00 00 00 41 50 CB DC
write:04 03 01 0F 00 08 75 A6
04 03 10
400 02 92 E5 00 00 00 00 00 00 42 3E 00 00 26 2A
43 6E 4C 8B
238.299
43 6E D1 AA
238.819
43 6E 84 19
238.516
43 CE 8C 08
413.094
43 CE AD 2F
413.353
43 CE 6A C1
412.834
3F 80 00 00
1
3F 4C CC CD
0.8
40 05 1E B8
2.08
43 48 00 00
200
42 F0 00 00
120
43 B4 00 00
360
44 2A 00 00
680
42 A0 00 00
80
00 00 00 00
0
43 A0 00 00
320
43 B4 00 00
360
43 70 00 00
240
43 48 00 00
200
43 F0 00 00
480
44 3E 00 00
760
3F 61 06 25
0.879
3F 27 2B 02
0.653
3F 2F DF 3B
0.687
3F 64 9B A6
0.893
42 47 EE C4
49.98317
44 27 33 33
668.8
43 0D 99 9A
141.6
43 BD 99 9A
379.2
00 00 00 00
0
43 13 CC CD
147.8
00 00 00 00
0
00 00 00 00
0
00 00 00 00
0
00 00 00 00
0
00 00 00 00
0
40 C0 00 00
6
3E 4C CC CD
0.2
3F CC CC CD
1.6
00 00 00 00
0
40 86 66 66
4.2
42 86 CC CD
67.4
41 66 66 66
14.4
42 04 CC CD
33.2
00 00 00 00
0
41 9E 66 66
19.8
44 1B 00 00
620
42 CE CC CD
103.4
43 AE 00 00
348
00 00 00 00
0
43 28 66 66
168.4
00 00 00 00
0
00 00 00 00
0
00 00 00 00
0
00 00 00 00
0
00 00 00 00
0
41 B0 00 00
22
40 26 66 66
2.6
40 C0 00 00
6
00 00 00 00
0
41 53 33 33
13.2
42 48 CC CD
50.2
41 06 66 66
8.4
41 D0 00 00
26
00 00 00 00
0
41 76 66 66
15.4
44 21 8C CD
646.2
42 DE CC CD
111.4
43 B0 99 9A
353.2
00 00 00 00
0
43 35 33 33
181.2
00 00 00 00
0
00 00 00 00
0
00 00 00 00
0
00 00 00 00
0
00 00 00 00
0
41 E8 00 00
29
40 B9 99 9A
5.8
40 E0 00 00
7
00 00 00 00
0
41 81 99 9A
16.2
42 14 CC CD
37.2
40 8C CC CD
4.4
41 9B 33 33
19.4
00 00 00 00
0
41 50 CB DC
13.04977
00 02 92 E5
168677
00 00 00 00
0
00 00 42 3E
16958
00 00 26 2A
9770
238.299238.819238.516413.094413.353412.83410.82.082001203606808003203602402004807600.8790.6530.6870.89349.98317668.8141.6379.20147.80000060.21.604.267.414.433.2019.8620103.43480168.400000222.66013.250.28.426015.4646.2111.4353.20181.200000295.87016.237.24.419.4013.04977420171126234754168.677016.9589.77insert into tbl_power_info_v2(P_A_DIANYA,P_B_DIANYA,P_C_DIANYA,P_UAB_XIANDIANYA,P_UBC_XIANDIANYA,P_UCA_XIANDIANYA,P_A_DIANLIU,P_B_DIANLIU,P_C_DIANLIU,P_A_YGGL,P_B_YGGL,P_C_YGGL,P_HXYGGL,P_A_WGGL,P_B_WGGL,P_C_WGGL,P_HXWGGL,P_A_SZGL,P_B_SZGL,P_C_SZGL,P_HXSZGL,P_A_GLYS,P_B_GLYS,P_C_GLYS,P_HXGLYS,P_DWPL,P_BY_KwhZ,P_BY_KwhJ,P_BY_KwhF,P_BY_KwhP,P_BY_KwhG,P_BY_HKwhZ,P_BY_HKwhJ,P_BY_HKwhF,P_BY_HKwhP,P_BY_HKwhG, P_BY_KvarhZ,P_BY_KvarhJ,P_BY_KvarhF,P_BY_KvarhP,P_BY_KvarhG, P_BY_HKvarhZ,P_BY_HKvarhJ,P_BY_HKvarhF,P_BY_HKvarhP,P_BY_HKvarhG, P_SY_KwhZ,P_SY_KwhJ,P_SY_KwhF,P_SY_KwhP,P_SY_KwhG, P_SY_HKwhZ,P_SY_HKwhJ,P_SY_HKwhF,P_SY_HKwhP,P_SY_HKwhG, P_SY_KvarhZ,P_SY_KvarhJ,P_SY_KvarhF,P_SY_KvarhP,P_SY_KvarhG, P_SY_HKvarhZ,P_SY_HKvarhJ,P_SY_HKvarhF,P_SY_HKvarhP,P_SY_HKvarhG, P_SSY_KwhZ,P_SSY_KwhJ,P_SSY_KwhF,P_SSY_KwhP,P_SSY_KwhG, P_SSY_HKwhZ,P_SSY_HKwhJ,P_SSY_HKwhF,P_SSY_HKwhP,P_SSY_HKwhG, P_SSY_KvarhZ,P_SSY_KvarhJ,P_SSY_KvarhF,P_SSY_KvarhP,P_SSY_KvarhG, P_SSY_HKvarhZ,P_SSY_HKvarhJ,P_SSY_HKvarhF,P_SSY_HKvarhP,P_SSY_HKvarhG,P_CODE,P_TIME,P_ZXYGDN,P_FXYGDN,P_ZXWGDN,P_FXWGDN)values(238.299,238.819,238.516,413.094,413.353,412.834,1,0.8,2.08,200,120,360,680,80,0,320,360,240,200,480,760,0.879,0.653,0.687,0.893,49.98317,668.8,141.6,379.2,0,147.8,0,0,0,0,0,6,0.2,1.6,0,4.2,67.4,14.4,33.2,0,19.8,620,103.4,348,0,168.4,0,0,0,0,0,22,2.6,6,0,13.2,50.2,8.4,26,0,15.4,646.2,111.4,353.2,0,181.2,0,0,0,0,0,29,5.8,7,0,16.2,37.2,4.4,19.4,0,13.04977,4,20171126234754,168.677,0,16.958,9.77)
写入成功读取完毕一个
write:05 03 00 38 00 34 C4 54
05 03 68
543 6E A0 00 43 6F 01 89 43 6E CF 5C 43 CE CE 77 43 CE E4 9C 43 CE B8 52 3F FA E1 48 3F 6B 85 1F 40 51 EB 85 43 8C 00 00 43 20 00 00 44 34 00 00 44 8C 00 00 42 F0 00 00 00 00 00 00 43 20 00 00 43 A0 00 00 43 F0 00 00 43 48 00 00 44 48 00 00 44 91 00 00 3F 12 F1 AA 3F 29 BA 5E 3F 67 2B 02 3F 76 87 2B 42 48 A1 18
write:05 03 07 CF 00 78 75 27
05 03 F0
5totalsize 240
44 B3 D9 9A 43 AF 33 33 44 48 00 00 00 00 00 00 43 90 19 9A 00 00 00 00 00 00 00 00 00 00 00 00 00 00 00 00 00 00 00 00 00 00 00 00 00 00 00 00 00 00 00 00 00 00 00 00 00 00 00 00 43 61 00 00 42 48 00 00 42 DA 66 66 00 00 00 00 42 83 33 33 44 C1 06 66 43 AF 99 9A 44 5A 00 00 00 00 00 00 43 A0 66 66 00 00 00 00 00 00 00 00 00 00 00 00 00 00 00 00 00 00 00 00 3F CC CC CD 3F 19 99 9A 3F 4C CC CD 00 00 00 00 00 00 00 00 43 6F 99 9A 42 50 00 00 42 E7 33 33 00 00 00 00 42 8F 99 9A 44 D5 93 33 43 A4 B3 33 44 7E 19 9A 00 00 00 00 43 B5 33 33 00 00 00 00 00 00 00 00 00 00 00 00 00 00 00 00 00 00 00 00 42 A8 66 66 41 9B 33 33 42 69 99 9A 00 00 00 00 40 CC CC CD 43 26 33 33 41 FE 66 66 42 9E CC CD 00 00 00 00 42 5B 83 A9
write:05 03 01 0F 00 08 74 77
05 03 10
500 08 85 E8 00 00 00 00 00 00 D9 A8 00 00 C3 4C
43 6E A0 00
238.625
43 6F 01 89
239.006
43 6E CF 5C
238.81
43 CE CE 77
413.613
43 CE E4 9C
413.786
43 CE B8 52
413.44
3F FA E1 48
1.96
3F 6B 85 1F
0.92
40 51 EB 85
3.28
43 8C 00 00
280
43 20 00 00
160
44 34 00 00
720
44 8C 00 00
1120
42 F0 00 00
120
00 00 00 00
0
43 20 00 00
160
43 A0 00 00
320
43 F0 00 00
480
43 48 00 00
200
44 48 00 00
800
44 91 00 00
1160
3F 12 F1 AA
0.574
3F 29 BA 5E
0.663
3F 67 2B 02
0.903
3F 76 87 2B
0.963
42 48 A1 18
50.15732
44 B3 D9 9A
1438.8
43 AF 33 33
350.4
44 48 00 00
800
00 00 00 00
0
43 90 19 9A
288.2
00 00 00 00
0
00 00 00 00
0
00 00 00 00
0
00 00 00 00
0
00 00 00 00
0
00 00 00 00
0
00 00 00 00
0
00 00 00 00
0
00 00 00 00
0
00 00 00 00
0
43 61 00 00
225
42 48 00 00
50
42 DA 66 66
109.2
00 00 00 00
0
42 83 33 33
65.6
44 C1 06 66
1544.2
43 AF 99 9A
351.2
44 5A 00 00
872
00 00 00 00
0
43 A0 66 66
320.8
00 00 00 00
0
00 00 00 00
0
00 00 00 00
0
00 00 00 00
0
00 00 00 00
0
3F CC CC CD
1.6
3F 19 99 9A
0.6
3F 4C CC CD
0.8
00 00 00 00
0
00 00 00 00
0
43 6F 99 9A
239.6
42 50 00 00
52
42 E7 33 33
115.6
00 00 00 00
0
42 8F 99 9A
71.8
44 D5 93 33
1708.6
43 A4 B3 33
329.4
44 7E 19 9A
1016.4
00 00 00 00
0
43 B5 33 33
362.4
00 00 00 00
0
00 00 00 00
0
00 00 00 00
0
00 00 00 00
0
00 00 00 00
0
42 A8 66 66
84.2
41 9B 33 33
19.4
42 69 99 9A
58.4
00 00 00 00
0
40 CC CC CD
6.4
43 26 33 33
166.2
41 FE 66 66
31.8
42 9E CC CD
79.4
00 00 00 00
0
42 5B 83 A9
54.878574
00 08 85 E8
558568
00 00 00 00
0
00 00 D9 A8
55720
00 00 C3 4C
49996
238.625239.006238.81413.613413.786413.441.960.923.282801607201120120016032048020080011600.5740.6630.9030.96350.157321438.8350.48000288.2000000000022550109.2065.61544.2351.28720320.8000001.60.60.800239.652115.6071.81708.6329.41016.40362.40000084.219.458.406.4166.231.879.4054.878574520171126234838558.568055.7249.996insert into tbl_power_info_v2(P_A_DIANYA,P_B_DIANYA,P_C_DIANYA,P_UAB_XIANDIANYA,P_UBC_XIANDIANYA,P_UCA_XIANDIANYA,P_A_DIANLIU,P_B_DIANLIU,P_C_DIANLIU,P_A_YGGL,P_B_YGGL,P_C_YGGL,P_HXYGGL,P_A_WGGL,P_B_WGGL,P_C_WGGL,P_HXWGGL,P_A_SZGL,P_B_SZGL,P_C_SZGL,P_HXSZGL,P_A_GLYS,P_B_GLYS,P_C_GLYS,P_HXGLYS,P_DWPL,P_BY_KwhZ,P_BY_KwhJ,P_BY_KwhF,P_BY_KwhP,P_BY_KwhG,P_BY_HKwhZ,P_BY_HKwhJ,P_BY_HKwhF,P_BY_HKwhP,P_BY_HKwhG, P_BY_KvarhZ,P_BY_KvarhJ,P_BY_KvarhF,P_BY_KvarhP,P_BY_KvarhG, P_BY_HKvarhZ,P_BY_HKvarhJ,P_BY_HKvarhF,P_BY_HKvarhP,P_BY_HKvarhG, P_SY_KwhZ,P_SY_KwhJ,P_SY_KwhF,P_SY_KwhP,P_SY_KwhG, P_SY_HKwhZ,P_SY_HKwhJ,P_SY_HKwhF,P_SY_HKwhP,P_SY_HKwhG, P_SY_KvarhZ,P_SY_KvarhJ,P_SY_KvarhF,P_SY_KvarhP,P_SY_KvarhG, P_SY_HKvarhZ,P_SY_HKvarhJ,P_SY_HKvarhF,P_SY_HKvarhP,P_SY_HKvarhG, P_SSY_KwhZ,P_SSY_KwhJ,P_SSY_KwhF,P_SSY_KwhP,P_SSY_KwhG, P_SSY_HKwhZ,P_SSY_HKwhJ,P_SSY_HKwhF,P_SSY_HKwhP,P_SSY_HKwhG, P_SSY_KvarhZ,P_SSY_KvarhJ,P_SSY_KvarhF,P_SSY_KvarhP,P_SSY_KvarhG, P_SSY_HKvarhZ,P_SSY_HKvarhJ,P_SSY_HKvarhF,P_SSY_HKvarhP,P_SSY_HKvarhG,P_CODE,P_TIME,P_ZXYGDN,P_FXYGDN,P_ZXWGDN,P_FXWGDN)values(238.625,239.006,238.81,413.613,413.786,413.44,1.96,0.92,3.28,280,160,720,1120,120,0,160,320,480,200,800,1160,0.574,0.663,0.903,0.963,50.15732,1438.8,350.4,800,0,288.2,0,0,0,0,0,0,0,0,0,0,225,50,109.2,0,65.6,1544.2,351.2,872,0,320.8,0,0,0,0,0,1.6,0.6,0.8,0,0,239.6,52,115.6,0,71.8,1708.6,329.4,1016.4,0,362.4,0,0,0,0,0,84.2,19.4,58.4,0,6.4,166.2,31.8,79.4,0,54.878574,5,20171126234838,558.568,0,55.72,49.996)
写入成功读取完毕一个
write:06 03 00 38 00 34 C4 67
06 03 68
643 6E 90 A4 43 6E D7 8D 43 6E A5 E3 43 CE AD 2F 43 CE B8 52 43 CE 97 0A 40 B4 7A E1 41 27 0A 3D 3F E6 66 66 44 48 00 00 45 1B 00 00 43 A0 00 00 45 5E 80 00 43 8C 00 00 00 00 00 00 42 A0 00 00 43 B4 00 00 44 AA 00 00 45 1B 00 00 43 DC 00 00 45 61 00 00 3F 14 FD F4 3F 7F 7C EE 3F 32 6E 98 3F 7E B8 52 42 47 47 A9
write:06 03 07 CF 00 78 75 14
06 03 F0
6totalsize 240
44 D9 19 9A 43 A8 19 9A 44 82 33 33 00 00 00 00 43 B3 4C CD 00 00 00 00 00 00 00 00 00 00 00 00 00 00 00 00 00 00 00 00 3F E6 66 66 3E 4C CC CD 3F B3 33 33 00 00 00 00 3E 4C CC CD 43 1E 00 00 41 F6 66 66 42 94 00 00 00 00 00 00 42 53 33 33 44 F8 A6 66 43 BF 33 33 44 93 80 00 00 00 00 00 43 D5 4C CD 00 00 00 00 00 00 00 00 00 00 00 00 00 00 00 00 00 00 00 00 40 C6 66 66 3E CC CC CD 40 A0 00 00 00 00 00 00 3F 19 99 9A 43 47 99 9A 42 16 66 66 42 BB 99 9A 00 00 00 00 42 88 00 00 45 15 00 00 43 EA 66 66 44 AC 53 33 00 00 00 00 44 06 0C CD 00 00 00 00 00 00 00 00 00 00 00 00 00 00 00 00 00 00 00 00 41 53 33 33 40 66 66 66 40 CC CC CD 00 00 00 00 40 40 00 00 43 38 33 33 42 10 00 00 42 A8 CC CD 00 00 00 00 42 7D AA 86
write:06 03 01 0F 00 08 74 44
06 03 10
600 0B 35 69 00 00 00 00 00 00 17 99 00 00 02 EC
43 6E 90 A4
238.565
43 6E D7 8D
238.842
43 6E A5 E3
238.648
43 CE AD 2F
413.353
43 CE B8 52
413.44
43 CE 97 0A
413.18
40 B4 7A E1
5.64
41 27 0A 3D
10.44
3F E6 66 66
1.8
44 48 00 00
800
45 1B 00 00
2480
43 A0 00 00
320
45 5E 80 00
3560
43 8C 00 00
280
00 00 00 00
0
42 A0 00 00
80
43 B4 00 00
360
44 AA 00 00
1360
45 1B 00 00
2480
43 DC 00 00
440
45 61 00 00
3600
3F 14 FD F4
0.582
3F 7F 7C EE
0.998
3F 32 6E 98
0.697
3F 7E B8 52
0.995
42 47 47 A9
49.81998
44 D9 19 9A
1736.8
43 A8 19 9A
336.2
44 82 33 33
1041.6
00 00 00 00
0
43 B3 4C CD
358.6
00 00 00 00
0
00 00 00 00
0
00 00 00 00
0
00 00 00 00
0
00 00 00 00
0
3F E6 66 66
1.8
3E 4C CC CD
0.2
3F B3 33 33
1.4
00 00 00 00
0
3E 4C CC CD
0.2
43 1E 00 00
158
41 F6 66 66
30.8
42 94 00 00
74
