nohup: ignoring input
Listening on :6002
received messag ?->? 
 120.55.13.113:51462 172.16.246.153:6002
write:0A 03 00 38 00 34 C4 AB
6C 00 0B
heart:6C 00 0B 00 00 00 00 00 00 00 00 00

err2222: EOF
write:0A 03 07 CF 00 78 75 D8
write err: write tcp 172.16.246.153:6002->120.55.13.113:51462: use of closed network connection
received messag ?->? 
 124.160.213.101:13314 172.16.246.153:6002
write:0A 03 00 38 00 34 C4 AB
77 77 77
heart:77 77 77 2E 75 73 72 2E 63 6E
write:0A 03 07 CF 00 78 75 D8
77 77 77
heart:77 77 77 2E 75 73 72 2E 63 6E
write:0A 03 01 0F 00 08 74 88
write:0B 03 00 38 00 34 C5 7A
77 77 77
heart:77 77 77 2E 75 73 72 2E 63 6E
write:0B 03 07 CF 00 78 74 09
77 77 77
heart:77 77 77 2E 75 73 72 2E 63 6E
write:0B 03 01 0F 00 08 75 59
write:0C 03 00 38 00 34 C4 CD
77 77 77
heart:77 77 77 2E 75 73 72 2E 63 6E
write:0C 03 07 CF 00 78 75 BE
77 77 77
heart:77 77 77 2E 75 73 72 2E 63 6E
write:0C 03 01 0F 00 08 74 EE
write:0D 03 00 38 00 34 C5 1C
77 77 77
heart:77 77 77 2E 75 73 72 2E 63 6E
write:0D 03 07 CF 00 78 74 6F
77 77 77
heart:77 77 77 2E 75 73 72 2E 63 6E
write:0D 03 01 0F 00 08 75 3F
write:1A 03 00 38 00 34 C6 3B
1A 03 68
2643 6D D9 9A 43 6E 32 B0 43 6D 78 52 43 CE 12 0C 43 CD E5 C3 43 CD C4 7B 41 15 C2 8F 41 64 7A E1 41 51 47 AE 44 FF 00 00 45 3B 80 00 45 2C 80 00 45 F3 C0 00 43 B4 00 00 00 00 00 00 44 16 00 00 44 96 00 00 45 0E 80 00 45 52 00 00 45 43 00 00 45 F7 80 00 3F 65 1E B8 3F 60 41 89 3F 68 72 B0 3F 7D 2F 1B 42 48 3E CB
write:1A 03 07 CF 00 78 77 48
1A 03 F0
26totalsize 240
44 EF 66 66 43 50 CC CD 44 86 D9 9A 00 00 00 00 44 1C C0 00 00 00 00 00 00 00 00 00 00 00 00 00 00 00 00 00 00 00 00 00 42 99 99 9A 40 99 99 9A 42 20 CC CD 00 00 00 00 41 FE 66 66 44 6A 00 00 43 16 00 00 43 C9 E6 66 00 00 00 00 43 BE CC CD 44 AC E0 00 43 0E CC CD 44 4A 33 33 00 00 00 00 43 D7 19 9A 00 00 00 00 00 00 00 00 00 00 00 00 00 00 00 00 00 00 00 00 40 C0 00 00 3F E6 66 66 40 19 99 9A 00 00 00 00 3F 99 99 9A 44 70 00 00 43 11 33 33 43 D5 4C CD 00 00 00 00 43 C1 CC CD 44 E4 00 00 42 EE CC CD 44 94 20 00 00 00 00 00 44 01 E6 66 00 00 00 00 00 00 00 00 00 00 00 00 00 00 00 00 00 00 00 00 42 0B 33 33 00 00 00 00 41 D3 33 33 00 00 00 00 41 06 66 66 44 3E F3 33 42 F7 33 33 43 9F E6 66 00 00 00 00 43 9F 1C 5C
write:1A 03 01 0F 00 08 76 18
write:1B 03 00 38 00 34 C7 EA
write:1B 03 07 CF 00 78 76 99
write:1B 03 01 0F 00 08 77 C9
write:1C 03 00 38 00 34 C6 5D
write:1C 03 07 CF 00 78 77 2E
write:1C 03 01 0F 00 08 76 7E
write:1D 03 00 38 00 34 C7 8C
write:1D 03 07 CF 00 78 76 FF
write:1D 03 01 0F 00 08 77 AF
write:1E 03 00 38 00 34 C7 BF
write:1E 03 07 CF 00 78 76 CC
write:1E 03 01 0F 00 08 77 9C
write:1F 03 00 38 00 34 C6 6E
write:1F 03 07 CF 00 78 77 1D
write:1F 03 01 0F 00 08 76 4D
write:20 03 00 38 00 34 C3 61
write:20 03 07 CF 00 78 72 12
write:20 03 01 0F 00 08 73 42
write:0A 03 00 38 00 34 C4 AB
write:0A 03 07 CF 00 78 75 D8
write:0A 03 01 0F 00 08 74 88
write:0B 03 00 38 00 34 C5 7A
write:0B 03 07 CF 00 78 74 09
write:0B 03 01 0F 00 08 75 59
write:0C 03 00 38 00 34 C4 CD
write:0C 03 07 CF 00 78 75 BE
write:0C 03 01 0F 00 08 74 EE
write:0D 03 00 38 00 34 C5 1C
write:0D 03 07 CF 00 78 74 6F
write:0D 03 01 0F 00 08 75 3F
write:1A 03 00 38 00 34 C6 3B
write:1A 03 07 CF 00 78 77 48
write:1A 03 01 0F 00 08 76 18
write:1B 03 00 38 00 34 C7 EA
write:1B 03 07 CF 00 78 76 99
write:1B 03 01 0F 00 08 77 C9
write:1C 03 00 38 00 34 C6 5D
write:1C 03 07 CF 00 78 77 2E
write:1C 03 01 0F 00 08 76 7E
write:1D 03 00 38 00 34 C7 8C
write:1D 03 07 CF 00 78 76 FF
write:1D 03 01 0F 00 08 77 AF
write:1E 03 00 38 00 34 C7 BF
write:1E 03 07 CF 00 78 76 CC
write:1E 03 01 0F 00 08 77 9C
write:1F 03 00 38 00 34 C6 6E
write:1F 03 07 CF 00 78 77 1D

err2222: read tcp 172.16.246.153:6002->124.160.213.101:13314: read: connection timed out
write:1F 03 01 0F 00 08 76 4D
write err: write tcp 172.16.246.153:6002->124.160.213.101:13314: use of closed network connection
received messag ?->? 
 124.160.213.159:44217 172.16.246.153:6002
write:0A 03 00 38 00 34 C4 AB
77 77 77
heart:77 77 77 2E 75 73 72 2E 63 6E
write:0A 03 07 CF 00 78 75 D8
write:0A 03 01 0F 00 08 74 88
write:0B 03 00 38 00 34 C5 7A
write:0B 03 07 CF 00 78 74 09
write:0B 03 01 0F 00 08 75 59
write:0C 03 00 38 00 34 C4 CD
write:0C 03 07 CF 00 78 75 BE
write:0C 03 01 0F 00 08 74 EE
write:0D 03 00 38 00 34 C5 1C
write:0D 03 07 CF 00 78 74 6F
write:0D 03 01 0F 00 08 75 3F
write:1A 03 00 38 00 34 C6 3B
write:1A 03 07 CF 00 78 77 48
write:1A 03 01 0F 00 08 76 18
write:1B 03 00 38 00 34 C7 EA
write:1B 03 07 CF 00 78 76 99
write:1B 03 01 0F 00 08 77 C9
write:1C 03 00 38 00 34 C6 5D
write:1C 03 07 CF 00 78 77 2E
write:1C 03 01 0F 00 08 76 7E
write:1D 03 00 38 00 34 C7 8C
write:1D 03 07 CF 00 78 76 FF
write:1D 03 01 0F 00 08 77 AF
write:1E 03 00 38 00 34 C7 BF
write:1E 03 07 CF 00 78 76 CC
write:1E 03 01 0F 00 08 77 9C
write:1F 03 00 38 00 34 C6 6E
write:1F 03 07 CF 00 78 77 1D
write:1F 03 01 0F 00 08 76 4D
write:20 03 00 38 00 34 C3 61
write:20 03 07 CF 00 78 72 12
write:20 03 01 0F 00 08 73 42
write:0A 03 00 38 00 34 C4 AB
write:0A 03 07 CF 00 78 75 D8
write:0A 03 01 0F 00 08 74 88
write:0B 03 00 38 00 34 C5 7A
write:0B 03 07 CF 00 78 74 09
write:0B 03 01 0F 00 08 75 59
write:0C 03 00 38 00 34 C4 CD
write:0C 03 07 CF 00 78 75 BE
write:0C 03 01 0F 00 08 74 EE
write:0D 03 00 38 00 34 C5 1C
write:0D 03 07 CF 00 78 74 6F
write:0D 03 01 0F 00 08 75 3F
write:1A 03 00 38 00 34 C6 3B
write:1A 03 07 CF 00 78 77 48
write:1A 03 01 0F 00 08 76 18
write:1B 03 00 38 00 34 C7 EA
write:1B 03 07 CF 00 78 76 99
write:1B 03 01 0F 00 08 77 C9

err2222: read tcp 172.16.246.153:6002->124.160.213.159:44217: read: connection timed out
write:1C 03 00 38 00 34 C6 5D
write err: write tcp 172.16.246.153:6002->124.160.213.159:44217: use of closed network connection
received messag ?->? 
 124.160.213.94:21620 172.16.246.153:6002
write:0A 03 00 38 00 34 C4 AB
77 77 77
heart:77 77 77 2E 75 73 72 2E 63 6E
write:0A 03 07 CF 00 78 75 D8
77 77 77
heart:77 77 77 2E 75 73 72 2E 63 6E
write:0A 03 01 0F 00 08 74 88
write:0B 03 00 38 00 34 C5 7A
77 77 77
heart:77 77 77 2E 75 73 72 2E 63 6E
write:0B 03 07 CF 00 78 74 09
77 77 77
heart:77 77 77 2E 75 73 72 2E 63 6E
write:0B 03 01 0F 00 08 75 59
write:0C 03 00 38 00 34 C4 CD
77 77 77
heart:77 77 77 2E 75 73 72 2E 63 6E
write:0C 03 07 CF 00 78 75 BE
write:0C 03 01 0F 00 08 74 EE
write:0D 03 00 38 00 34 C5 1C
write:0D 03 07 CF 00 78 74 6F
write:0D 03 01 0F 00 08 75 3F
write:1A 03 00 38 00 34 C6 3B
write:1A 03 07 CF 00 78 77 48
write:1A 03 01 0F 00 08 76 18
write:1B 03 00 38 00 34 C7 EA
write:1B 03 07 CF 00 78 76 99
write:1B 03 01 0F 00 08 77 C9
write:1C 03 00 38 00 34 C6 5D
write:1C 03 07 CF 00 78 77 2E
write:1C 03 01 0F 00 08 76 7E
write:1D 03 00 38 00 34 C7 8C
write:1D 03 07 CF 00 78 76 FF
write:1D 03 01 0F 00 08 77 AF
write:1E 03 00 38 00 34 C7 BF
write:1E 03 07 CF 00 78 76 CC
write:1E 03 01 0F 00 08 77 9C
write:1F 03 00 38 00 34 C6 6E
write:1F 03 07 CF 00 78 77 1D
write:1F 03 01 0F 00 08 76 4D
write:20 03 00 38 00 34 C3 61
write:20 03 07 CF 00 78 72 12
write:20 03 01 0F 00 08 73 42
write:0A 03 00 38 00 34 C4 AB
write:0A 03 07 CF 00 78 75 D8
write:0A 03 01 0F 00 08 74 88
write:0B 03 00 38 00 34 C5 7A
write:0B 03 07 CF 00 78 74 09
write:0B 03 01 0F 00 08 75 59
write:0C 03 00 38 00 34 C4 CD
write:0C 03 07 CF 00 78 75 BE
write:0C 03 01 0F 00 08 74 EE
write:0D 03 00 38 00 34 C5 1C
write:0D 03 07 CF 00 78 74 6F
write:0D 03 01 0F 00 08 75 3F
write:1A 03 00 38 00 34 C6 3B
write:1A 03 07 CF 00 78 77 48
write:1A 03 01 0F 00 08 76 18
write:1B 03 00 38 00 34 C7 EA
write:1B 03 07 CF 00 78 76 99
write:1B 03 01 0F 00 08 77 C9
write:1C 03 00 38 00 34 C6 5D
write:1C 03 07 CF 00 78 77 2E
write:1C 03 01 0F 00 08 76 7E
write:1D 03 00 38 00 34 C7 8C
write:1D 03 07 CF 00 78 76 FF
write:1D 03 01 0F 00 08 77 AF

err2222: read tcp 172.16.246.153:6002->124.160.213.94:21620: read: connection timed out
write:1E 03 00 38 00 34 C7 BF
write err: write tcp 172.16.246.153:6002->124.160.213.94:21620: use of closed network connection
received messag ?->? 
 124.160.213.114:63892 172.16.246.153:6002
write:0A 03 00 38 00 34 C4 AB
77 77 77
heart:77 77 77 2E 75 73 72 2E 63 6E
write:0A 03 07 CF 00 78 75 D8
write:0A 03 01 0F 00 08 74 88
write:0B 03 00 38 00 34 C5 7A
write:0B 03 07 CF 00 78 74 09
write:0B 03 01 0F 00 08 75 59
write:0C 03 00 38 00 34 C4 CD
write:0C 03 07 CF 00 78 75 BE
write:0C 03 01 0F 00 08 74 EE
write:0D 03 00 38 00 34 C5 1C
write:0D 03 07 CF 00 78 74 6F
write:0D 03 01 0F 00 08 75 3F
write:1A 03 00 38 00 34 C6 3B
write:1A 03 07 CF 00 78 77 48
write:1A 03 01 0F 00 08 76 18
write:1B 03 00 38 00 34 C7 EA
write:1B 03 07 CF 00 78 76 99
write:1B 03 01 0F 00 08 77 C9
write:1C 03 00 38 00 34 C6 5D
write:1C 03 07 CF 00 78 77 2E
write:1C 03 01 0F 00 08 76 7E
write:1D 03 00 38 00 34 C7 8C
write:1D 03 07 CF 00 78 76 FF
write:1D 03 01 0F 00 08 77 AF
write:1E 03 00 38 00 34 C7 BF
write:1E 03 07 CF 00 78 76 CC
write:1E 03 01 0F 00 08 77 9C
write:1F 03 00 38 00 34 C6 6E
write:1F 03 07 CF 00 78 77 1D
write:1F 03 01 0F 00 08 76 4D
write:20 03 00 38 00 34 C3 61
write:20 03 07 CF 00 78 72 12
write:20 03 01 0F 00 08 73 42
write:0A 03 00 38 00 34 C4 AB
write:0A 03 07 CF 00 78 75 D8
write:0A 03 01 0F 00 08 74 88
write:0B 03 00 38 00 34 C5 7A
write:0B 03 07 CF 00 78 74 09
write:0B 03 01 0F 00 08 75 59
write:0C 03 00 38 00 34 C4 CD
write:0C 03 07 CF 00 78 75 BE
write:0C 03 01 0F 00 08 74 EE
write:0D 03 00 38 00 34 C5 1C
write:0D 03 07 CF 00 78 74 6F
write:0D 03 01 0F 00 08 75 3F
write:1A 03 00 38 00 34 C6 3B
write:1A 03 07 CF 00 78 77 48
write:1A 03 01 0F 00 08 76 18
write:1B 03 00 38 00 34 C7 EA
write:1B 03 07 CF 00 78 76 99
write:1B 03 01 0F 00 08 77 C9

err2222: read tcp 172.16.246.153:6002->124.160.213.114:63892: read: connection timed out
write:1C 03 00 38 00 34 C6 5D
write err: write tcp 172.16.246.153:6002->124.160.213.114:63892: use of closed network connection
received messag ?->? 
 124.160.213.201:40670 172.16.246.153:6002
write:0A 03 00 38 00 34 C4 AB
77 77 77
heart:77 77 77 2E 75 73 72 2E 63 6E
write:0A 03 07 CF 00 78 75 D8
write:0A 03 01 0F 00 08 74 88
write:0B 03 00 38 00 34 C5 7A
write:0B 03 07 CF 00 78 74 09
write:0B 03 01 0F 00 08 75 59
write:0C 03 00 38 00 34 C4 CD
write:0C 03 07 CF 00 78 75 BE
write:0C 03 01 0F 00 08 74 EE
write:0D 03 00 38 00 34 C5 1C
write:0D 03 07 CF 00 78 74 6F
write:0D 03 01 0F 00 08 75 3F
write:1A 03 00 38 00 34 C6 3B
write:1A 03 07 CF 00 78 77 48
write:1A 03 01 0F 00 08 76 18
write:1B 03 00 38 00 34 C7 EA
write:1B 03 07 CF 00 78 76 99
write:1B 03 01 0F 00 08 77 C9
write:1C 03 00 38 00 34 C6 5D
write:1C 03 07 CF 00 78 77 2E
write:1C 03 01 0F 00 08 76 7E
write:1D 03 00 38 00 34 C7 8C
write:1D 03 07 CF 00 78 76 FF
write:1D 03 01 0F 00 08 77 AF
write:1E 03 00 38 00 34 C7 BF
write:1E 03 07 CF 00 78 76 CC
write:1E 03 01 0F 00 08 77 9C
write:1F 03 00 38 00 34 C6 6E
write:1F 03 07 CF 00 78 77 1D
write:1F 03 01 0F 00 08 76 4D
write:20 03 00 38 00 34 C3 61
write:20 03 07 CF 00 78 72 12
write:20 03 01 0F 00 08 73 42
write:0A 03 00 38 00 34 C4 AB
write:0A 03 07 CF 00 78 75 D8
write:0A 03 01 0F 00 08 74 88
write:0B 03 00 38 00 34 C5 7A
write:0B 03 07 CF 00 78 74 09
write:0B 03 01 0F 00 08 75 59
write:0C 03 00 38 00 34 C4 CD
write:0C 03 07 CF 00 78 75 BE
write:0C 03 01 0F 00 08 74 EE
write:0D 03 00 38 00 34 C5 1C
write:0D 03 07 CF 00 78 74 6F
write:0D 03 01 0F 00 08 75 3F
write:1A 03 00 38 00 34 C6 3B
write:1A 03 07 CF 00 78 77 48
write:1A 03 01 0F 00 08 76 18
write:1B 03 00 38 00 34 C7 EA
write:1B 03 07 CF 00 78 76 99
write:1B 03 01 0F 00 08 77 C9

err2222: read tcp 172.16.246.153:6002->124.160.213.201:40670: read: connection timed out
write:1C 03 00 38 00 34 C6 5D
write err: write tcp 172.16.246.153:6002->124.160.213.201:40670: use of closed network connection
received messag ?->? 
 124.160.213.177:17744 172.16.246.153:6002
write:0A 03 00 38 00 34 C4 AB
77 77 77
heart:77 77 77 2E 75 73 72 2E 63 6E
write:0A 03 07 CF 00 78 75 D8
77 77 77
heart:77 77 77 2E 75 73 72 2E 63 6E
write:0A 03 01 0F 00 08 74 88
write:0B 03 00 38 00 34 C5 7A
77 77 77
heart:77 77 77 2E 75 73 72 2E 63 6E
write:0B 03 07 CF 00 78 74 09
77 77 77
heart:77 77 77 2E 75 73 72 2E 63 6E
write:0B 03 01 0F 00 08 75 59
write:0C 03 00 38 00 34 C4 CD
77 77 77
heart:77 77 77 2E 75 73 72 2E 63 6E
write:0C 03 07 CF 00 78 75 BE
77 77 77
heart:77 77 77 2E 75 73 72 2E 63 6E
write:0C 03 01 0F 00 08 74 EE
write:0D 03 00 38 00 34 C5 1C
77 77 77
heart:77 77 77 2E 75 73 72 2E 63 6E
write:0D 03 07 CF 00 78 74 6F
77 77 77
heart:77 77 77 2E 75 73 72 2E 63 6E
write:0D 03 01 0F 00 08 75 3F
write:1A 03 00 38 00 34 C6 3B
77 77 77
heart:77 77 77 2E 75 73 72 2E 63 6E
1A 03 68
2643 6F 14 BC 43 6F FD 2F 43 6F 75 C3 43 CF 5E 98 43 CF 8B 02 43 CF 27 2B 40 40 00 00 40 75 C2 8F 40 99 99 9A 43 B4 00 00 43 F0 00 00 44 34 00 00 44 C3 00 00 43 B4 00 00 43 F0 00 00 44 34 00 00 44 C3 00 00 44 34 00 00 44 70 00 00 44 96 00 00 45 0E 80 00 3F 01 89 37 3F 17 4B C7 3F 14 BC 6A 3F 32 F1 AA 42 47 C8 16
write:1A 03 07 CF 00 78 77 48
1A 03 F0
26totalsize 240
44 F0 13 33 43 53 CC CD 44 87 13 33 00 00 00 00 44 1C E6 66 00 00 00 00 00 00 00 00 00 00 00 00 00 00 00 00 00 00 00 00 42 9A CC CD 40 99 99 9A 42 20 CC CD 00 00 00 00 41 FE 66 66 44 6B 59 9A 43 19 00 00 43 CA 80 00 00 00 00 00 43 BF 66 66 44 AC E0 00 43 0E CC CD 44 4A 33 33 00 00 00 00 43 D7 19 9A 00 00 00 00 00 00 00 00 00 00 00 00 00 00 00 00 00 00 00 00 40 C0 00 00 3F E6 66 66 40 19 99 9A 00 00 00 00 3F 99 99 9A 44 70 00 00 43 11 33 33 43 D5 4C CD 00 00 00 00 43 C1 CC CD 44 E4 00 00 42 EE CC CD 44 94 20 00 00 00 00 00 44 01 E6 66 00 00 00 00 00 00 00 00 00 00 00 00 00 00 00 00 00 00 00 00 42 0B 33 33 00 00 00 00 41 D3 33 33 00 00 00 00 41 06 66 66 44 3E F3 33 42 F7 33 33 43 9F E6 66 00 00 00 00 43 9F 5E 21
write:1A 03 01 0F 00 08 76 18
1A 03 10
2600 02 8C 18 00 00 00 00 00 00 3E 05 00 00 F0 DA
43 6F 14 BC
239.081
43 6F FD 2F
239.989
43 6F 75 C3
239.46
43 CF 5E 98
414.739
43 CF 8B 02
415.086
43 CF 27 2B
414.306
40 40 00 00
3
40 75 C2 8F
3.84
40 99 99 9A
4.8
43 B4 00 00
360
43 F0 00 00
480
44 34 00 00
720
44 C3 00 00
1560
43 B4 00 00
360
43 F0 00 00
480
44 34 00 00
720
44 C3 00 00
1560
44 34 00 00
720
44 70 00 00
960
44 96 00 00
1200
45 0E 80 00
2280
3F 01 89 37
0.506
3F 17 4B C7
0.591
3F 14 BC 6A
0.581
3F 32 F1 AA
0.699
42 47 C8 16
49.945396
44 F0 13 33
1920.6
43 53 CC CD
211.8
44 87 13 33
1080.6
00 00 00 00
0
44 1C E6 66
627.6
00 00 00 00
0
00 00 00 00
0
00 00 00 00
0
00 00 00 00
0
00 00 00 00
0
42 9A CC CD
77.4
40 99 99 9A
4.8
42 20 CC CD
40.2
00 00 00 00
0
41 FE 66 66
31.8
44 6B 59 9A
941.4
43 19 00 00
153
43 CA 80 00
405
00 00 00 00
0
43 BF 66 66
382.8
44 AC E0 00
1383
43 0E CC CD
142.8
44 4A 33 33
808.8
00 00 00 00
0
43 D7 19 9A
430.2
00 00 00 00
0
00 00 00 00
0
00 00 00 00
0
00 00 00 00
0
00 00 00 00
0
40 C0 00 00
6
3F E6 66 66
1.8
40 19 99 9A
2.4
00 00 00 00
0
3F 99 99 9A
1.2
44 70 00 00
960
43 11 33 33
145.2
43 D5 4C CD
426.6
00 00 00 00
0
43 C1 CC CD
387.6
44 E4 00 00
1824
42 EE CC CD
119.4
44 94 20 00
1185
00 00 00 00
0
44 01 E6 66
519.6
00 00 00 00
0
00 00 00 00
0
00 00 00 00
0
00 00 00 00
0
00 00 00 00
0
42 0B 33 33
34.8
00 00 00 00
0
41 D3 33 33
26.4
00 00 00 00
0
41 06 66 66
8.4
44 3E F3 33
763.8
42 F7 33 33
123.6
43 9F E6 66
319.8
00 00 00 00
0
43 9F 5E 21
318.73538
00 02 8C 18
166936
00 00 00 00
0
00 00 3E 05
15877
00 00 F0 DA
61658
239.081239.989239.46414.739415.086414.30633.844.836048072015603604807201560720960120022800.5060.5910.5810.69949.9453961920.6211.81080.60627.60000077.44.840.2031.8941.41534050382.81383142.8808.80430.20000061.82.401.2960145.2426.60387.61824119.411850519.60000034.8026.408.4763.8123.6319.80318.735382620171128003222166.936015.87761.658insert into tbl_power_info_v2(P_A_DIANYA,P_B_DIANYA,P_C_DIANYA,P_UAB_XIANDIANYA,P_UBC_XIANDIANYA,P_UCA_XIANDIANYA,P_A_DIANLIU,P_B_DIANLIU,P_C_DIANLIU,P_A_YGGL,P_B_YGGL,P_C_YGGL,P_HXYGGL,P_A_WGGL,P_B_WGGL,P_C_WGGL,P_HXWGGL,P_A_SZGL,P_B_SZGL,P_C_SZGL,P_HXSZGL,P_A_GLYS,P_B_GLYS,P_C_GLYS,P_HXGLYS,P_DWPL,P_BY_KwhZ,P_BY_KwhJ,P_BY_KwhF,P_BY_KwhP,P_BY_KwhG,P_BY_HKwhZ,P_BY_HKwhJ,P_BY_HKwhF,P_BY_HKwhP,P_BY_HKwhG, P_BY_KvarhZ,P_BY_KvarhJ,P_BY_KvarhF,P_BY_KvarhP,P_BY_KvarhG, P_BY_HKvarhZ,P_BY_HKvarhJ,P_BY_HKvarhF,P_BY_HKvarhP,P_BY_HKvarhG, P_SY_KwhZ,P_SY_KwhJ,P_SY_KwhF,P_SY_KwhP,P_SY_KwhG, P_SY_HKwhZ,P_SY_HKwhJ,P_SY_HKwhF,P_SY_HKwhP,P_SY_HKwhG, P_SY_KvarhZ,P_SY_KvarhJ,P_SY_KvarhF,P_SY_KvarhP,P_SY_KvarhG, P_SY_HKvarhZ,P_SY_HKvarhJ,P_SY_HKvarhF,P_SY_HKvarhP,P_SY_HKvarhG, P_SSY_KwhZ,P_SSY_KwhJ,P_SSY_KwhF,P_SSY_KwhP,P_SSY_KwhG, P_SSY_HKwhZ,P_SSY_HKwhJ,P_SSY_HKwhF,P_SSY_HKwhP,P_SSY_HKwhG, P_SSY_KvarhZ,P_SSY_KvarhJ,P_SSY_KvarhF,P_SSY_KvarhP,P_SSY_KvarhG, P_SSY_HKvarhZ,P_SSY_HKvarhJ,P_SSY_HKvarhF,P_SSY_HKvarhP,P_SSY_HKvarhG,P_CODE,P_TIME,P_ZXYGDN,P_FXYGDN,P_ZXWGDN,P_FXWGDN)values(239.081,239.989,239.46,414.739,415.086,414.306,3,3.84,4.8,360,480,720,1560,360,480,720,1560,720,960,1200,2280,0.506,0.591,0.581,0.699,49.945396,1920.6,211.8,1080.6,0,627.6,0,0,0,0,0,77.4,4.8,40.2,0,31.8,941.4,153,405,0,382.8,1383,142.8,808.8,0,430.2,0,0,0,0,0,6,1.8,2.4,0,1.2,960,145.2,426.6,0,387.6,1824,119.4,1185,0,519.6,0,0,0,0,0,34.8,0,26.4,0,8.4,763.8,123.6,319.8,0,318.73538,26,20171128003222,166.936,0,15.877,61.658)
写入成功读取完毕一个
write:1B 03 00 38 00 34 C7 EA
1B 03 68
2743 6F 1A A0 43 6F F7 4C 43 6F 80 00 43 CF 69 BA 43 CF 96 04 43 CF 3D 50 00 00 00 00 00 00 00 00 00 00 00 00 00 00 00 00 00 00 00 00 00 00 00 00 00 00 00 00 00 00 00 00 00 00 00 00 00 00 00 00 00 00 00 00 00 00 00 00 00 00 00 00 00 00 00 00 00 00 00 00 00 00 00 00 00 00 00 00 00 00 00 00 00 00 00 00 00 00 00 00
00 00 00
heart:00 00 00 00 00 00 00 00 00 00 00 00 43 B4 00 00 43 B4 00 00 00 00 00 00 00 00 00 00 43 70 00 00 00 00 00 00 00 00 00 00 00 00 00 00 43 B4 00 00 43 B4 00 00 00 00 00 00 00 00 00 00 3F 51 A9 FC 3F 6C 49 BA 42 48 06 FB
write:1B 03 07 CF 00 78 76 99
1B 03 F0
27totalsize 240
45 1F 99 9A 41 E1 99 9A 44 F8 2C CD 00 00 00 00 44 07 00 00 00 00 00 00 00 00 00 00 00 00 00 00 00 00 00 00 00 00 00 00 44 40 99 9A 41 9E 66 66 44 07 26 66 00 00 00 00 43 52 00 00 00 00 00 00 00 00 00 00 00 00 00 00 00 00 00 00 00 00 00 00 45 10 D3 33 41 F9 99 9A 44 E5 33 33 00 00 00 00 43 E1 E6 66 00 00 00 00 00 00 00 00 00 00 00 00 00 00 00 00 00 00 00 00 44 24 40 00 41 86 66 66 43 E5 CC CD 00 00 00 00 43 34 99 9A 00 00 00 00 00 00 00 00 00 00 00 00 00 00 00 00 00 00 00 00 45 1D 76 66 42 4E 66 66 44 F5 19 9A 00 00 00 00 43 FD 33 33 00 00 00 00 00 00 00 00 00 00 00 00 00 00 00 00 00 00 00 00 44 73 99 9A 42 34 00 00 44 1E 8C CD 00 00 00 00 43 93 4C CD 00 00 00 00 00 00 00 00 00 00 00 00 00 00 00 00 00 00 88 3D
write:1B 03 01 0F 00 08 77 C9
1B 03 10
2700 02 37 E9 00 00 00 00 00 00 DB BF 00 00 7B D5
43 6F 1A A0
239.104
43 6F F7 4C
239.966
43 6F 80 00
239.5
43 CF 69 BA
414.826
43 CF 96 04
415.172
43 CF 3D 50
414.479
00 00 00 00
0
00 00 00 00
0
00 00 00 00
0
00 00 00 00
0
00 00 00 00
0
00 00 00 00
0
00 00 00 00
0
00 00 00 00
0
00 00 00 00
0
00 00 00 00
0
00 00 00 00
0
00 00 00 00
0
00 00 00 00
0
00 00 00 00
0
00 00 00 00
0
00 00 00 00
0
00 00 00 00
0
00 00 00 00
0
00 00 00 00
0
00 00 00 00
0
45 1F 99 9A
2553.6
41 E1 99 9A
28.2
44 F8 2C CD
1985.4
00 00 00 00
0
44 07 00 00
540
00 00 00 00
0
00 00 00 00
0
00 00 00 00
0
00 00 00 00
0
00 00 00 00
0
44 40 99 9A
770.4
41 9E 66 66
19.8
44 07 26 66
540.6
00 00 00 00
0
43 52 00 00
210
00 00 00 00
0
00 00 00 00
0
00 00 00 00
0
00 00 00 00
0
00 00 00 00
0
45 10 D3 33
2317.2
41 F9 99 9A
31.2
44 E5 33 33
1833.6
00 00 00 00
0
43 E1 E6 66
451.8
00 00 00 00
0
00 00 00 00
0
00 00 00 00
0
00 00 00 00
0
00 00 00 00
0
44 24 40 00
657
41 86 66 66
16.8
43 E5 CC CD
459.6
00 00 00 00
0
43 34 99 9A
180.6
00 00 00 00
0
00 00 00 00
0
00 00 00 00
0
00 00 00 00
0
00 00 00 00
0
45 1D 76 66
2519.4
42 4E 66 66
51.6
44 F5 19 9A
1960.8
00 00 00 00
0
43 FD 33 33
506.4
00 00 00 00
0
00 00 00 00
0
00 00 00 00
0
00 00 00 00
0
00 00 00 00
0
44 73 99 9A
974.4
42 34 00 00
45
44 1E 8C CD
634.2
00 00 00 00
0
43 93 4C CD
294.6
00 00 00 00
0
00 00 00 00
0
00 00 00 00
0
00 00 00 00
0
00 00 88 3D
4.8873e-41
00 02 37 E9
145385
00 00 00 00
0
00 00 DB BF
56255
00 00 7B D5
31701
239.104239.966239.5414.826415.172414.479000000000000000000002553.628.21985.4054000000770.419.8540.60210000002317.231.21833.60451.80000065716.8459.60180.6000002519.451.61960.80506.400000974.445634.20294.600004.8873e-412720171128003323145.385056.25531.701insert into tbl_power_info_v2(P_A_DIANYA,P_B_DIANYA,P_C_DIANYA,P_UAB_XIANDIANYA,P_UBC_XIANDIANYA,P_UCA_XIANDIANYA,P_A_DIANLIU,P_B_DIANLIU,P_C_DIANLIU,P_A_YGGL,P_B_YGGL,P_C_YGGL,P_HXYGGL,P_A_WGGL,P_B_WGGL,P_C_WGGL,P_HXWGGL,P_A_SZGL,P_B_SZGL,P_C_SZGL,P_HXSZGL,P_A_GLYS,P_B_GLYS,P_C_GLYS,P_HXGLYS,P_DWPL,P_BY_KwhZ,P_BY_KwhJ,P_BY_KwhF,P_BY_KwhP,P_BY_KwhG,P_BY_HKwhZ,P_BY_HKwhJ,P_BY_HKwhF,P_BY_HKwhP,P_BY_HKwhG, P_BY_KvarhZ,P_BY_KvarhJ,P_BY_KvarhF,P_BY_KvarhP,P_BY_KvarhG, P_BY_HKvarhZ,P_BY_HKvarhJ,P_BY_HKvarhF,P_BY_HKvarhP,P_BY_HKvarhG, P_SY_KwhZ,P_SY_KwhJ,P_SY_KwhF,P_SY_KwhP,P_SY_KwhG, P_SY_HKwhZ,P_SY_HKwhJ,P_SY_HKwhF,P_SY_HKwhP,P_SY_HKwhG, P_SY_KvarhZ,P_SY_KvarhJ,P_SY_KvarhF,P_SY_KvarhP,P_SY_KvarhG, P_SY_HKvarhZ,P_SY_HKvarhJ,P_SY_HKvarhF,P_SY_HKvarhP,P_SY_HKvarhG, P_SSY_KwhZ,P_SSY_KwhJ,P_SSY_KwhF,P_SSY_KwhP,P_SSY_KwhG, P_SSY_HKwhZ,P_SSY_HKwhJ,P_SSY_HKwhF,P_SSY_HKwhP,P_SSY_HKwhG, P_SSY_KvarhZ,P_SSY_KvarhJ,P_SSY_KvarhF,P_SSY_KvarhP,P_SSY_KvarhG, P_SSY_HKvarhZ,P_SSY_HKvarhJ,P_SSY_HKvarhF,P_SSY_HKvarhP,P_SSY_HKvarhG,P_CODE,P_TIME,P_ZXYGDN,P_FXYGDN,P_ZXWGDN,P_FXWGDN)values(239.104,239.966,239.5,414.826,415.172,414.479,0,0,0,0,0,0,0,0,0,0,0,0,0,0,0,0,0,0,0,0,2553.6,28.2,1985.4,0,540,0,0,0,0,0,770.4,19.8,540.6,0,210,0,0,0,0,0,2317.2,31.2,1833.6,0,451.8,0,0,0,0,0,657,16.8,459.6,0,180.6,0,0,0,0,0,2519.4,51.6,1960.8,0,506.4,0,0,0,0,0,974.4,45,634.2,0,294.6,0,0,0,0,4.8873e-41,27,20171128003323,145.385,0,56.255,31.701)
写入成功读取完毕一个
write:1C 03 00 38 00 34 C6 5D
77 77 77
heart:77 77 77 2E 75 73 72 2E 63 6E
write:1C 03 07 CF 00 78 77 2E
write:1C 03 01 0F 00 08 76 7E
77 77 77
heart:77 77 77 2E 75 73 72 2E 63 6E
write:1D 03 00 38 00 34 C7 8C
77 77 77
heart:77 77 77 2E 75 73 72 2E 63 6E
write:1D 03 07 CF 00 78 76 FF
write:1D 03 01 0F 00 08 77 AF
77 77 77
heart:77 77 77 2E 75 73 72 2E 63 6E
write:1E 03 00 38 00 34 C7 BF
77 77 77
heart:77 77 77 2E 75 73 72 2E 63 6E
write:1E 03 07 CF 00 78 76 CC
write:1E 03 01 0F 00 08 77 9C
77 77 77
heart:77 77 77 2E 75 73 72 2E 63 6E
write:1F 03 00 38 00 34 C6 6E
77 77 77
heart:77 77 77 2E 75 73 72 2E 63 6E
write:1F 03 07 CF 00 78 77 1D
write:1F 03 01 0F 00 08 76 4D
77 77 77
heart:77 77 77 2E 75 73 72 2E 63 6E
write:20 03 00 38 00 34 C3 61
write:20 03 07 CF 00 78 72 12
write:20 03 01 0F 00 08 73 42
77 77 77
heart:77 77 77 2E 75 73 72 2E 63 6E 77 77 77 2E 75 73 72 2E 63 6E
write:0A 03 00 38 00 34 C4 AB
77 77 77
heart:77 77 77 2E 75 73 72 2E 63 6E
write:0A 03 07 CF 00 78 75 D8
77 77 77
heart:77 77 77 2E 75 73 72 2E 63 6E
write:0A 03 01 0F 00 08 74 88
write:0B 03 00 38 00 34 C5 7A
77 77 77
heart:77 77 77 2E 75 73 72 2E 63 6E
write:0B 03 07 CF 00 78 74 09
write:0B 03 01 0F 00 08 75 59
write:0C 03 00 38 00 34 C4 CD
write:0C 03 07 CF 00 78 75 BE
write:0C 03 01 0F 00 08 74 EE
write:0D 03 00 38 00 34 C5 1C
write:0D 03 07 CF 00 78 74 6F
write:0D 03 01 0F 00 08 75 3F
write:1A 03 00 38 00 34 C6 3B
77 77 77
heart:77 77 77 2E 75 73 72 2E 63 6E
77 77 77
heart:77 77 77 2E 75 73 72 2E 63 6E
77 77 77
heart:77 77 77 2E 75 73 72 2E 63 6E 77 77 77 2E 75 73 72 2E 63 6E 77 77 77 2E 75 73 72 2E 63 6E 1A 03 68 00 00 43 6F 91 27 43 6F CC 4A 43 6F 64 DD 43 CF 7F DF 43 CF 69 BA 43 CF 53 75 40 40 00 00 40 75 C2 8F 40 99 99 9A 43 B4 00 00 43 F0 00 00 44 34 00 00 44 C3 00 00 43 B4 00 00 43 F0 00 00 44 34 00 00 44 C3 00 00 44 34 00 00 44 70 00 00 44 96 00 00 45 0E 80 00 3F 00 83 12 3F 16 45 A2 3F 13 B6 46 3F 32 2D 0E 42 48 CB 0E
write:1A 03 07 CF 00 78 77 48
1A 03 F0
26totalsize 240
44 F0 26 66 43 53 CC CD 44 87 13 33 00 00 00 00 44 1D 0C CD 00 00 00 00 00 00 00 00 00 00 00 00 00 00 00 00 00 00 00 00 42 9A CC CD 40 99 99 9A 42 20 CC CD 00 00 00 00 41 FE 66 66 44 6B 80 00 43 19 00 00 43 CA 80 00 00 00 00 00 43 BF 66 66 44 AC E0 00 43 0E CC CD 44 4A 33 33 00 00 00 00 43 D7 19 9A 00 00 00 00 00 00 00 00 00 00 00 00 00 00 00 00 00 00 00 00 40 C0 00 00 3F E6 66 66 40 19 99 9A 00 00 00 00 3F 99 99 9A 44 70 00 00 43 11 33 33 43 D5 4C CD 00 00 00 00 43 C1 CC CD 44 E4 00 00 42 EE CC CD 44 94 20 00 00 00 00 00 44 01 E6 66 00 00 00 00 00 00 00 00 00 00 00 00 00 00 00 00 00 00 00 00 42 0B 33 33 00 00 00 00 41 D3 33 33 00 00 00 00 41 06 66 66 44 3E F3 33 42 F7 33 33 43 9F E6 66 00 00 00 00 43 9F B9 AA
write:1A 03 01 0F 00 08 76 18
1A 03 10
2600 02 8C 1B 00 00 00 00 00 00 3E 05 00 00 FF 9E
write:1B 03 00 38 00 34 C7 EA
1B 03 68
2743 6F 80 42 43 6F C1 06 43 6F 4F 9E 43 CF 7F DF 43 CF 69 BA 43 CF 53 75 00 00 00 00 00 00 00 00 00 00 00 00 43 70 00 00 00 00 00 00 00 00 00 00 43 B4 00 00 43 70 00 00 00 00 00 00 00 00 00 00 43 70 00 00 43 B4 00 00 00 00 00 00 00 00 00 00 43 F0 00 00 3F 1F BE 77 00 00 00 00 00 00 00 00 3F 5A 9F BE 42 48 AD 4E
write:1B 03 07 CF 00 78 76 99
1B 03 F0
27totalsize 240
45 1F 99 9A 41 E1 99 9A 44 F8 2C CD 00 00 00 00 44 07 00 00 00 00 00 00 00 00 00 00 00 00 00 00 00 00 00 00 00 00 00 00 44 40 99 9A 41 9E 66 66 44 07 26 66 00 00 00 00 43 52 00 00 00 00 00 00 00 00 00 00 00 00 00 00 00 00 00 00 00 00 00 00 45 10 D3 33 41 F9 99 9A 44 E5 33 33 00 00 00 00 43 E1 E6 66 00 00 00 00 00 00 00 00 00 00 00 00 00 00 00 00 00 00 00 00 44 24 40 00 41 86 66 66 43 E5 CC CD 00 00 00 00 43 34 99 9A 00 00 00 00 00 00 00 00 00 00 00 00 00 00 00 00 00 00 00 00 45 1D 76 66 42 4E 66 66 44 F5 19 9A 00 00 00 00 43 FD 33 33 00 00 00 00 00 00 00 00 00 00 00 00 00 00 00 00 00 00 00 00 44 73 99 9A 42 34 00 00 44 1E 8C CD 00 00 00 00 43 93 4C CD 00 00 00 00 00 00 00 00 00 00 00 00 00 00 00 00 00 00 88 3D
write:1B 03 01 0F 00 08 77 C9
1B 03 10
2700 02 37 EA 00 00 00 00 00 00 DB BF 00 00 74 91
43 6F 80 42
239.501
43 6F C1 06
239.754
43 6F 4F 9E
239.311
43 CF 7F DF
414.999
43 CF 69 BA
414.826
43 CF 53 75
414.652
00 00 00 00
0
00 00 00 00
0
00 00 00 00
0
43 70 00 00
240
00 00 00 00
0
00 00 00 00
0
43 B4 00 00
360
43 70 00 00
240
00 00 00 00
0
00 00 00 00
0
43 70 00 00
240
43 B4 00 00
360
00 00 00 00
0
00 00 00 00
0
43 F0 00 00
480
3F 1F BE 77
0.624
00 00 00 00
0
00 00 00 00
0
3F 5A 9F BE
0.854
42 48 AD 4E
50.169243
45 1F 99 9A
2553.6
41 E1 99 9A
28.2
44 F8 2C CD
1985.4
00 00 00 00
0
44 07 00 00
540
00 00 00 00
0
00 00 00 00
0
00 00 00 00
0
00 00 00 00
0
00 00 00 00
0
44 40 99 9A
770.4
41 9E 66 66
19.8
44 07 26 66
540.6
00 00 00 00
0
43 52 00 00
210
00 00 00 00
0
00 00 00 00
0
00 00 00 00
0
00 00 00 00
0
00 00 00 00
0
45 10 D3 33
2317.2
41 F9 99 9A
31.2
44 E5 33 33
1833.6
00 00 00 00
0
43 E1 E6 66
451.8
00 00 00 00
0
00 00 00 00
0
00 00 00 00
0
00 00 00 00
0
00 00 00 00
0
44 24 40 00
657
41 86 66 66
16.8
43 E5 CC CD
459.6
00 00 00 00
0
43 34 99 9A
180.6
00 00 00 00
0
00 00 00 00
0
00 00 00 00
0
00 00 00 00
0
00 00 00 00
0
45 1D 76 66
2519.4
42 4E 66 66
51.6
44 F5 19 9A
1960.8
00 00 00 00
0
43 FD 33 33
506.4
00 00 00 00
0
00 00 00 00
0
00 00 00 00
0
00 00 00 00
0
00 00 00 00
0
44 73 99 9A
974.4
42 34 00 00
45
44 1E 8C CD
634.2
00 00 00 00
0
43 93 4C CD
294.6
00 00 00 00
0
00 00 00 00
0
00 00 00 00
0
00 00 00 00
0
00 00 88 3D
4.8873e-41
00 02 37 EA
145386
00 00 00 00
0
00 00 DB BF
56255
00 00 74 91
29841
239.501239.754239.311414.999414.826414.6520002400036024000240360004800.624000.85450.1692432553.628.21985.4054000000770.419.8540.60210000002317.231.21833.60451.80000065716.8459.60180.6000002519.451.61960.80506.400000974.445634.20294.600004.8873e-412720171128004427145.386056.25529.841insert into tbl_power_info_v2(P_A_DIANYA,P_B_DIANYA,P_C_DIANYA,P_UAB_XIANDIANYA,P_UBC_XIANDIANYA,P_UCA_XIANDIANYA,P_A_DIANLIU,P_B_DIANLIU,P_C_DIANLIU,P_A_YGGL,P_B_YGGL,P_C_YGGL,P_HXYGGL,P_A_WGGL,P_B_WGGL,P_C_WGGL,P_HXWGGL,P_A_SZGL,P_B_SZGL,P_C_SZGL,P_HXSZGL,P_A_GLYS,P_B_GLYS,P_C_GLYS,P_HXGLYS,P_DWPL,P_BY_KwhZ,P_BY_KwhJ,P_BY_KwhF,P_BY_KwhP,P_BY_KwhG,P_BY_HKwhZ,P_BY_HKwhJ,P_BY_HKwhF,P_BY_HKwhP,P_BY_HKwhG, P_BY_KvarhZ,P_BY_KvarhJ,P_BY_KvarhF,P_BY_KvarhP,P_BY_KvarhG, P_BY_HKvarhZ,P_BY_HKvarhJ,P_BY_HKvarhF,P_BY_HKvarhP,P_BY_HKvarhG, P_SY_KwhZ,P_SY_KwhJ,P_SY_KwhF,P_SY_KwhP,P_SY_KwhG, P_SY_HKwhZ,P_SY_HKwhJ,P_SY_HKwhF,P_SY_HKwhP,P_SY_HKwhG, P_SY_KvarhZ,P_SY_KvarhJ,P_SY_KvarhF,P_SY_KvarhP,P_SY_KvarhG, P_SY_HKvarhZ,P_SY_HKvarhJ,P_SY_HKvarhF,P_SY_HKvarhP,P_SY_HKvarhG, P_SSY_KwhZ,P_SSY_KwhJ,P_SSY_KwhF,P_SSY_KwhP,P_SSY_KwhG, P_SSY_HKwhZ,P_SSY_HKwhJ,P_SSY_HKwhF,P_SSY_HKwhP,P_SSY_HKwhG, P_SSY_KvarhZ,P_SSY_KvarhJ,P_SSY_KvarhF,P_SSY_KvarhP,P_SSY_KvarhG, P_SSY_HKvarhZ,P_SSY_HKvarhJ,P_SSY_HKvarhF,P_SSY_HKvarhP,P_SSY_HKvarhG,P_CODE,P_TIME,P_ZXYGDN,P_FXYGDN,P_ZXWGDN,P_FXWGDN)values(239.501,239.754,239.311,414.999,414.826,414.652,0,0,0,240,0,0,360,240,0,0,240,360,0,0,480,0.624,0,0,0.854,50.169243,2553.6,28.2,1985.4,0,540,0,0,0,0,0,770.4,19.8,540.6,0,210,0,0,0,0,0,2317.2,31.2,1833.6,0,451.8,0,0,0,0,0,657,16.8,459.6,0,180.6,0,0,0,0,0,2519.4,51.6,1960.8,0,506.4,0,0,0,0,0,974.4,45,634.2,0,294.6,0,0,0,0,4.8873e-41,27,20171128004427,145.386,0,56.255,29.841)
写入成功读取完毕一个
write:1C 03 00 38 00 34 C6 5D
77 77 77
heart:77 77 77 2E 75 73 72 2E 63 6E
write:1C 03 07 CF 00 78 77 2E
write:1C 03 01 0F 00 08 76 7E
write:1D 03 00 38 00 34 C7 8C
write:1D 03 07 CF 00 78 76 FF
write:1D 03 01 0F 00 08 77 AF
write:1E 03 00 38 00 34 C7 BF
write:1E 03 07 CF 00 78 76 CC
write:1E 03 01 0F 00 08 77 9C
write:1F 03 00 38 00 34 C6 6E
write:1F 03 07 CF 00 78 77 1D
write:1F 03 01 0F 00 08 76 4D
write:20 03 00 38 00 34 C3 61
write:20 03 07 CF 00 78 72 12
write:20 03 01 0F 00 08 73 42
write:0A 03 00 38 00 34 C4 AB
write:0A 03 07 CF 00 78 75 D8
write:0A 03 01 0F 00 08 74 88
write:0B 03 00 38 00 34 C5 7A
77 77 77
heart:77 77 77 2E 75 73 72 2E 63 6E
77 77 77
heart:77 77 77 2E 75 73 72 2E 63 6E
77 77 77
heart:77 77 77 2E 75 73 72 2E 63 6E 77 77 77 2E 75 73 72 2E 63 6E 77 77 77 2E 75 73 72 2E 63 6E 77 77 77 2E 75 73 72 2E 63 6E 77 77 77 2E 75 73 72 2E 63 6E 77 77 77 2E 75 73 72 2E 63 6E 77 77 77 2E 75 73 72 2E 63 6E 77 77 77 2E 75 73 72 2E 63 6E 77 77 77 2E 75 73 72 2E 63 6E 77 77 77 2E 75 73 72 2E 63 6E
write:0B 03 07 CF 00 78 74 09
77 77 77
heart:77 77 77 2E 75 73 72 2E 63 6E
write:0B 03 01 0F 00 08 75 59
write:0C 03 00 38 00 34 C4 CD
77 77 77
heart:77 77 77 2E 75 73 72 2E 63 6E
write:0C 03 07 CF 00 78 75 BE
77 77 77
heart:77 77 77 2E 75 73 72 2E 63 6E
write:0C 03 01 0F 00 08 74 EE
write:0D 03 00 38 00 34 C5 1C
77 77 77
heart:77 77 77 2E 75 73 72 2E 63 6E
write:0D 03 07 CF 00 78 74 6F
77 77 77
heart:77 77 77 2E 75 73 72 2E 63 6E
write:0D 03 01 0F 00 08 75 3F
write:1A 03 00 38 00 34 C6 3B
1A 03 68
2643 6E E8 B4 43 6F C3 54 43 6F 2A 7F 43 CF 3D 50 43 CF 53 96 43 CE FA E1 40 40 00 00 40 75 C2 8F 40 95 C2 8F 43 B4 00 00 43 F0 00 00 44 16 00 00 44 C3 00 00 43 B4 00 00 43 F0 00 00 44 34 00 00 44 C3 00 00 44 34 00 00 44 70 00 00 44 87 00 00 45 07 00 00 3E FF 7C EE 3F 16 45 A2 3F 0C 08 31 3F 2F 5C 29 42 48 08 EF
write:1A 03 07 CF 00 78 77 48
1A 03 F0
26totalsize 240
44 F0 26 66 43 53 CC CD 44 87 13 33 00 00 00 00 44 1D 0C CD 00 00 00 00 00 00 00 00 00 00 00 00 00 00 00 00 00 00 00 00 42 9A CC CD 40 99 99 9A 42 20 CC CD 00 00 00 00 41 FE 66 66 44 6B 80 00 43 19 00 00 43 CA 80 00 00 00 00 00 43 BF B3 33 44 AC E0 00 43 0E CC CD 44 4A 33 33 00 00 00 00 43 D7 19 9A 00 00 00 00 00 00 00 00 00 00 00 00 00 00 00 00 00 00 00 00 40 C0 00 00 3F E6 66 66 40 19 99 9A 00 00 00 00 3F 99 99 9A 44 70 00 00 43 11 33 33 43 D5 4C CD 00 00 00 00 43 C1 CC CD 44 E4 00 00 42 EE CC CD 44 94 20 00 00 00 00 00 44 01 E6 66 00 00 00 00 00 00 00 00 00 00 00 00 00 00 00 00 00 00 00 00 42 0B 33 33 00 00 00 00 41 D3 33 33 00 00 00 00 41 06 66 66 44 3E F3 33 42 F7 33 33 43 9F E6 66 00 00 00 00 43 9F B4 9C
write:1A 03 01 0F 00 08 76 18
1A 03 10
2600 02 8C 1D 00 00 00 00 00 00 3E 05 00 00 E1 16
43 6E E8 B4
238.909
43 6F C3 54
239.763
43 6F 2A 7F
239.166
43 CF 3D 50
414.479
43 CF 53 96
414.653
43 CE FA E1
413.96
40 40 00 00
3
40 75 C2 8F
3.84
40 95 C2 8F
4.68
43 B4 00 00
360
43 F0 00 00
480
44 16 00 00
600
44 C3 00 00
1560
43 B4 00 00
360
43 F0 00 00
480
44 34 00 00
720
44 C3 00 00
1560
44 34 00 00
720
44 70 00 00
960
44 87 00 00
1080
45 07 00 00
2160
3E FF 7C EE
0.499
3F 16 45 A2
0.587
3F 0C 08 31
0.547
3F 2F 5C 29
0.685
42 48 08 EF
50.008724
44 F0 26 66
1921.2
43 53 CC CD
211.8
44 87 13 33
1080.6
00 00 00 00
0
44 1D 0C CD
628.2
00 00 00 00
0
00 00 00 00
0
00 00 00 00
0
00 00 00 00
0
00 00 00 00
0
42 9A CC CD
77.4
40 99 99 9A
4.8
42 20 CC CD
40.2
00 00 00 00
0
41 FE 66 66
31.8
44 6B 80 00
942
43 19 00 00
153
43 CA 80 00
405
00 00 00 00
0
43 BF B3 33
383.4
44 AC E0 00
1383
43 0E CC CD
142.8
44 4A 33 33
808.8
00 00 00 00
0
43 D7 19 9A
430.2
00 00 00 00
0
00 00 00 00
0
00 00 00 00
0
00 00 00 00
0
00 00 00 00
0
40 C0 00 00
6
3F E6 66 66
1.8
40 19 99 9A
2.4
00 00 00 00
0
3F 99 99 9A
1.2
44 70 00 00
960
43 11 33 33
145.2
43 D5 4C CD
426.6
00 00 00 00
0
43 C1 CC CD
387.6
44 E4 00 00
1824
42 EE CC CD
119.4
44 94 20 00
1185
00 00 00 00
0
44 01 E6 66
519.6
00 00 00 00
0
00 00 00 00
0
00 00 00 00
0
00 00 00 00
0
00 00 00 00
0
42 0B 33 33
34.8
00 00 00 00
0
41 D3 33 33
26.4
00 00 00 00
0
41 06 66 66
8.4
44 3E F3 33
763.8
42 F7 33 33
123.6
43 9F E6 66
319.8
00 00 00 00
0
43 9F B4 9C
319.411
00 02 8C 1D
166941
00 00 00 00
0
00 00 3E 05
15877
00 00 E1 16
57622
238.909239.763239.166414.479414.653413.9633.844.6836048060015603604807201560720960108021600.4990.5870.5470.68550.0087241921.2211.81080.60628.20000077.44.840.2031.89421534050383.41383142.8808.80430.20000061.82.401.2960145.2426.60387.61824119.411850519.60000034.8026.408.4763.8123.6319.80319.4112620171128005433166.941015.87757.622insert into tbl_power_info_v2(P_A_DIANYA,P_B_DIANYA,P_C_DIANYA,P_UAB_XIANDIANYA,P_UBC_XIANDIANYA,P_UCA_XIANDIANYA,P_A_DIANLIU,P_B_DIANLIU,P_C_DIANLIU,P_A_YGGL,P_B_YGGL,P_C_YGGL,P_HXYGGL,P_A_WGGL,P_B_WGGL,P_C_WGGL,P_HXWGGL,P_A_SZGL,P_B_SZGL,P_C_SZGL,P_HXSZGL,P_A_GLYS,P_B_GLYS,P_C_GLYS,P_HXGLYS,P_DWPL,P_BY_KwhZ,P_BY_KwhJ,P_BY_KwhF,P_BY_KwhP,P_BY_KwhG,P_BY_HKwhZ,P_BY_HKwhJ,P_BY_HKwhF,P_BY_HKwhP,P_BY_HKwhG, P_BY_KvarhZ,P_BY_KvarhJ,P_BY_KvarhF,P_BY_KvarhP,P_BY_KvarhG, P_BY_HKvarhZ,P_BY_HKvarhJ,P_BY_HKvarhF,P_BY_HKvarhP,P_BY_HKvarhG, P_SY_KwhZ,P_SY_KwhJ,P_SY_KwhF,P_SY_KwhP,P_SY_KwhG, P_SY_HKwhZ,P_SY_HKwhJ,P_SY_HKwhF,P_SY_HKwhP,P_SY_HKwhG, P_SY_KvarhZ,P_SY_KvarhJ,P_SY_KvarhF,P_SY_KvarhP,P_SY_KvarhG, P_SY_HKvarhZ,P_SY_HKvarhJ,P_SY_HKvarhF,P_SY_HKvarhP,P_SY_HKvarhG, P_SSY_KwhZ,P_SSY_KwhJ,P_SSY_KwhF,P_SSY_KwhP,P_SSY_KwhG, P_SSY_HKwhZ,P_SSY_HKwhJ,P_SSY_HKwhF,P_SSY_HKwhP,P_SSY_HKwhG, P_SSY_KvarhZ,P_SSY_KvarhJ,P_SSY_KvarhF,P_SSY_KvarhP,P_SSY_KvarhG, P_SSY_HKvarhZ,P_SSY_HKvarhJ,P_SSY_HKvarhF,P_SSY_HKvarhP,P_SSY_HKvarhG,P_CODE,P_TIME,P_ZXYGDN,P_FXYGDN,P_ZXWGDN,P_FXWGDN)values(238.909,239.763,239.166,414.479,414.653,413.96,3,3.84,4.68,360,480,600,1560,360,480,720,1560,720,960,1080,2160,0.499,0.587,0.547,0.685,50.008724,1921.2,211.8,1080.6,0,628.2,0,0,0,0,0,77.4,4.8,40.2,0,31.8,942,153,405,0,383.4,1383,142.8,808.8,0,430.2,0,0,0,0,0,6,1.8,2.4,0,1.2,960,145.2,426.6,0,387.6,1824,119.4,1185,0,519.6,0,0,0,0,0,34.8,0,26.4,0,8.4,763.8,123.6,319.8,0,319.411,26,20171128005433,166.941,0,15.877,57.622)
写入成功读取完毕一个
write:1B 03 00 38 00 34 C7 EA
1B 03 68
2743 6F 7A 5E 43 70 0C 8B 43 6F 78 93 43 CF 96 04 43 CF 96 04 43 CF 53 75 40 11 EB 85 00 00 00 00 00 00 00 00 43 B4 00 00 00 00 00 00 00 00 00 00 43 F0 00 00 43 F0 00 00 00 00 00 00 00 00 00 00 43 B4 00 00 43 F0 00 00 00 00 00 00 00 00 00 00 44 16 00 00 3F 18 93 75 00 00 00 00 00 00 00 00 3F 46 66 66 42 47 E2 32
write:1B 03 07 CF 00 78 76 99
1B 03 F0
27totalsize 240
45 1F 99 9A 41 E1 99 9A 44 F8 2C CD 00 00 00 00 44 07 00 00 00 00 00 00 00 00 00 00 00 00 00 00 00 00 00 00 00 00 00 00 44 40 99 9A 41 9E 66 66 44 07 26 66 00 00 00 00 43 52 00 00 00 00 00 00 00 00 00 00 00 00 00 00 00 00 00 00 00 00 00 00 45 10 D3 33 41 F9 99 9A 44 E5 33 33 00 00 00 00 43 E1 E6 66 00 00 00 00 00 00 00 00 00 00 00 00 00 00 00 00 00 00 00 00 44 24 40 00 41 86 66 66 43 E5 CC CD 00 00 00 00 43 34 99 9A 00 00 00 00 00 00 00 00 00 00 00 00 00 00 00 00 00 00 00 00 45 1D 76 66 42 4E 66 66 44 F5 19 9A 00 00 00 00 43 FD 33 33 00 00 00 00 00 00 00 00 00 00 00 00 00 00 00 00 00 00 00 00 44 73 99 9A 42 34 00 00 44 1E 8C CD 00 00 00 00 43 93 4C CD 00 00 00 00 00 00 00 00 00 00 00 00 00 00 00 00 00 00 88 3D
write:1B 03 01 0F 00 08 77 C9
1B 03 10
2700 02 37 EA 00 00 00 00 00 00 DB C0 00 00 45 49
43 6F 7A 5E
239.478
43 70 0C 8B
240.049
43 6F 78 93
239.471
43 CF 96 04
415.172
43 CF 96 04
415.172
43 CF 53 75
414.652
40 11 EB 85
2.28
00 00 00 00
0
00 00 00 00
0
43 B4 00 00
360
00 00 00 00
0
00 00 00 00
0
43 F0 00 00
480
43 F0 00 00
480
00 00 00 00
0
00 00 00 00
0
43 B4 00 00
360
43 F0 00 00
480
00 00 00 00
0
00 00 00 00
0
44 16 00 00
600
3F 18 93 75
0.596
00 00 00 00
0
00 00 00 00
0
3F 46 66 66
0.775
42 47 E2 32
49.970894
45 1F 99 9A
2553.6
41 E1 99 9A
28.2
44 F8 2C CD
1985.4
00 00 00 00
0
44 07 00 00
540
00 00 00 00
0
00 00 00 00
0
00 00 00 00
0
00 00 00 00
0
00 00 00 00
0
44 40 99 9A
770.4
41 9E 66 66
19.8
44 07 26 66
540.6
00 00 00 00
0
43 52 00 00
210
00 00 00 00
0
00 00 00 00
0
00 00 00 00
0
00 00 00 00
0
00 00 00 00
0
45 10 D3 33
2317.2
41 F9 99 9A
31.2
44 E5 33 33
1833.6
00 00 00 00
0
43 E1 E6 66
451.8
00 00 00 00
0
00 00 00 00
0
00 00 00 00
0
00 00 00 00
0
00 00 00 00
0
44 24 40 00
657
41 86 66 66
16.8
43 E5 CC CD
459.6
00 00 00 00
0
43 34 99 9A
180.6
00 00 00 00
0
00 00 00 00
0
00 00 00 00
0
00 00 00 00
0
00 00 00 00
0
45 1D 76 66
2519.4
42 4E 66 66
51.6
44 F5 19 9A
1960.8
00 00 00 00
0
43 FD 33 33
506.4
00 00 00 00
0
00 00 00 00
0
00 00 00 00
0
00 00 00 00
0
00 00 00 00
0
44 73 99 9A
974.4
42 34 00 00
45
44 1E 8C CD
634.2
00 00 00 00
0
43 93 4C CD
294.6
00 00 00 00
0
00 00 00 00
0
00 00 00 00
0
00 00 00 00
0
00 00 88 3D
4.8873e-41
00 02 37 EA
145386
00 00 00 00
0
00 00 DB C0
56256
00 00 45 49
17737
239.478240.049239.471415.172415.172414.6522.28003600048048000360480006000.596000.77549.9708942553.628.21985.4054000000770.419.8540.60210000002317.231.21833.60451.80000065716.8459.60180.6000002519.451.61960.80506.400000974.445634.20294.600004.8873e-412720171128005532145.386056.25617.737insert into tbl_power_info_v2(P_A_DIANYA,P_B_DIANYA,P_C_DIANYA,P_UAB_XIANDIANYA,P_UBC_XIANDIANYA,P_UCA_XIANDIANYA,P_A_DIANLIU,P_B_DIANLIU,P_C_DIANLIU,P_A_YGGL,P_B_YGGL,P_C_YGGL,P_HXYGGL,P_A_WGGL,P_B_WGGL,P_C_WGGL,P_HXWGGL,P_A_SZGL,P_B_SZGL,P_C_SZGL,P_HXSZGL,P_A_GLYS,P_B_GLYS,P_C_GLYS,P_HXGLYS,P_DWPL,P_BY_KwhZ,P_BY_KwhJ,P_BY_KwhF,P_BY_KwhP,P_BY_KwhG,P_BY_HKwhZ,P_BY_HKwhJ,P_BY_HKwhF,P_BY_HKwhP,P_BY_HKwhG, P_BY_KvarhZ,P_BY_KvarhJ,P_BY_KvarhF,P_BY_KvarhP,P_BY_KvarhG, P_BY_HKvarhZ,P_BY_HKvarhJ,P_BY_HKvarhF,P_BY_HKvarhP,P_BY_HKvarhG, P_SY_KwhZ,P_SY_KwhJ,P_SY_KwhF,P_SY_KwhP,P_SY_KwhG, P_SY_HKwhZ,P_SY_HKwhJ,P_SY_HKwhF,P_SY_HKwhP,P_SY_HKwhG, P_SY_KvarhZ,P_SY_KvarhJ,P_SY_KvarhF,P_SY_KvarhP,P_SY_KvarhG, P_SY_HKvarhZ,P_SY_HKvarhJ,P_SY_HKvarhF,P_SY_HKvarhP,P_SY_HKvarhG, P_SSY_KwhZ,P_SSY_KwhJ,P_SSY_KwhF,P_SSY_KwhP,P_SSY_KwhG, P_SSY_HKwhZ,P_SSY_HKwhJ,P_SSY_HKwhF,P_SSY_HKwhP,P_SSY_HKwhG, P_SSY_KvarhZ,P_SSY_KvarhJ,P_SSY_KvarhF,P_SSY_KvarhP,P_SSY_KvarhG, P_SSY_HKvarhZ,P_SSY_HKvarhJ,P_SSY_HKvarhF,P_SSY_HKvarhP,P_SSY_HKvarhG,P_CODE,P_TIME,P_ZXYGDN,P_FXYGDN,P_ZXWGDN,P_FXWGDN)values(239.478,240.049,239.471,415.172,415.172,414.652,2.28,0,0,360,0,0,480,480,0,0,360,480,0,0,600,0.596,0,0,0.775,49.970894,2553.6,28.2,1985.4,0,540,0,0,0,0,0,770.4,19.8,540.6,0,210,0,0,0,0,0,2317.2,31.2,1833.6,0,451.8,0,0,0,0,0,657,16.8,459.6,0,180.6,0,0,0,0,0,2519.4,51.6,1960.8,0,506.4,0,0,0,0,0,974.4,45,634.2,0,294.6,0,0,0,0,4.8873e-41,27,20171128005532,145.386,0,56.256,17.737)
写入成功读取完毕一个
write:1C 03 00 38 00 34 C6 5D
77 77 77
heart:77 77 77 2E 75 73 72 2E 63 6E
write:1C 03 07 CF 00 78 77 2E
write:1C 03 01 0F 00 08 76 7E
77 77 77
heart:77 77 77 2E 75 73 72 2E 63 6E
write:1D 03 00 38 00 34 C7 8C
77 77 77
heart:77 77 77 2E 75 73 72 2E 63 6E
write:1D 03 07 CF 00 78 76 FF
write:1D 03 01 0F 00 08 77 AF
77 77 77
heart:77 77 77 2E 75 73 72 2E 63 6E
write:1E 03 00 38 00 34 C7 BF
77 77 77
heart:77 77 77 2E 75 73 72 2E 63 6E
write:1E 03 07 CF 00 78 76 CC
write:1E 03 01 0F 00 08 77 9C
77 77 77
heart:77 77 77 2E 75 73 72 2E 63 6E
write:1F 03 00 38 00 34 C6 6E
77 77 77
heart:77 77 77 2E 75 73 72 2E 63 6E
write:1F 03 07 CF 00 78 77 1D
write:1F 03 01 0F 00 08 76 4D
77 77 77
heart:77 77 77 2E 75 73 72 2E 63 6E
write:20 03 00 38 00 34 C3 61
77 77 77
heart:77 77 77 2E 75 73 72 2E 63 6E
write:20 03 07 CF 00 78 72 12
write:20 03 01 0F 00 08 73 42
77 77 77
heart:77 77 77 2E 75 73 72 2E 63 6E
write:0A 03 00 38 00 34 C4 AB
77 77 77
heart:77 77 77 2E 75 73 72 2E 63 6E
write:0A 03 07 CF 00 78 75 D8
77 77 77
heart:77 77 77 2E 75 73 72 2E 63 6E
write:0A 03 01 0F 00 08 74 88
write:0B 03 00 38 00 34 C5 7A
77 77 77
heart:77 77 77 2E 75 73 72 2E 63 6E
write:0B 03 07 CF 00 78 74 09
write:0B 03 01 0F 00 08 75 59
77 77 77
heart:77 77 77 2E 75 73 72 2E 63 6E
write:0C 03 00 38 00 34 C4 CD
77 77 77
heart:77 77 77 2E 75 73 72 2E 63 6E
write:0C 03 07 CF 00 78 75 BE
77 77 77
heart:77 77 77 2E 75 73 72 2E 63 6E
write:0C 03 01 0F 00 08 74 EE
write:0D 03 00 38 00 34 C5 1C
77 77 77
heart:77 77 77 2E 75 73 72 2E 63 6E
write:0D 03 07 CF 00 78 74 6F
77 77 77
heart:77 77 77 2E 75 73 72 2E 63 6E
write:0D 03 01 0F 00 08 75 3F
write:1A 03 00 38 00 34 C6 3B
1A 03 68
2643 6F AA C1 43 70 2E 56 43 6F AE 98 43 CF B7 4C 43 CF B7 4C 43 CF 7F DF 40 40 00 00 40 75 C2 8F 40 95 C2 8F 43 B4 00 00 43 F0 00 00 44 16 00 00 44 C3 00 00 43 B4 00 00 43 F0 00 00 44 34 00 00 44 C3 00 00 44 34 00 00 44 70 00 00 44 87 00 00 45 07 00 00 3F 01 06 25 3F 16 87 2B 3F 0C CC CD 3F 2F 9D B2 42 48 07 09
write:1A 03 07 CF 00 78 77 48
1A 03 F0
26totalsize 240
44 F0 39 9A 43 53 CC CD 44 87 13 33 00 00 00 00 44 1D 33 33 00 00 00 00 00 00 00 00 00 00 00 00 00 00 00 00 00 00 00 00 42 9A CC CD 40 99 99 9A 42 20 CC CD 00 00 00 00 41 FE 66 66 44 6B A6 66 43 19 00 00 43 CA 80 00 00 00 00 00 43 BF B3 33 44 AC E0 00 43 0E CC CD 44 4A 33 33 00 00 00 00 43 D7 19 9A 00 00 00 00 00 00 00 00 00 00 00 00 00 00 00 00 00 00 00 00 40 C0 00 00 3F E6 66 66 40 19 99 9A 00 00 00 00 3F 99 99 9A 44 70 00 00 43 11 33 33 43 D5 4C CD 00 00 00 00 43 C1 CC CD 44 E4 00 00 42 EE CC CD 44 94 20 00 00 00 00 00 44 01 E6 66 00 00 00 00 00 00 00 00 00 00 00 00 00 00 00 00 00 00 00 00 42 0B 33 33 00 00 00 00 41 D3 33 33 00 00 00 00 41 06 66 66 44 3E F3 33 42 F7 33 33 43 9F E6 66 00 00 00 00 43 9F 10 60
write:1A 03 01 0F 00 08 76 18
1A 03 10
2600 02 8C 20 00 00 00 00 00 00 3E 05 00 00 25 BA
43 6F AA C1
239.667
43 70 2E 56
240.181
43 6F AE 98
239.682
43 CF B7 4C
415.432
43 CF B7 4C
415.432
43 CF 7F DF
414.999
40 40 00 00
3
40 75 C2 8F
3.84
40 95 C2 8F
4.68
43 B4 00 00
360
43 F0 00 00
480
44 16 00 00
600
44 C3 00 00
1560
43 B4 00 00
360
43 F0 00 00
480
44 34 00 00
720
44 C3 00 00
1560
44 34 00 00
720
44 70 00 00
960
44 87 00 00
1080
45 07 00 00
2160
3F 01 06 25
0.504
3F 16 87 2B
0.588
3F 0C CC CD
0.55
3F 2F 9D B2
0.686
42 48 07 09
50.00687
44 F0 39 9A
1921.8
43 53 CC CD
211.8
44 87 13 33
1080.6
00 00 00 00
0
44 1D 33 33
628.8
00 00 00 00
0
00 00 00 00
0
00 00 00 00
0
00 00 00 00
0
00 00 00 00
0
42 9A CC CD
77.4
40 99 99 9A
4.8
42 20 CC CD
40.2
00 00 00 00
0
41 FE 66 66
31.8
44 6B A6 66
942.6
43 19 00 00
153
43 CA 80 00
405
00 00 00 00
0
43 BF B3 33
383.4
44 AC E0 00
1383
43 0E CC CD
142.8
44 4A 33 33
808.8
00 00 00 00
0
43 D7 19 9A
430.2
00 00 00 00
0
00 00 00 00
0
00 00 00 00
0
00 00 00 00
0
00 00 00 00
0
40 C0 00 00
6
3F E6 66 66
1.8
40 19 99 9A
2.4
00 00 00 00
0
3F 99 99 9A
1.2
44 70 00 00
960
43 11 33 33
145.2
43 D5 4C CD
426.6
00 00 00 00
0
43 C1 CC CD
387.6
44 E4 00 00
1824
42 EE CC CD
119.4
44 94 20 00
1185
00 00 00 00
0
44 01 E6 66
519.6
00 00 00 00
0
00 00 00 00
0
00 00 00 00
0
00 00 00 00
0
00 00 00 00
0
42 0B 33 33
34.8
00 00 00 00
0
41 D3 33 33
26.4
00 00 00 00
0
41 06 66 66
8.4
44 3E F3 33
763.8
42 F7 33 33
123.6
43 9F E6 66
319.8
00 00 00 00
0
43 9F 10 60
318.12793
00 02 8C 20
166944
00 00 00 00
0
00 00 3E 05
15877
00 00 25 BA
9658
239.667240.181239.682415.432415.432414.99933.844.6836048060015603604807201560720960108021600.5040.5880.550.68650.006871921.8211.81080.60628.80000077.44.840.2031.8942.61534050383.41383142.8808.80430.20000061.82.401.2960145.2426.60387.61824119.411850519.60000034.8026.408.4763.8123.6319.80318.127932620171128010540166.944015.8779.658insert into tbl_power_info_v2(P_A_DIANYA,P_B_DIANYA,P_C_DIANYA,P_UAB_XIANDIANYA,P_UBC_XIANDIANYA,P_UCA_XIANDIANYA,P_A_DIANLIU,P_B_DIANLIU,P_C_DIANLIU,P_A_YGGL,P_B_YGGL,P_C_YGGL,P_HXYGGL,P_A_WGGL,P_B_WGGL,P_C_WGGL,P_HXWGGL,P_A_SZGL,P_B_SZGL,P_C_SZGL,P_HXSZGL,P_A_GLYS,P_B_GLYS,P_C_GLYS,P_HXGLYS,P_DWPL,P_BY_KwhZ,P_BY_KwhJ,P_BY_KwhF,P_BY_KwhP,P_BY_KwhG,P_BY_HKwhZ,P_BY_HKwhJ,P_BY_HKwhF,P_BY_HKwhP,P_BY_HKwhG, P_BY_KvarhZ,P_BY_KvarhJ,P_BY_KvarhF,P_BY_KvarhP,P_BY_KvarhG, P_BY_HKvarhZ,P_BY_HKvarhJ,P_BY_HKvarhF,P_BY_HKvarhP,P_BY_HKvarhG, P_SY_KwhZ,P_SY_KwhJ,P_SY_KwhF,P_SY_KwhP,P_SY_KwhG, P_SY_HKwhZ,P_SY_HKwhJ,P_SY_HKwhF,P_SY_HKwhP,P_SY_HKwhG, P_SY_KvarhZ,P_SY_KvarhJ,P_SY_KvarhF,P_SY_KvarhP,P_SY_KvarhG, P_SY_HKvarhZ,P_SY_HKvarhJ,P_SY_HKvarhF,P_SY_HKvarhP,P_SY_HKvarhG, P_SSY_KwhZ,P_SSY_KwhJ,P_SSY_KwhF,P_SSY_KwhP,P_SSY_KwhG, P_SSY_HKwhZ,P_SSY_HKwhJ,P_SSY_HKwhF,P_SSY_HKwhP,P_SSY_HKwhG, P_SSY_KvarhZ,P_SSY_KvarhJ,P_SSY_KvarhF,P_SSY_KvarhP,P_SSY_KvarhG, P_SSY_HKvarhZ,P_SSY_HKvarhJ,P_SSY_HKvarhF,P_SSY_HKvarhP,P_SSY_HKvarhG,P_CODE,P_TIME,P_ZXYGDN,P_FXYGDN,P_ZXWGDN,P_FXWGDN)values(239.667,240.181,239.682,415.432,415.432,414.999,3,3.84,4.68,360,480,600,1560,360,480,720,1560,720,960,1080,2160,0.504,0.588,0.55,0.686,50.00687,1921.8,211.8,1080.6,0,628.8,0,0,0,0,0,77.4,4.8,40.2,0,31.8,942.6,153,405,0,383.4,1383,142.8,808.8,0,430.2,0,0,0,0,0,6,1.8,2.4,0,1.2,960,145.2,426.6,0,387.6,1824,119.4,1185,0,519.6,0,0,0,0,0,34.8,0,26.4,0,8.4,763.8,123.6,319.8,0,318.12793,26,20171128010540,166.944,0,15.877,9.658)
写入成功读取完毕一个
write:1B 03 00 38 00 34 C7 EA
1B 03 68
2743 6F 67 6D 43 70 4A 7F 43 6F B8 10 43 CF AC 4A 43 CF CD 71 43 CF 74 BC 00 00 00 00 00 00 00 00 00 00 00 00 00 00 00 00 00 00 00 00 00 00 00 00 43 70 00 00 00 00 00 00 00 00 00 00 00 00 00 00 00 00 00 00 00 00 00 00 00 00 00 00 00 00 00 00 43 70 00 00 00 00 00 00 00 00 00 00 00 00 00 00 3F 7A 1C AC 42 47 40 E9
write:1B 03 07 CF 00 78 76 99
1B 03 F0
27totalsize 240
45 1F 99 9A 41 E1 99 9A 44 F8 2C CD 00 00 00 00 44 07 00 00 00 00 00 00 00 00 00 00 00 00 00 00 00 00 00 00 00 00 00 00 44 40 C0 00 41 9E 66 66 44 07 26 66 00 00 00 00 43 52 00 00 00 00 00 00 00 00 00 00 00 00 00 00 00 00 00 00 00 00 00 00 45 10 D3 33 41 F9 99 9A 44 E5 33 33 00 00 00 00 43 E1 E6 66 00 00 00 00 00 00 00 00 00 00 00 00 00 00 00 00 00 00 00 00 44 24 40 00 41 86 66 66 43 E5 CC CD 00 00 00 00 43 34 99 9A 00 00 00 00 00 00 00 00 00 00 00 00 00 00 00 00 00 00 00 00 45 1D 76 66 42 4E 66 66 44 F5 19 9A 00 00 00 00 43 FD 33 33 00 00 00 00 00 00 00 00 00 00 00 00 00 00 00 00 00 00 00 00 44 73 99 9A 42 34 00 00 44 1E 8C CD 00 00 00 00 43 93 4C CD 00 00 00 00 00 00 00 00 00 00 00 00 00 00 00 00 00 00 96 B6
write:1B 03 01 0F 00 08 77 C9
1B 03 10
2700 02 37 EB 00 00 00 00 00 00 DB C0 00 00 41 B5
43 6F 67 6D
239.404
43 70 4A 7F
240.291
43 6F B8 10
239.719
43 CF AC 4A
415.346
43 CF CD 71
415.605
43 CF 74 BC
414.912
00 00 00 00
0
00 00 00 00
0
00 00 00 00
0
00 00 00 00
0
00 00 00 00
0
00 00 00 00
0
43 70 00 00
240
00 00 00 00
0
00 00 00 00
0
00 00 00 00
0
00 00 00 00
0
00 00 00 00
0
00 00 00 00
0
00 00 00 00
0
43 70 00 00
240
00 00 00 00
0
00 00 00 00
0
00 00 00 00
0
3F 7A 1C AC
0.977
42 47 40 E9
49.81339
45 1F 99 9A
2553.6
41 E1 99 9A
28.2
44 F8 2C CD
1985.4
00 00 00 00
0
44 07 00 00
540
00 00 00 00
0
00 00 00 00
0
00 00 00 00
0
00 00 00 00
0
00 00 00 00
0
44 40 C0 00
771
41 9E 66 66
19.8
44 07 26 66
540.6
00 00 00 00
0
43 52 00 00
210
00 00 00 00
0
00 00 00 00
0
00 00 00 00
0
00 00 00 00
0
00 00 00 00
0
45 10 D3 33
2317.2
41 F9 99 9A
31.2
44 E5 33 33
1833.6
00 00 00 00
0
43 E1 E6 66
451.8
00 00 00 00
0
00 00 00 00
0
00 00 00 00
0
00 00 00 00
0
00 00 00 00
0
44 24 40 00
657
41 86 66 66
16.8
43 E5 CC CD
459.6
00 00 00 00
0
43 34 99 9A
180.6
00 00 00 00
0
00 00 00 00
0
00 00 00 00
0
00 00 00 00
0
00 00 00 00
0
45 1D 76 66
2519.4
42 4E 66 66
51.6
44 F5 19 9A
1960.8
00 00 00 00
0
43 FD 33 33
506.4
00 00 00 00
0
00 00 00 00
0
00 00 00 00
0
00 00 00 00
0
00 00 00 00
0
44 73 99 9A
974.4
42 34 00 00
45
44 1E 8C CD
634.2
00 00 00 00
0
43 93 4C CD
294.6
00 00 00 00
0
00 00 00 00
0
00 00 00 00
0
00 00 00 00
0
00 00 96 B6
5.4065e-41
00 02 37 EB
145387
00 00 00 00
0
00 00 DB C0
56256
00 00 41 B5
16821
239.404240.291239.719415.346415.605414.91200000024000000002400000.97749.813392553.628.21985.405400000077119.8540.60210000002317.231.21833.60451.80000065716.8459.60180.6000002519.451.61960.80506.400000974.445634.20294.600005.4065e-412720171128010640145.387056.25616.821insert into tbl_power_info_v2(P_A_DIANYA,P_B_DIANYA,P_C_DIANYA,P_UAB_XIANDIANYA,P_UBC_XIANDIANYA,P_UCA_XIANDIANYA,P_A_DIANLIU,P_B_DIANLIU,P_C_DIANLIU,P_A_YGGL,P_B_YGGL,P_C_YGGL,P_HXYGGL,P_A_WGGL,P_B_WGGL,P_C_WGGL,P_HXWGGL,P_A_SZGL,P_B_SZGL,P_C_SZGL,P_HXSZGL,P_A_GLYS,P_B_GLYS,P_C_GLYS,P_HXGLYS,P_DWPL,P_BY_KwhZ,P_BY_KwhJ,P_BY_KwhF,P_BY_KwhP,P_BY_KwhG,P_BY_HKwhZ,P_BY_HKwhJ,P_BY_HKwhF,P_BY_HKwhP,P_BY_HKwhG, P_BY_KvarhZ,P_BY_KvarhJ,P_BY_KvarhF,P_BY_KvarhP,P_BY_KvarhG, P_BY_HKvarhZ,P_BY_HKvarhJ,P_BY_HKvarhF,P_BY_HKvarhP,P_BY_HKvarhG, P_SY_KwhZ,P_SY_KwhJ,P_SY_KwhF,P_SY_KwhP,P_SY_KwhG, P_SY_HKwhZ,P_SY_HKwhJ,P_SY_HKwhF,P_SY_HKwhP,P_SY_HKwhG, P_SY_KvarhZ,P_SY_KvarhJ,P_SY_KvarhF,P_SY_KvarhP,P_SY_KvarhG, P_SY_HKvarhZ,P_SY_HKvarhJ,P_SY_HKvarhF,P_SY_HKvarhP,P_SY_HKvarhG, P_SSY_KwhZ,P_SSY_KwhJ,P_SSY_KwhF,P_SSY_KwhP,P_SSY_KwhG, P_SSY_HKwhZ,P_SSY_HKwhJ,P_SSY_HKwhF,P_SSY_HKwhP,P_SSY_HKwhG, P_SSY_KvarhZ,P_SSY_KvarhJ,P_SSY_KvarhF,P_SSY_KvarhP,P_SSY_KvarhG, P_SSY_HKvarhZ,P_SSY_HKvarhJ,P_SSY_HKvarhF,P_SSY_HKvarhP,P_SSY_HKvarhG,P_CODE,P_TIME,P_ZXYGDN,P_FXYGDN,P_ZXWGDN,P_FXWGDN)values(239.404,240.291,239.719,415.346,415.605,414.912,0,0,0,0,0,0,240,0,0,0,0,0,0,0,240,0,0,0,0.977,49.81339,2553.6,28.2,1985.4,0,540,0,0,0,0,0,771,19.8,540.6,0,210,0,0,0,0,0,2317.2,31.2,1833.6,0,451.8,0,0,0,0,0,657,16.8,459.6,0,180.6,0,0,0,0,0,2519.4,51.6,1960.8,0,506.4,0,0,0,0,0,974.4,45,634.2,0,294.6,0,0,0,0,5.4065e-41,27,20171128010640,145.387,0,56.256,16.821)
写入成功读取完毕一个
write:1C 03 00 38 00 34 C6 5D
77 77 77
heart:77 77 77 2E 75 73 72 2E 63 6E
write:1C 03 07 CF 00 78 77 2E
write:1C 03 01 0F 00 08 76 7E
77 77 77
heart:77 77 77 2E 75 73 72 2E 63 6E
write:1D 03 00 38 00 34 C7 8C
77 77 77
heart:77 77 77 2E 75 73 72 2E 63 6E
write:1D 03 07 CF 00 78 76 FF
write:1D 03 01 0F 00 08 77 AF
write:1E 03 00 38 00 34 C7 BF
77 77 77
heart:77 77 77 2E 75 73 72 2E 63 6E
77 77 77
heart:77 77 77 2E 75 73 72 2E 63 6E
write:1E 03 07 CF 00 78 76 CC
write:1E 03 01 0F 00 08 77 9C
77 77 77
heart:77 77 77 2E 75 73 72 2E 63 6E
write:1F 03 00 38 00 34 C6 6E
77 77 77
heart:77 77 77 2E 75 73 72 2E 63 6E
write:1F 03 07 CF 00 78 77 1D
write:1F 03 01 0F 00 08 76 4D
77 77 77
heart:77 77 77 2E 75 73 72 2E 63 6E
write:20 03 00 38 00 34 C3 61
77 77 77
heart:77 77 77 2E 75 73 72 2E 63 6E
write:20 03 07 CF 00 78 72 12
write:20 03 01 0F 00 08 73 42
write:0A 03 00 38 00 34 C4 AB
77 77 77
heart:77 77 77 2E 75 73 72 2E 63 6E
77 77 77
heart:77 77 77 2E 75 73 72 2E 63 6E
write:0A 03 07 CF 00 78 75 D8
77 77 77
heart:77 77 77 2E 75 73 72 2E 63 6E
write:0A 03 01 0F 00 08 74 88
write:0B 03 00 38 00 34 C5 7A
77 77 77
heart:77 77 77 2E 75 73 72 2E 63 6E
write:0B 03 07 CF 00 78 74 09
write:0B 03 01 0F 00 08 75 59
77 77 77
heart:77 77 77 2E 75 73 72 2E 63 6E
write:0C 03 00 38 00 34 C4 CD
77 77 77
heart:77 77 77 2E 75 73 72 2E 63 6E
write:0C 03 07 CF 00 78 75 BE
write:0C 03 01 0F 00 08 74 EE
77 77 77
heart:77 77 77 2E 75 73 72 2E 63 6E
write:0D 03 00 38 00 34 C5 1C
77 77 77
heart:77 77 77 2E 75 73 72 2E 63 6E
write:0D 03 07 CF 00 78 74 6F
write:0D 03 01 0F 00 08 75 3F
77 77 77
heart:77 77 77 2E 75 73 72 2E 63 6E
write:1A 03 00 38 00 34 C6 3B
1A 03 68
2643 70 39 58 43 70 63 96 43 6F F7 CF 43 D0 10 00 43 CF EE B8 43 CF E3 96 40 40 00 00 40 75 C2 8F 40 95 C2 8F 43 B4 00 00 43 F0 00 00 44 16 00 00 44 C3 00 00 43 B4 00 00 43 F0 00 00 44 34 00 00 44 D2 00 00 44 34 00 00 44 70 00 00 44 87 00 00 45 0E 80 00 3F 00 C4 9C 3F 17 0A 3D 3F 0B 85 1F 3F 2F 1A A0 42 48 27 6C
write:1A 03 07 CF 00 78 77 48
1A 03 F0
26totalsize 240
44 F0 39 9A 43 53 CC CD 44 87 13 33 00 00 00 00 44 1D 33 33 00 00 00 00 00 00 00 00 00 00 00 00 00 00 00 00 00 00 00 00 42 9A CC CD 40 99 99 9A 42 20 CC CD 00 00 00 00 41 FE 66 66 44 6B A6 66 43 19 00 00 43 CA 80 00 00 00 00 00 43 C0 00 00 44 AC E0 00 43 0E CC CD 44 4A 33 33 00 00 00 00 43 D7 19 9A 00 00 00 00 00 00 00 00 00 00 00 00 00 00 00 00 00 00 00 00 40 C0 00 00 3F E6 66 66 40 19 99 9A 00 00 00 00 3F 99 99 9A 44 70 00 00 43 11 33 33 43 D5 4C CD 00 00 00 00 43 C1 CC CD 44 E4 00 00 42 EE CC CD 44 94 20 00 00 00 00 00 44 01 E6 66 00 00 00 00 00 00 00 00 00 00 00 00 00 00 00 00 00 00 00 00 42 0B 33 33 00 00 00 00 41 D3 33 33 00 00 00 00 41 06 66 66 44 3E F3 33 42 F7 33 33 43 9F E6 66 00 00 00 00 43 9F 8E 0E
write:1A 03 01 0F 00 08 76 18
1A 03 10
2600 02 8C 22 00 00 00 00 00 00 3E 05 00 00 2E 02
43 70 39 58
240.224
43 70 63 96
240.389
43 6F F7 CF
239.968
43 D0 10 00
416.125
43 CF EE B8
415.865
43 CF E3 96
415.778
40 40 00 00
3
40 75 C2 8F
3.84
40 95 C2 8F
4.68
43 B4 00 00
360
43 F0 00 00
480
44 16 00 00
600
44 C3 00 00
1560
43 B4 00 00
360
43 F0 00 00
480
44 34 00 00
720
44 D2 00 00
1680
44 34 00 00
720
44 70 00 00
960
44 87 00 00
1080
45 0E 80 00
2280
3F 00 C4 9C
0.503
3F 17 0A 3D
0.59
3F 0B 85 1F
0.545
3F 2F 1A A0
0.684
42 48 27 6C
50.038498
44 F0 39 9A
1921.8
43 53 CC CD
211.8
44 87 13 33
1080.6
00 00 00 00
0
44 1D 33 33
628.8
00 00 00 00
0
00 00 00 00
0
00 00 00 00
0
00 00 00 00
0
00 00 00 00
0
42 9A CC CD
77.4
40 99 99 9A
4.8
42 20 CC CD
40.2
00 00 00 00
0
41 FE 66 66
31.8
44 6B A6 66
942.6
43 19 00 00
153
43 CA 80 00
405
00 00 00 00
0
43 C0 00 00
384
44 AC E0 00
1383
43 0E CC CD
142.8
44 4A 33 33
808.8
00 00 00 00
0
43 D7 19 9A
430.2
00 00 00 00
0
00 00 00 00
0
00 00 00 00
0
00 00 00 00
0
00 00 00 00
0
40 C0 00 00
6
3F E6 66 66
1.8
40 19 99 9A
2.4
00 00 00 00
0
3F 99 99 9A
1.2
44 70 00 00
960
43 11 33 33
145.2
43 D5 4C CD
426.6
00 00 00 00
0
43 C1 CC CD
387.6
44 E4 00 00
1824
42 EE CC CD
119.4
44 94 20 00
1185
00 00 00 00
0
44 01 E6 66
519.6
00 00 00 00
0
00 00 00 00
0
00 00 00 00
0
00 00 00 00
0
00 00 00 00
0
42 0B 33 33
34.8
00 00 00 00
0
41 D3 33 33
26.4
00 00 00 00
0
41 06 66 66
8.4
44 3E F3 33
763.8
42 F7 33 33
123.6
43 9F E6 66
319.8
00 00 00 00
0
43 9F 8E 0E
319.1098
00 02 8C 22
166946
00 00 00 00
0
00 00 3E 05
15877
00 00 2E 02
11778
240.224240.389239.968416.125415.865415.77833.844.6836048060015603604807201680720960108022800.5030.590.5450.68450.0384981921.8211.81080.60628.80000077.44.840.2031.8942.615340503841383142.8808.80430.20000061.82.401.2960145.2426.60387.61824119.411850519.60000034.8026.408.4763.8123.6319.80319.10982620171128011643166.946015.87711.778insert into tbl_power_info_v2(P_A_DIANYA,P_B_DIANYA,P_C_DIANYA,P_UAB_XIANDIANYA,P_UBC_XIANDIANYA,P_UCA_XIANDIANYA,P_A_DIANLIU,P_B_DIANLIU,P_C_DIANLIU,P_A_YGGL,P_B_YGGL,P_C_YGGL,P_HXYGGL,P_A_WGGL,P_B_WGGL,P_C_WGGL,P_HXWGGL,P_A_SZGL,P_B_SZGL,P_C_SZGL,P_HXSZGL,P_A_GLYS,P_B_GLYS,P_C_GLYS,P_HXGLYS,P_DWPL,P_BY_KwhZ,P_BY_KwhJ,P_BY_KwhF,P_BY_KwhP,P_BY_KwhG,P_BY_HKwhZ,P_BY_HKwhJ,P_BY_HKwhF,P_BY_HKwhP,P_BY_HKwhG, P_BY_KvarhZ,P_BY_KvarhJ,P_BY_KvarhF,P_BY_KvarhP,P_BY_KvarhG, P_BY_HKvarhZ,P_BY_HKvarhJ,P_BY_HKvarhF,P_BY_HKvarhP,P_BY_HKvarhG, P_SY_KwhZ,P_SY_KwhJ,P_SY_KwhF,P_SY_KwhP,P_SY_KwhG, P_SY_HKwhZ,P_SY_HKwhJ,P_SY_HKwhF,P_SY_HKwhP,P_SY_HKwhG, P_SY_KvarhZ,P_SY_KvarhJ,P_SY_KvarhF,P_SY_KvarhP,P_SY_KvarhG, P_SY_HKvarhZ,P_SY_HKvarhJ,P_SY_HKvarhF,P_SY_HKvarhP,P_SY_HKvarhG, P_SSY_KwhZ,P_SSY_KwhJ,P_SSY_KwhF,P_SSY_KwhP,P_SSY_KwhG, P_SSY_HKwhZ,P_SSY_HKwhJ,P_SSY_HKwhF,P_SSY_HKwhP,P_SSY_HKwhG, P_SSY_KvarhZ,P_SSY_KvarhJ,P_SSY_KvarhF,P_SSY_KvarhP,P_SSY_KvarhG, P_SSY_HKvarhZ,P_SSY_HKvarhJ,P_SSY_HKvarhF,P_SSY_HKvarhP,P_SSY_HKvarhG,P_CODE,P_TIME,P_ZXYGDN,P_FXYGDN,P_ZXWGDN,P_FXWGDN)values(240.224,240.389,239.968,416.125,415.865,415.778,3,3.84,4.68,360,480,600,1560,360,480,720,1680,720,960,1080,2280,0.503,0.59,0.545,0.684,50.038498,1921.8,211.8,1080.6,0,628.8,0,0,0,0,0,77.4,4.8,40.2,0,31.8,942.6,153,405,0,384,1383,142.8,808.8,0,430.2,0,0,0,0,0,6,1.8,2.4,0,1.2,960,145.2,426.6,0,387.6,1824,119.4,1185,0,519.6,0,0,0,0,0,34.8,0,26.4,0,8.4,763.8,123.6,319.8,0,319.1098,26,20171128011643,166.946,0,15.877,11.778)
写入成功读取完毕一个
write:1B 03 00 38 00 34 C7 EA
1B 03 68
2743 6F E9 37 43 70 7D F4 43 70 0B 85 43 CF F9 DB 43 D0 04 DD 43 CF CD 71 00 00 00 00 00 00 00 00 00 00 00 00 00 00 00 00 00 00 00 00 00 00 00 00 43 70 00 00 00 00 00 00 00 00 00 00 00 00 00 00 00 00 00 00 00 00 00 00 00 00 00 00 00 00 00 00 43 70 00 00 00 00 00 00 00 00 00 00 00 00 00 00 3F 7A 1C AC 42 47 11 61
write:1B 03 07 CF 00 78 76 99
1B 03 F0
27totalsize 240
45 1F 99 9A 41 E1 99 9A 44 F8 2C CD 00 00 00 00 44 07 00 00 00 00 00 00 00 00 00 00 00 00 00 00 00 00 00 00 00 00 00 00 44 40 C0 00 41 9E 66 66 44 07 26 66 00 00 00 00 43 52 00 00 00 00 00 00 00 00 00 00 00 00 00 00 00 00 00 00 00 00 00 00 45 10 D3 33 41 F9 99 9A 44 E5 33 33 00 00 00 00 43 E1 E6 66 00 00 00 00 00 00 00 00 00 00 00 00 00 00 00 00 00 00 00 00 44 24 40 00 41 86 66 66 43 E5 CC CD 00 00 00 00 43 34 99 9A 00 00 00 00 00 00 00 00 00 00 00 00 00 00 00 00 00 00 00 00 45 1D 76 66 42 4E 66 66 44 F5 19 9A 00 00 00 00 43 FD 33 33 00 00 00 00 00 00 00 00 00 00 00 00 00 00 00 00 00 00 00 00 44 73 99 9A 42 34 00 00 44 1E 8C CD 00 00 00 00 43 93 4C CD 00 00 00 00 00 00 00 00 00 00 00 00 00 00 00 00 00 00 96 B6
write:1B 03 01 0F 00 08 77 C9
1B 03 10
2700 02 37 EC 00 00 00 00 00 00 DB C0 00 00 5B C1
43 6F E9 37
239.911
43 70 7D F4
240.492
43 70 0B 85
240.045
43 CF F9 DB
415.952
43 D0 04 DD
416.038
43 CF CD 71
415.605
00 00 00 00
0
00 00 00 00
0
00 00 00 00
0
00 00 00 00
0
00 00 00 00
0
00 00 00 00
0
43 70 00 00
240
00 00 00 00
0
00 00 00 00
0
00 00 00 00
0
00 00 00 00
0
00 00 00 00
0
00 00 00 00
0
00 00 00 00
0
43 70 00 00
240
00 00 00 00
0
00 00 00 00
0
00 00 00 00
0
3F 7A 1C AC
0.977
42 47 11 61
49.76697
45 1F 99 9A
2553.6
41 E1 99 9A
28.2
44 F8 2C CD
1985.4
00 00 00 00
0
44 07 00 00
540
00 00 00 00
0
00 00 00 00
0
00 00 00 00
0
00 00 00 00
0
00 00 00 00
0
44 40 C0 00
771
41 9E 66 66
19.8
44 07 26 66
540.6
00 00 00 00
0
43 52 00 00
210
00 00 00 00
0
00 00 00 00
0
00 00 00 00
0
00 00 00 00
0
00 00 00 00
0
45 10 D3 33
2317.2
41 F9 99 9A
31.2
44 E5 33 33
1833.6
00 00 00 00
0
43 E1 E6 66
451.8
00 00 00 00
0
00 00 00 00
0
00 00 00 00
0
00 00 00 00
0
00 00 00 00
0
44 24 40 00
657
41 86 66 66
16.8
43 E5 CC CD
459.6
00 00 00 00
0
43 34 99 9A
180.6
00 00 00 00
0
00 00 00 00
0
00 00 00 00
0
00 00 00 00
0
00 00 00 00
0
45 1D 76 66
2519.4
42 4E 66 66
51.6
44 F5 19 9A
1960.8
00 00 00 00
0
43 FD 33 33
506.4
00 00 00 00
0
00 00 00 00
0
00 00 00 00
0
00 00 00 00
0
00 00 00 00
0
44 73 99 9A
974.4
42 34 00 00
45
44 1E 8C CD
634.2
00 00 00 00
0
43 93 4C CD
294.6
00 00 00 00
0
00 00 00 00
0
00 00 00 00
0
00 00 00 00
0
00 00 96 B6
5.4065e-41
00 02 37 EC
145388
00 00 00 00
0
00 00 DB C0
56256
00 00 5B C1
23489
239.911240.492240.045415.952416.038415.60500000024000000002400000.97749.766972553.628.21985.405400000077119.8540.60210000002317.231.21833.60451.80000065716.8459.60180.6000002519.451.61960.80506.400000974.445634.20294.600005.4065e-412720171128011743145.388056.25623.489insert into tbl_power_info_v2(P_A_DIANYA,P_B_DIANYA,P_C_DIANYA,P_UAB_XIANDIANYA,P_UBC_XIANDIANYA,P_UCA_XIANDIANYA,P_A_DIANLIU,P_B_DIANLIU,P_C_DIANLIU,P_A_YGGL,P_B_YGGL,P_C_YGGL,P_HXYGGL,P_A_WGGL,P_B_WGGL,P_C_WGGL,P_HXWGGL,P_A_SZGL,P_B_SZGL,P_C_SZGL,P_HXSZGL,P_A_GLYS,P_B_GLYS,P_C_GLYS,P_HXGLYS,P_DWPL,P_BY_KwhZ,P_BY_KwhJ,P_BY_KwhF,P_BY_KwhP,P_BY_KwhG,P_BY_HKwhZ,P_BY_HKwhJ,P_BY_HKwhF,P_BY_HKwhP,P_BY_HKwhG, P_BY_KvarhZ,P_BY_KvarhJ,P_BY_KvarhF,P_BY_KvarhP,P_BY_KvarhG, P_BY_HKvarhZ,P_BY_HKvarhJ,P_BY_HKvarhF,P_BY_HKvarhP,P_BY_HKvarhG, P_SY_KwhZ,P_SY_KwhJ,P_SY_KwhF,P_SY_KwhP,P_SY_KwhG, P_SY_HKwhZ,P_SY_HKwhJ,P_SY_HKwhF,P_SY_HKwhP,P_SY_HKwhG, P_SY_KvarhZ,P_SY_KvarhJ,P_SY_KvarhF,P_SY_KvarhP,P_SY_KvarhG, P_SY_HKvarhZ,P_SY_HKvarhJ,P_SY_HKvarhF,P_SY_HKvarhP,P_SY_HKvarhG, P_SSY_KwhZ,P_SSY_KwhJ,P_SSY_KwhF,P_SSY_KwhP,P_SSY_KwhG, P_SSY_HKwhZ,P_SSY_HKwhJ,P_SSY_HKwhF,P_SSY_HKwhP,P_SSY_HKwhG, P_SSY_KvarhZ,P_SSY_KvarhJ,P_SSY_KvarhF,P_SSY_KvarhP,P_SSY_KvarhG, P_SSY_HKvarhZ,P_SSY_HKvarhJ,P_SSY_HKvarhF,P_SSY_HKvarhP,P_SSY_HKvarhG,P_CODE,P_TIME,P_ZXYGDN,P_FXYGDN,P_ZXWGDN,P_FXWGDN)values(239.911,240.492,240.045,415.952,416.038,415.605,0,0,0,0,0,0,240,0,0,0,0,0,0,0,240,0,0,0,0.977,49.76697,2553.6,28.2,1985.4,0,540,0,0,0,0,0,771,19.8,540.6,0,210,0,0,0,0,0,2317.2,31.2,1833.6,0,451.8,0,0,0,0,0,657,16.8,459.6,0,180.6,0,0,0,0,0,2519.4,51.6,1960.8,0,506.4,0,0,0,0,0,974.4,45,634.2,0,294.6,0,0,0,0,5.4065e-41,27,20171128011743,145.388,0,56.256,23.489)
写入成功读取完毕一个
write:1C 03 00 38 00 34 C6 5D
77 77 77
heart:77 77 77 2E 75 73 72 2E 63 6E
write:1C 03 07 CF 00 78 77 2E
write:1C 03 01 0F 00 08 76 7E
77 77 77
heart:77 77 77 2E 75 73 72 2E 63 6E
write:1D 03 00 38 00 34 C7 8C
77 77 77
heart:77 77 77 2E 75 73 72 2E 63 6E
write:1D 03 07 CF 00 78 76 FF
write:1D 03 01 0F 00 08 77 AF
77 77 77
heart:77 77 77 2E 75 73 72 2E 63 6E
write:1E 03 00 38 00 34 C7 BF
77 77 77
heart:77 77 77 2E 75 73 72 2E 63 6E
write:1E 03 07 CF 00 78 76 CC
write:1E 03 01 0F 00 08 77 9C
77 77 77
heart:77 77 77 2E 75 73 72 2E 63 6E
write:1F 03 00 38 00 34 C6 6E
write:1F 03 07 CF 00 78 77 1D
write:1F 03 01 0F 00 08 76 4D
write:20 03 00 38 00 34 C3 61
77 77 77
heart:77 77 77 2E 75 73 72 2E 63 6E
write:20 03 07 CF 00 78 72 12
77 77 77
heart:77 77 77 2E 75 73 72 2E 63 6E 77 77 77 2E 75 73 72 2E 63 6E
write:20 03 01 0F 00 08 73 42
77 77 77
heart:77 77 77 2E 75 73 72 2E 63 6E
write:0A 03 00 38 00 34 C4 AB
77 77 77
heart:77 77 77 2E 75 73 72 2E 63 6E
write:0A 03 07 CF 00 78 75 D8
77 77 77
heart:77 77 77 2E 75 73 72 2E 63 6E
write:0A 03 01 0F 00 08 74 88
write:0B 03 00 38 00 34 C5 7A
77 77 77
heart:77 77 77 2E 75 73 72 2E 63 6E
write:0B 03 07 CF 00 78 74 09
77 77 77
heart:77 77 77 2E 75 73 72 2E 63 6E
write:0B 03 01 0F 00 08 75 59
write:0C 03 00 38 00 34 C4 CD
77 77 77
heart:77 77 77 2E 75 73 72 2E 63 6E
write:0C 03 07 CF 00 78 75 BE
77 77 77
heart:77 77 77 2E 75 73 72 2E 63 6E
write:0C 03 01 0F 00 08 74 EE
write:0D 03 00 38 00 34 C5 1C
77 77 77
heart:77 77 77 2E 75 73 72 2E 63 6E
write:0D 03 07 CF 00 78 74 6F
77 77 77
heart:77 77 77 2E 75 73 72 2E 63 6E
write:0D 03 01 0F 00 08 75 3F
write:1A 03 00 38 00 34 C6 3B
1A 03 68
2643 70 3B 64 43 70 C0 00 43 70 41 06 43 D0 3C 4A 43 D0 3C 4A 43 D0 04 DD 40 40 00 00 40 6E 14 7B 40 95 C2 8F 43 B4 00 00 43 F0 00 00 44 16 00 00 44 C3 00 00 43 B4 00 00 43 F0 00 00 44 34 00 00 44 D2 00 00 44 34 00 00 44 70 00 00 44 87 00 00 45 0E 80 00 3F 01 06 25 3F 17 0A 3D 3F 0C 8B 44 3F 2E D9 17 42 47 1B 40
write:1A 03 07 CF 00 78 77 48
1A 03 F0
26totalsize 240
44 F0 4C CD 43 53 CC CD 44 87 13 33 00 00 00 00 44 1D 59 9A 00 00 00 00 00 00 00 00 00 00 00 00 00 00 00 00 00 00 00 00 42 9A CC CD 40 99 99 9A 42 20 CC CD 00 00 00 00 41 FE 66 66 44 6B CC CD 43 19 00 00 43 CA 80 00 00 00 00 00 43 C0 00 00 44 AC E0 00 43 0E CC CD 44 4A 33 33 00 00 00 00 43 D7 19 9A 00 00 00 00 00 00 00 00 00 00 00 00 00 00 00 00 00 00 00 00 40 C0 00 00 3F E6 66 66 40 19 99 9A 00 00 00 00 3F 99 99 9A 44 70 00 00 43 11 33 33 43 D5 4C CD 00 00 00 00 43 C1 CC CD 44 E4 00 00 42 EE CC CD 44 94 20 00 00 00 00 00 44 01 E6 66 00 00 00 00 00 00 00 00 00 00 00 00 00 00 00 00 00 00 00 00 42 0B 33 33 00 00 00 00 41 D3 33 33 00 00 00 00 41 06 66 66 44 3E F3 33 42 F7 33 33 43 9F E6 66 00 00 00 00 43 9F 28 D2
write:1A 03 01 0F 00 08 76 18
1A 03 10
2600 02 8C 24 00 00 00 00 00 00 3E 05 00 00 30 8A
43 70 3B 64
240.232
43 70 C0 00
240.75
43 70 41 06
240.254
43 D0 3C 4A
416.471
43 D0 3C 4A
416.471
43 D0 04 DD
416.038
40 40 00 00
3
40 6E 14 7B
3.72
40 95 C2 8F
4.68
43 B4 00 00
360
43 F0 00 00
480
44 16 00 00
600
44 C3 00 00
1560
43 B4 00 00
360
43 F0 00 00
480
44 34 00 00
720
44 D2 00 00
1680
44 34 00 00
720
44 70 00 00
960
44 87 00 00
1080
45 0E 80 00
2280
3F 01 06 25
0.504
3F 17 0A 3D
0.59
3F 0C 8B 44
0.549
3F 2E D9 17
0.683
42 47 1B 40
49.77661
44 F0 4C CD
1922.4
43 53 CC CD
211.8
44 87 13 33
1080.6
00 00 00 00
0
44 1D 59 9A
629.4
00 00 00 00
0
00 00 00 00
0
00 00 00 00
0
00 00 00 00
0
00 00 00 00
0
42 9A CC CD
77.4
40 99 99 9A
4.8
42 20 CC CD
40.2
00 00 00 00
0
41 FE 66 66
31.8
44 6B CC CD
943.2
43 19 00 00
153
43 CA 80 00
405
00 00 00 00
0
43 C0 00 00
384
44 AC E0 00
1383
43 0E CC CD
142.8
44 4A 33 33
808.8
00 00 00 00
0
43 D7 19 9A
430.2
00 00 00 00
0
00 00 00 00
0
00 00 00 00
0
00 00 00 00
0
00 00 00 00
0
40 C0 00 00
6
3F E6 66 66
1.8
40 19 99 9A
2.4
00 00 00 00
0
3F 99 99 9A
1.2
44 70 00 00
960
43 11 33 33
145.2
43 D5 4C CD
426.6
00 00 00 00
0
43 C1 CC CD
387.6
44 E4 00 00
1824
42 EE CC CD
119.4
44 94 20 00
1185
00 00 00 00
0
44 01 E6 66
519.6
00 00 00 00
0
00 00 00 00
0
00 00 00 00
0
00 00 00 00
0
00 00 00 00
0
42 0B 33 33
34.8
00 00 00 00
0
41 D3 33 33
26.4
00 00 00 00
0
41 06 66 66
8.4
44 3E F3 33
763.8
42 F7 33 33
123.6
43 9F E6 66
319.8
00 00 00 00
0
43 9F 28 D2
318.3189
00 02 8C 24
166948
00 00 00 00
0
00 00 3E 05
15877
00 00 30 8A
12426
240.232240.75240.254416.471416.471416.03833.724.6836048060015603604807201680720960108022800.5040.590.5490.68349.776611922.4211.81080.60629.40000077.44.840.2031.8943.215340503841383142.8808.80430.20000061.82.401.2960145.2426.60387.61824119.411850519.60000034.8026.408.4763.8123.6319.80318.31892620171128012748166.948015.87712.426insert into tbl_power_info_v2(P_A_DIANYA,P_B_DIANYA,P_C_DIANYA,P_UAB_XIANDIANYA,P_UBC_XIANDIANYA,P_UCA_XIANDIANYA,P_A_DIANLIU,P_B_DIANLIU,P_C_DIANLIU,P_A_YGGL,P_B_YGGL,P_C_YGGL,P_HXYGGL,P_A_WGGL,P_B_WGGL,P_C_WGGL,P_HXWGGL,P_A_SZGL,P_B_SZGL,P_C_SZGL,P_HXSZGL,P_A_GLYS,P_B_GLYS,P_C_GLYS,P_HXGLYS,P_DWPL,P_BY_KwhZ,P_BY_KwhJ,P_BY_KwhF,P_BY_KwhP,P_BY_KwhG,P_BY_HKwhZ,P_BY_HKwhJ,P_BY_HKwhF,P_BY_HKwhP,P_BY_HKwhG, P_BY_KvarhZ,P_BY_KvarhJ,P_BY_KvarhF,P_BY_KvarhP,P_BY_KvarhG, P_BY_HKvarhZ,P_BY_HKvarhJ,P_BY_HKvarhF,P_BY_HKvarhP,P_BY_HKvarhG, P_SY_KwhZ,P_SY_KwhJ,P_SY_KwhF,P_SY_KwhP,P_SY_KwhG, P_SY_HKwhZ,P_SY_HKwhJ,P_SY_HKwhF,P_SY_HKwhP,P_SY_HKwhG, P_SY_KvarhZ,P_SY_KvarhJ,P_SY_KvarhF,P_SY_KvarhP,P_SY_KvarhG, P_SY_HKvarhZ,P_SY_HKvarhJ,P_SY_HKvarhF,P_SY_HKvarhP,P_SY_HKvarhG, P_SSY_KwhZ,P_SSY_KwhJ,P_SSY_KwhF,P_SSY_KwhP,P_SSY_KwhG, P_SSY_HKwhZ,P_SSY_HKwhJ,P_SSY_HKwhF,P_SSY_HKwhP,P_SSY_HKwhG, P_SSY_KvarhZ,P_SSY_KvarhJ,P_SSY_KvarhF,P_SSY_KvarhP,P_SSY_KvarhG, P_SSY_HKvarhZ,P_SSY_HKvarhJ,P_SSY_HKvarhF,P_SSY_HKvarhP,P_SSY_HKvarhG,P_CODE,P_TIME,P_ZXYGDN,P_FXYGDN,P_ZXWGDN,P_FXWGDN)values(240.232,240.75,240.254,416.471,416.471,416.038,3,3.72,4.68,360,480,600,1560,360,480,720,1680,720,960,1080,2280,0.504,0.59,0.549,0.683,49.77661,1922.4,211.8,1080.6,0,629.4,0,0,0,0,0,77.4,4.8,40.2,0,31.8,943.2,153,405,0,384,1383,142.8,808.8,0,430.2,0,0,0,0,0,6,1.8,2.4,0,1.2,960,145.2,426.6,0,387.6,1824,119.4,1185,0,519.6,0,0,0,0,0,34.8,0,26.4,0,8.4,763.8,123.6,319.8,0,318.3189,26,20171128012748,166.948,0,15.877,12.426)
写入成功读取完毕一个
write:1B 03 00 38 00 34 C7 EA
1B 03 68
2743 70 55 81 43 70 9B E7 43 70 60 C5 43 D0 3C 4A 43 D0 3C 4A 43 D0 1B 02 00 00 00 00 00 00 00 00 00 00 00 00 00 00 00 00 00 00 00 00 00 00 00 00 00 00 00 00 00 00 00 00 00 00 00 00 00 00 00 00 00 00 00 00 00 00 00 00 00 00 00 00 00 00 00 00 00 00 00 00 00 00 00 00 00 00 00 00 00 00 00 00 00 00 00 00 00 00 00 00
00 00 00
heart:00 00 00 00 00 00 00 00 00 00 00 00 00 00 00 00 00 00 00 00 00 00 00 00 00 00 00 00 00 00 00 00 00 00 00 43 70 00 00 00 00 00 00 00 00 00 00 00 00 00 00 3F 5E B8 52 42 48 34 B1
write:1B 03 07 CF 00 78 76 99
1B 03 F0
27totalsize 240
45 1F A3 33 41 E1 99 9A 44 F8 2C CD 00 00 00 00 44 07 00 00 00 00 00 00 00 00 00 00 00 00 00 00 00 00 00 00 00 00 00 00 44 40 C0 00 41 9E 66 66 44 07 26 66 00 00 00 00 43 52 00 00 00 00 00 00 00 00 00 00 00 00 00 00 00 00 00 00 00 00 00 00 45 10 D3 33 41 F9 99 9A 44 E5 33 33 00 00 00 00 43 E1 E6 66 00 00 00 00 00 00 00 00 00 00 00 00 00 00 00 00 00 00 00 00 44 24 40 00 41 86 66 66 43 E5 CC CD 00 00 00 00 43 34 99 9A 00 00 00 00 00 00 00 00 00 00 00 00 00 00 00 00 00 00 00 00 45 1D 76 66 42 4E 66 66 44 F5 19 9A 00 00 00 00 43 FD 33 33 00 00 00 00 00 00 00 00 00 00 00 00 00 00 00 00 00 00 00 00 44 73 99 9A 42 34 00 00 44 1E 8C CD 00 00 00 00 43 93 4C CD 00 00 00 00 00 00 00 00 00 00 00 00 00 00 00 00 00 00 C5 1F
write:1B 03 01 0F 00 08 77 C9
1B 03 10
2700 02 37 EC 00 00 00 00 00 00 DB C0 00 00 5B C1
43 70 55 81
240.334
43 70 9B E7
240.609
43 70 60 C5
240.378
43 D0 3C 4A
416.471
43 D0 3C 4A
416.471
43 D0 1B 02
416.211
00 00 00 00
0
00 00 00 00
0
00 00 00 00
0
00 00 00 00
0
00 00 00 00
0
00 00 00 00
0
00 00 00 00
0
00 00 00 00
0
00 00 00 00
0
00 00 00 00
0
00 00 00 00
0
00 00 00 00
0
00 00 00 00
0
00 00 00 00
0
00 00 00 00
0
00 00 00 00
0
00 00 00 00
0
00 00 00 00
0
00 00 00 00
0
00 00 00 00
0
45 1F A3 33
2554.2
41 E1 99 9A
28.2
44 F8 2C CD
1985.4
00 00 00 00
0
44 07 00 00
540
00 00 00 00
0
00 00 00 00
0
00 00 00 00
0
00 00 00 00
0
00 00 00 00
0
44 40 C0 00
771
41 9E 66 66
19.8
44 07 26 66
540.6
00 00 00 00
0
43 52 00 00
210
00 00 00 00
0
00 00 00 00
0
00 00 00 00
0
00 00 00 00
0
00 00 00 00
0
45 10 D3 33
2317.2
41 F9 99 9A
31.2
44 E5 33 33
1833.6
00 00 00 00
0
43 E1 E6 66
451.8
00 00 00 00
0
00 00 00 00
0
00 00 00 00
0
00 00 00 00
0
00 00 00 00
0
44 24 40 00
657
41 86 66 66
16.8
43 E5 CC CD
459.6
00 00 00 00
0
43 34 99 9A
180.6
00 00 00 00
0
00 00 00 00
0
00 00 00 00
0
00 00 00 00
0
00 00 00 00
0
45 1D 76 66
2519.4
42 4E 66 66
51.6
44 F5 19 9A
1960.8
00 00 00 00
0
43 FD 33 33
506.4
00 00 00 00
0
00 00 00 00
0
00 00 00 00
0
00 00 00 00
0
00 00 00 00
0
44 73 99 9A
974.4
42 34 00 00
45
44 1E 8C CD
634.2
00 00 00 00
0
43 93 4C CD
294.6
00 00 00 00
0
00 00 00 00
0
00 00 00 00
0
00 00 00 00
0
00 00 C5 1F
7.0714e-41
00 02 37 EC
145388
00 00 00 00
0
00 00 DB C0
56256
00 00 5B C1
23489
240.334240.609240.378416.471416.471416.211000000000000000000002554.228.21985.405400000077119.8540.60210000002317.231.21833.60451.80000065716.8459.60180.6000002519.451.61960.80506.400000974.445634.20294.600007.0714e-412720171128012847145.388056.25623.489insert into tbl_power_info_v2(P_A_DIANYA,P_B_DIANYA,P_C_DIANYA,P_UAB_XIANDIANYA,P_UBC_XIANDIANYA,P_UCA_XIANDIANYA,P_A_DIANLIU,P_B_DIANLIU,P_C_DIANLIU,P_A_YGGL,P_B_YGGL,P_C_YGGL,P_HXYGGL,P_A_WGGL,P_B_WGGL,P_C_WGGL,P_HXWGGL,P_A_SZGL,P_B_SZGL,P_C_SZGL,P_HXSZGL,P_A_GLYS,P_B_GLYS,P_C_GLYS,P_HXGLYS,P_DWPL,P_BY_KwhZ,P_BY_KwhJ,P_BY_KwhF,P_BY_KwhP,P_BY_KwhG,P_BY_HKwhZ,P_BY_HKwhJ,P_BY_HKwhF,P_BY_HKwhP,P_BY_HKwhG, P_BY_KvarhZ,P_BY_KvarhJ,P_BY_KvarhF,P_BY_KvarhP,P_BY_KvarhG, P_BY_HKvarhZ,P_BY_HKvarhJ,P_BY_HKvarhF,P_BY_HKvarhP,P_BY_HKvarhG, P_SY_KwhZ,P_SY_KwhJ,P_SY_KwhF,P_SY_KwhP,P_SY_KwhG, P_SY_HKwhZ,P_SY_HKwhJ,P_SY_HKwhF,P_SY_HKwhP,P_SY_HKwhG, P_SY_KvarhZ,P_SY_KvarhJ,P_SY_KvarhF,P_SY_KvarhP,P_SY_KvarhG, P_SY_HKvarhZ,P_SY_HKvarhJ,P_SY_HKvarhF,P_SY_HKvarhP,P_SY_HKvarhG, P_SSY_KwhZ,P_SSY_KwhJ,P_SSY_KwhF,P_SSY_KwhP,P_SSY_KwhG, P_SSY_HKwhZ,P_SSY_HKwhJ,P_SSY_HKwhF,P_SSY_HKwhP,P_SSY_HKwhG, P_SSY_KvarhZ,P_SSY_KvarhJ,P_SSY_KvarhF,P_SSY_KvarhP,P_SSY_KvarhG, P_SSY_HKvarhZ,P_SSY_HKvarhJ,P_SSY_HKvarhF,P_SSY_HKvarhP,P_SSY_HKvarhG,P_CODE,P_TIME,P_ZXYGDN,P_FXYGDN,P_ZXWGDN,P_FXWGDN)values(240.334,240.609,240.378,416.471,416.471,416.211,0,0,0,0,0,0,0,0,0,0,0,0,0,0,0,0,0,0,0,0,2554.2,28.2,1985.4,0,540,0,0,0,0,0,771,19.8,540.6,0,210,0,0,0,0,0,2317.2,31.2,1833.6,0,451.8,0,0,0,0,0,657,16.8,459.6,0,180.6,0,0,0,0,0,2519.4,51.6,1960.8,0,506.4,0,0,0,0,0,974.4,45,634.2,0,294.6,0,0,0,0,7.0714e-41,27,20171128012847,145.388,0,56.256,23.489)
写入成功读取完毕一个
write:1C 03 00 38 00 34 C6 5D
77 77 77
heart:77 77 77 2E 75 73 72 2E 63 6E
write:1C 03 07 CF 00 78 77 2E
write:1C 03 01 0F 00 08 76 7E
77 77 77
heart:77 77 77 2E 75 73 72 2E 63 6E
write:1D 03 00 38 00 34 C7 8C
77 77 77
heart:77 77 77 2E 75 73 72 2E 63 6E
write:1D 03 07 CF 00 78 76 FF
write:1D 03 01 0F 00 08 77 AF
77 77 77
heart:77 77 77 2E 75 73 72 2E 63 6E
write:1E 03 00 38 00 34 C7 BF
77 77 77
heart:77 77 77 2E 75 73 72 2E 63 6E
write:1E 03 07 CF 00 78 76 CC
write:1E 03 01 0F 00 08 77 9C
77 77 77
heart:77 77 77 2E 75 73 72 2E 63 6E
write:1F 03 00 38 00 34 C6 6E
77 77 77
heart:77 77 77 2E 75 73 72 2E 63 6E
write:1F 03 07 CF 00 78 77 1D
write:1F 03 01 0F 00 08 76 4D
77 77 77
heart:77 77 77 2E 75 73 72 2E 63 6E
write:20 03 00 38 00 34 C3 61
77 77 77
heart:77 77 77 2E 75 73 72 2E 63 6E
write:20 03 07 CF 00 78 72 12
write:20 03 01 0F 00 08 73 42
77 77 77
heart:77 77 77 2E 75 73 72 2E 63 6E
write:0A 03 00 38 00 34 C4 AB
77 77 77
heart:77 77 77 2E 75 73 72 2E 63 6E
write:0A 03 07 CF 00 78 75 D8
77 77 77
heart:77 77 77 2E 75 73 72 2E 63 6E
write:0A 03 01 0F 00 08 74 88
write:0B 03 00 38 00 34 C5 7A
77 77 77
heart:77 77 77 2E 75 73 72 2E 63 6E
write:0B 03 07 CF 00 78 74 09
77 77 77
heart:77 77 77 2E 75 73 72 2E 63 6E
write:0B 03 01 0F 00 08 75 59
write:0C 03 00 38 00 34 C4 CD
77 77 77
heart:77 77 77 2E 75 73 72 2E 63 6E
write:0C 03 07 CF 00 78 75 BE
77 77 77
heart:77 77 77 2E 75 73 72 2E 63 6E
write:0C 03 01 0F 00 08 74 EE
write:0D 03 00 38 00 34 C5 1C
77 77 77
heart:77 77 77 2E 75 73 72 2E 63 6E
write:0D 03 07 CF 00 78 74 6F
77 77 77
heart:77 77 77 2E 75 73 72 2E 63 6E
write:0D 03 01 0F 00 08 75 3F
write:1A 03 00 38 00 34 C6 3B
1A 03 68
2643 6F F0 21 43 70 3F 3B 43 70 43 D7 43 CF E3 96 43 D0 04 DD 43 CF E3 96 40 40 00 00 40 75 C2 8F 40 99 99 9A 43 B4 00 00 43 F0 00 00 44 16 00 00 44 C3 00 00 43 B4 00 00 43 F0 00 00 44 34 00 00 44 D2 00 00 44 34 00 00 44 70 00 00 44 96 00 00 45 0E 80 00 3E FD 70 A4 3F 16 C8 B4 3F 0A C0 83 3F 2E 97 8D 42 48 7C CD
write:1A 03 07 CF 00 78 77 48
1A 03 F0
26totalsize 240
44 F0 4C CD 43 53 CC CD 44 87 13 33 00 00 00 00 44 1D 59 9A 00 00 00 00 00 00 00 00 00 00 00 00 00 00 00 00 00 00 00 00 42 9A CC CD 40 99 99 9A 42 20 CC CD 00 00 00 00 41 FE 66 66 44 6B CC CD 43 19 00 00 43 CA 80 00 00 00 00 00 43 C0 4C CD 44 AC E0 00 43 0E CC CD 44 4A 33 33 00 00 00 00 43 D7 19 9A 00 00 00 00 00 00 00 00 00 00 00 00 00 00 00 00 00 00 00 00 40 C0 00 00 3F E6 66 66 40 19 99 9A 00 00 00 00 3F 99 99 9A 44 70 00 00 43 11 33 33 43 D5 4C CD 00 00 00 00 43 C1 CC CD 44 E4 00 00 42 EE CC CD 44 94 20 00 00 00 00 00 44 01 E6 66 00 00 00 00 00 00 00 00 00 00 00 00 00 00 00 00 00 00 00 00 42 0B 33 33 00 00 00 00 41 D3 33 33 00 00 00 00 41 06 66 66 44 3E F3 33 42 F7 33 33 43 9F E6 66 00 00 00 00 43 9F 2A BA
write:1A 03 01 0F 00 08 76 18
1A 03 10
2600 02 8C 26 00 00 00 00 00 00 3E 05 00 00 3B 32
43 6F F0 21
239.938
43 70 3F 3B
240.247
43 70 43 D7
240.265
43 CF E3 96
415.778
43 D0 04 DD
416.038
43 CF E3 96
415.778
40 40 00 00
3
40 75 C2 8F
3.84
40 99 99 9A
4.8
43 B4 00 00
360
43 F0 00 00
480
44 16 00 00
600
44 C3 00 00
1560
43 B4 00 00
360
43 F0 00 00
480
44 34 00 00
720
44 D2 00 00
1680
44 34 00 00
720
44 70 00 00
960
44 96 00 00
1200
45 0E 80 00
2280
3E FD 70 A4
0.495
3F 16 C8 B4
0.589
3F 0A C0 83
0.542
3F 2E 97 8D
0.682
42 48 7C CD
50.121876
44 F0 4C CD
1922.4
43 53 CC CD
211.8
44 87 13 33
1080.6
00 00 00 00
0
44 1D 59 9A
629.4
00 00 00 00
0
00 00 00 00
0
00 00 00 00
0
00 00 00 00
0
00 00 00 00
0
42 9A CC CD
77.4
40 99 99 9A
4.8
42 20 CC CD
40.2
00 00 00 00
0
41 FE 66 66
31.8
44 6B CC CD
943.2
43 19 00 00
153
43 CA 80 00
405
00 00 00 00
0
43 C0 4C CD
384.6
44 AC E0 00
1383
43 0E CC CD
142.8
44 4A 33 33
808.8
00 00 00 00
0
43 D7 19 9A
430.2
00 00 00 00
0
00 00 00 00
0
00 00 00 00
0
00 00 00 00
0
00 00 00 00
0
40 C0 00 00
6
3F E6 66 66
1.8
40 19 99 9A
2.4
00 00 00 00
0
3F 99 99 9A
1.2
44 70 00 00
960
43 11 33 33
145.2
43 D5 4C CD
426.6
00 00 00 00
0
43 C1 CC CD
387.6
44 E4 00 00
1824
42 EE CC CD
119.4
44 94 20 00
1185
00 00 00 00
0
44 01 E6 66
519.6
00 00 00 00
0
00 00 00 00
0
00 00 00 00
0
00 00 00 00
0
00 00 00 00
0
42 0B 33 33
34.8
00 00 00 00
0
41 D3 33 33
26.4
00 00 00 00
0
41 06 66 66
8.4
44 3E F3 33
763.8
42 F7 33 33
123.6
43 9F E6 66
319.8
00 00 00 00
0
43 9F 2A BA
318.3338
00 02 8C 26
166950
00 00 00 00
0
00 00 3E 05
15877
00 00 3B 32
15154
239.938240.247240.265415.778416.038415.77833.844.836048060015603604807201680720960120022800.4950.5890.5420.68250.1218761922.4211.81080.60629.40000077.44.840.2031.8943.21534050384.61383142.8808.80430.20000061.82.401.2960145.2426.60387.61824119.411850519.60000034.8026.408.4763.8123.6319.80318.33382620171128013855166.95015.87715.154insert into tbl_power_info_v2(P_A_DIANYA,P_B_DIANYA,P_C_DIANYA,P_UAB_XIANDIANYA,P_UBC_XIANDIANYA,P_UCA_XIANDIANYA,P_A_DIANLIU,P_B_DIANLIU,P_C_DIANLIU,P_A_YGGL,P_B_YGGL,P_C_YGGL,P_HXYGGL,P_A_WGGL,P_B_WGGL,P_C_WGGL,P_HXWGGL,P_A_SZGL,P_B_SZGL,P_C_SZGL,P_HXSZGL,P_A_GLYS,P_B_GLYS,P_C_GLYS,P_HXGLYS,P_DWPL,P_BY_KwhZ,P_BY_KwhJ,P_BY_KwhF,P_BY_KwhP,P_BY_KwhG,P_BY_HKwhZ,P_BY_HKwhJ,P_BY_HKwhF,P_BY_HKwhP,P_BY_HKwhG, P_BY_KvarhZ,P_BY_KvarhJ,P_BY_KvarhF,P_BY_KvarhP,P_BY_KvarhG, P_BY_HKvarhZ,P_BY_HKvarhJ,P_BY_HKvarhF,P_BY_HKvarhP,P_BY_HKvarhG, P_SY_KwhZ,P_SY_KwhJ,P_SY_KwhF,P_SY_KwhP,P_SY_KwhG, P_SY_HKwhZ,P_SY_HKwhJ,P_SY_HKwhF,P_SY_HKwhP,P_SY_HKwhG, P_SY_KvarhZ,P_SY_KvarhJ,P_SY_KvarhF,P_SY_KvarhP,P_SY_KvarhG, P_SY_HKvarhZ,P_SY_HKvarhJ,P_SY_HKvarhF,P_SY_HKvarhP,P_SY_HKvarhG, P_SSY_KwhZ,P_SSY_KwhJ,P_SSY_KwhF,P_SSY_KwhP,P_SSY_KwhG, P_SSY_HKwhZ,P_SSY_HKwhJ,P_SSY_HKwhF,P_SSY_HKwhP,P_SSY_HKwhG, P_SSY_KvarhZ,P_SSY_KvarhJ,P_SSY_KvarhF,P_SSY_KvarhP,P_SSY_KvarhG, P_SSY_HKvarhZ,P_SSY_HKvarhJ,P_SSY_HKvarhF,P_SSY_HKvarhP,P_SSY_HKvarhG,P_CODE,P_TIME,P_ZXYGDN,P_FXYGDN,P_ZXWGDN,P_FXWGDN)values(239.938,240.247,240.265,415.778,416.038,415.778,3,3.84,4.8,360,480,600,1560,360,480,720,1680,720,960,1200,2280,0.495,0.589,0.542,0.682,50.121876,1922.4,211.8,1080.6,0,629.4,0,0,0,0,0,77.4,4.8,40.2,0,31.8,943.2,153,405,0,384.6,1383,142.8,808.8,0,430.2,0,0,0,0,0,6,1.8,2.4,0,1.2,960,145.2,426.6,0,387.6,1824,119.4,1185,0,519.6,0,0,0,0,0,34.8,0,26.4,0,8.4,763.8,123.6,319.8,0,318.3338,26,20171128013855,166.95,0,15.877,15.154)
写入成功读取完毕一个
write:1B 03 00 38 00 34 C7 EA
1B 03 68
2743 6F D1 EC 43 70 40 83 43 70 1A 5E 43 CF D8 93 43 CF F9 DB 43 CF CD 71 00 00 00 00 00 00 00 00 00 00 00 00 00 00 00 00 00 00 00 00 00 00 00 00 00 00 00 00 00 00 00 00 00 00 00 00 00 00 00 00 00 00 00 00 00 00 00 00 00 00 00 00 00 00 00 00 43 70 00 00 00 00 00 00 00 00 00 00 00 00 00 00 3F 5D B2 2D 42 48 99 0F
write:1B 03 07 CF 00 78 76 99
1B 03 F0
27totalsize 240
45 1F A3 33 41 E1 99 9A 44 F8 2C CD 00 00 00 00 44 07 00 00 00 00 00 00 00 00 00 00 00 00 00 00 00 00 00 00 00 00 00 00 44 40 C0 00 41 9E 66 66 44 07 26 66 00 00 00 00 43 52 00 00 00 00 00 00 00 00 00 00 00 00 00 00 00 00 00 00 00 00 00 00 45 10 D3 33 41 F9 99 9A 44 E5 33 33 00 00 00 00 43 E1 E6 66 00 00 00 00 00 00 00 00 00 00 00 00 00 00 00 00 00 00 00 00 44 24 40 00 41 86 66 66 43 E5 CC CD 00 00 00 00 43 34 99 9A 00 00 00 00 00 00 00 00 00 00 00 00 00 00 00 00 00 00 00 00 45 1D 76 66 42 4E 66 66 44 F5 19 9A 00 00 00 00 43 FD 33 33 00 00 00 00 00 00 00 00 00 00 00 00 00 00 00 00 00 00 00 00 44 73 99 9A 42 34 00 00 44 1E 8C CD 00 00 00 00 43 93 4C CD 00 00 00 00 00 00 00 00 00 00 00 00 00 00 00 00 00 00 C5 1F
write:1B 03 01 0F 00 08 77 C9
1B 03 10
2700 02 37 EC 00 00 00 00 00 00 DB C0 00 00 5B C1
43 6F D1 EC
239.82
43 70 40 83
240.252
43 70 1A 5E
240.103
43 CF D8 93
415.692
43 CF F9 DB
415.952
43 CF CD 71
415.605
00 00 00 00
0
00 00 00 00
0
00 00 00 00
0
00 00 00 00
0
00 00 00 00
0
00 00 00 00
0
00 00 00 00
0
00 00 00 00
0
00 00 00 00
0
00 00 00 00
0
00 00 00 00
0
00 00 00 00
0
00 00 00 00
0
00 00 00 00
0
43 70 00 00
240
00 00 00 00
0
00 00 00 00
0
00 00 00 00
0
3F 5D B2 2D
0.866
42 48 99 0F
50.14947
45 1F A3 33
2554.2
41 E1 99 9A
28.2
44 F8 2C CD
1985.4
00 00 00 00
0
44 07 00 00
540
00 00 00 00
0
00 00 00 00
0
00 00 00 00
0
00 00 00 00
0
00 00 00 00
0
44 40 C0 00
771
41 9E 66 66
19.8
44 07 26 66
540.6
00 00 00 00
0
43 52 00 00
210
00 00 00 00
0
00 00 00 00
0
00 00 00 00
0
00 00 00 00
0
00 00 00 00
0
45 10 D3 33
2317.2
41 F9 99 9A
31.2
44 E5 33 33
1833.6
00 00 00 00
0
43 E1 E6 66
451.8
00 00 00 00
0
00 00 00 00
0
00 00 00 00
0
00 00 00 00
0
00 00 00 00
0
44 24 40 00
657
41 86 66 66
16.8
43 E5 CC CD
459.6
00 00 00 00
0
43 34 99 9A
180.6
00 00 00 00
0
00 00 00 00
0
00 00 00 00
0
00 00 00 00
0
00 00 00 00
0
45 1D 76 66
2519.4
42 4E 66 66
51.6
44 F5 19 9A
1960.8
00 00 00 00
0
43 FD 33 33
506.4
00 00 00 00
0
00 00 00 00
0
00 00 00 00
0
00 00 00 00
0
00 00 00 00
0
44 73 99 9A
974.4
42 34 00 00
45
44 1E 8C CD
634.2
00 00 00 00
0
43 93 4C CD
294.6
00 00 00 00
0
00 00 00 00
0
00 00 00 00
0
00 00 00 00
0
00 00 C5 1F
7.0714e-41
00 02 37 EC
145388
00 00 00 00
0
00 00 DB C0
56256
00 00 5B C1
23489
239.82240.252240.103415.692415.952415.605000000000000002400000.86650.149472554.228.21985.405400000077119.8540.60210000002317.231.21833.60451.80000065716.8459.60180.6000002519.451.61960.80506.400000974.445634.20294.600007.0714e-412720171128013954145.388056.25623.489insert into tbl_power_info_v2(P_A_DIANYA,P_B_DIANYA,P_C_DIANYA,P_UAB_XIANDIANYA,P_UBC_XIANDIANYA,P_UCA_XIANDIANYA,P_A_DIANLIU,P_B_DIANLIU,P_C_DIANLIU,P_A_YGGL,P_B_YGGL,P_C_YGGL,P_HXYGGL,P_A_WGGL,P_B_WGGL,P_C_WGGL,P_HXWGGL,P_A_SZGL,P_B_SZGL,P_C_SZGL,P_HXSZGL,P_A_GLYS,P_B_GLYS,P_C_GLYS,P_HXGLYS,P_DWPL,P_BY_KwhZ,P_BY_KwhJ,P_BY_KwhF,P_BY_KwhP,P_BY_KwhG,P_BY_HKwhZ,P_BY_HKwhJ,P_BY_HKwhF,P_BY_HKwhP,P_BY_HKwhG, P_BY_KvarhZ,P_BY_KvarhJ,P_BY_KvarhF,P_BY_KvarhP,P_BY_KvarhG, P_BY_HKvarhZ,P_BY_HKvarhJ,P_BY_HKvarhF,P_BY_HKvarhP,P_BY_HKvarhG, P_SY_KwhZ,P_SY_KwhJ,P_SY_KwhF,P_SY_KwhP,P_SY_KwhG, P_SY_HKwhZ,P_SY_HKwhJ,P_SY_HKwhF,P_SY_HKwhP,P_SY_HKwhG, P_SY_KvarhZ,P_SY_KvarhJ,P_SY_KvarhF,P_SY_KvarhP,P_SY_KvarhG, P_SY_HKvarhZ,P_SY_HKvarhJ,P_SY_HKvarhF,P_SY_HKvarhP,P_SY_HKvarhG, P_SSY_KwhZ,P_SSY_KwhJ,P_SSY_KwhF,P_SSY_KwhP,P_SSY_KwhG, P_SSY_HKwhZ,P_SSY_HKwhJ,P_SSY_HKwhF,P_SSY_HKwhP,P_SSY_HKwhG, P_SSY_KvarhZ,P_SSY_KvarhJ,P_SSY_KvarhF,P_SSY_KvarhP,P_SSY_KvarhG, P_SSY_HKvarhZ,P_SSY_HKvarhJ,P_SSY_HKvarhF,P_SSY_HKvarhP,P_SSY_HKvarhG,P_CODE,P_TIME,P_ZXYGDN,P_FXYGDN,P_ZXWGDN,P_FXWGDN)values(239.82,240.252,240.103,415.692,415.952,415.605,0,0,0,0,0,0,0,0,0,0,0,0,0,0,240,0,0,0,0.866,50.14947,2554.2,28.2,1985.4,0,540,0,0,0,0,0,771,19.8,540.6,0,210,0,0,0,0,0,2317.2,31.2,1833.6,0,451.8,0,0,0,0,0,657,16.8,459.6,0,180.6,0,0,0,0,0,2519.4,51.6,1960.8,0,506.4,0,0,0,0,0,974.4,45,634.2,0,294.6,0,0,0,0,7.0714e-41,27,20171128013954,145.388,0,56.256,23.489)
写入成功读取完毕一个
write:1C 03 00 38 00 34 C6 5D
77 77 77
heart:77 77 77 2E 75 73 72 2E 63 6E
write:1C 03 07 CF 00 78 77 2E
write:1C 03 01 0F 00 08 76 7E
77 77 77
heart:77 77 77 2E 75 73 72 2E 63 6E
write:1D 03 00 38 00 34 C7 8C
77 77 77
heart:77 77 77 2E 75 73 72 2E 63 6E
write:1D 03 07 CF 00 78 76 FF
write:1D 03 01 0F 00 08 77 AF
77 77 77
heart:77 77 77 2E 75 73 72 2E 63 6E
write:1E 03 00 38 00 34 C7 BF
77 77 77
heart:77 77 77 2E 75 73 72 2E 63 6E
write:1E 03 07 CF 00 78 76 CC
write:1E 03 01 0F 00 08 77 9C
77 77 77
heart:77 77 77 2E 75 73 72 2E 63 6E
write:1F 03 00 38 00 34 C6 6E
77 77 77
heart:77 77 77 2E 75 73 72 2E 63 6E
write:1F 03 07 CF 00 78 77 1D
write:1F 03 01 0F 00 08 76 4D
77 77 77
heart:77 77 77 2E 75 73 72 2E 63 6E
write:20 03 00 38 00 34 C3 61
77 77 77
heart:77 77 77 2E 75 73 72 2E 63 6E
write:20 03 07 CF 00 78 72 12
write:20 03 01 0F 00 08 73 42
77 77 77
heart:77 77 77 2E 75 73 72 2E 63 6E
write:0A 03 00 38 00 34 C4 AB
77 77 77
heart:77 77 77 2E 75 73 72 2E 63 6E
write:0A 03 07 CF 00 78 75 D8
77 77 77
heart:77 77 77 2E 75 73 72 2E 63 6E
write:0A 03 01 0F 00 08 74 88
write:0B 03 00 38 00 34 C5 7A
77 77 77
heart:77 77 77 2E 75 73 72 2E 63 6E
write:0B 03 07 CF 00 78 74 09
write:0B 03 01 0F 00 08 75 59
77 77 77
heart:77 77 77 2E 75 73 72 2E 63 6E
write:0C 03 00 38 00 34 C4 CD
77 77 77
heart:77 77 77 2E 75 73 72 2E 63 6E
write:0C 03 07 CF 00 78 75 BE
write:0C 03 01 0F 00 08 74 EE
77 77 77
heart:77 77 77 2E 75 73 72 2E 63 6E
write:0D 03 00 38 00 34 C5 1C
77 77 77
heart:77 77 77 2E 75 73 72 2E 63 6E
write:0D 03 07 CF 00 78 74 6F
write:0D 03 01 0F 00 08 75 3F
77 77 77
heart:77 77 77 2E 75 73 72 2E 63 6E
write:1A 03 00 38 00 34 C6 3B
write:1A 03 07 CF 00 78 77 48
write:1A 03 01 0F 00 08 76 18
write:1B 03 00 38 00 34 C7 EA
1A 03 68
2643 70 03 D7 43 70 55 81 43 70 46 E9 43 CF F9 DB 43 D0 10 00 43 CF EE B8 40 40 00 00 40 6E 14 7B 40 95 C2 8F 43 B4 00 00 43 F0 00 00 44 16 00 00 44 C3 00 00 43 B4 00 00 43 F0 00 00 44 34 00 00 44 D2 00 00 44 34 00 00 44 70 00 00 44 87 00 00 45 0E 80 00 3F 00 83 12 3F 17 CE D9 3F 0B 43 96 3F 2E D9 17 42 48 66 B5
77 77 77
heart:77 77 77 2E 75 73 72 2E 63 6E 1A 03 F0 00 00 44 F0 60 00 43 53 CC CD 44 87 13 33 00 00 00 00 44 1D 80 00 00 00 00 00 00 00 00 00 00 00 00 00 00 00 00 00 00 00 00 00 42 9A CC CD 40 99 99 9A 42 20 CC CD 00 00 00 00 41 FE 66 66 44 6B F3 33 43 19 00 00 43 CA 80 00 00 00 00 00 43 C0 4C CD 44 AC E0 00 43 0E CC CD 44 4A 33 33 00 00 00 00 43 D7 19 9A 00 00 00 00 00 00 00 00 00 00 00 00 00 00 00 00 00 00 00 00 40 C0 00 00 3F E6 66 66 40 19 99 9A 00 00 00 00 3F 99 99 9A 44 70 00 00 43 11 33 33 43 D5 4C CD 00 00 00 00 43 C1 CC CD 44 E4 00 00 42 EE CC CD 44 94 20 00 00 00 00 00 44 01 E6 66 00 00 00 00 00 00 00 00 00 00 00 00 00 00 00 00 00 00 00 00 42 0B 33 33 00 00 00 00 41 D3 33 33 00 00 00 00 41 06 66 66 44 3E F3 33 42 F7 33 33 43 9F E6 66 00 00 00 00 43 9F 50 17 1A 03 10 00 00 00 02 8C 29 00 00 00 00 00 00 3E 05 00 00 0B 26
1B 03 68
2743 6F D8 D5 43 70 26 A8 43 6F E9 FC 43 CF CD 71 43 CF D8 93 43 CF B7 4C 00 00 00 00 00 00 00 00 00 00 00 00 43 70 00 00 00 00 00 00 43 70 00 00 44 16 00 00 43 70 00 00 00 00 00 00 43 70 00 00 43 F0 00 00 43 B4 00 00 00 00 00 00 43 B4 00 00 44 34 00 00 3F 21 06 25 00 00 00 00 3F 4F 5C 29 3F 44 5A 1D 42 48 08 E6
write:1B 03 07 CF 00 78 76 99
1B 03 F0
27totalsize 240
45 1F A3 33 41 E1 99 9A 44 F8 2C CD 00 00 00 00 44 07 00 00 00 00 00 00 00 00 00 00 00 00 00 00 00 00 00 00 00 00 00 00 44 40 C0 00 41 9E 66 66 44 07 26 66 00 00 00 00 43 52 00 00 00 00 00 00 00 00 00 00 00 00 00 00 00 00 00 00 00 00 00 00 45 10 D3 33 41 F9 99 9A 44 E5 33 33 00 00 00 00 43 E1 E6 66 00 00 00 00 00 00 00 00 00 00 00 00 00 00 00 00 00 00 00 00 44 24 40 00 41 86 66 66 43 E5 CC CD 00 00 00 00 43 34 99 9A 00 00 00 00 00 00 00 00 00 00 00 00 00 00 00 00 00 00 00 00 45 1D 76 66 42 4E 66 66 44 F5 19 9A 00 00 00 00 43 FD 33 33 00 00 00 00 00 00 00 00 00 00 00 00 00 00 00 00 00 00 00 00 44 73 99 9A 42 34 00 00 44 1E 8C CD 00 00 00 00 43 93 4C CD 00 00 00 00 00 00 00 00 00 00 00 00 00 00 00 00 00 00 C5 1F
write:1B 03 01 0F 00 08 77 C9
1B 03 10
2700 02 37 ED 00 00 00 00 00 00 DB C1 00 00 0E FD
43 6F D8 D5
239.847
43 70 26 A8
240.151
43 6F E9 FC
239.914
43 CF CD 71
415.605
43 CF D8 93
415.692
43 CF B7 4C
415.432
00 00 00 00
0
00 00 00 00
0
00 00 00 00
0
43 70 00 00
240
00 00 00 00
0
43 70 00 00
240
44 16 00 00
600
43 70 00 00
240
00 00 00 00
0
43 70 00 00
240
43 F0 00 00
480
43 B4 00 00
360
00 00 00 00
0
43 B4 00 00
360
44 34 00 00
720
3F 21 06 25
0.629
00 00 00 00
0
3F 4F 5C 29
0.81
3F 44 5A 1D
0.767
42 48 08 E6
50.00869
45 1F A3 33
2554.2
41 E1 99 9A
28.2
44 F8 2C CD
1985.4
00 00 00 00
0
44 07 00 00
540
00 00 00 00
0
00 00 00 00
0
00 00 00 00
0
00 00 00 00
0
00 00 00 00
0
44 40 C0 00
771
41 9E 66 66
19.8
44 07 26 66
540.6
00 00 00 00
0
43 52 00 00
210
00 00 00 00
0
00 00 00 00
0
00 00 00 00
0
00 00 00 00
0
00 00 00 00
0
45 10 D3 33
2317.2
41 F9 99 9A
31.2
44 E5 33 33
1833.6
00 00 00 00
0
43 E1 E6 66
451.8
00 00 00 00
0
00 00 00 00
0
00 00 00 00
0
00 00 00 00
0
00 00 00 00
0
44 24 40 00
657
41 86 66 66
16.8
43 E5 CC CD
459.6
00 00 00 00
0
43 34 99 9A
180.6
00 00 00 00
0
00 00 00 00
0
00 00 00 00
0
00 00 00 00
0
00 00 00 00
0
45 1D 76 66
2519.4
42 4E 66 66
51.6
44 F5 19 9A
1960.8
00 00 00 00
0
43 FD 33 33
506.4
00 00 00 00
0
00 00 00 00
0
00 00 00 00
0
00 00 00 00
0
00 00 00 00
0
44 73 99 9A
974.4
42 34 00 00
45
44 1E 8C CD
634.2
00 00 00 00
0
43 93 4C CD
294.6
00 00 00 00
0
00 00 00 00
0
00 00 00 00
0
00 00 00 00
0
00 00 C5 1F
7.0714e-41
00 02 37 ED
145389
00 00 00 00
0
00 00 DB C1
56257
00 00 0E FD
3837
239.847240.151239.914415.605415.692415.4320002400240600240024048036003607200.62900.810.76750.008692554.228.21985.405400000077119.8540.60210000002317.231.21833.60451.80000065716.8459.60180.6000002519.451.61960.80506.400000974.445634.20294.600007.0714e-412720171128015100145.389056.2573.837insert into tbl_power_info_v2(P_A_DIANYA,P_B_DIANYA,P_C_DIANYA,P_UAB_XIANDIANYA,P_UBC_XIANDIANYA,P_UCA_XIANDIANYA,P_A_DIANLIU,P_B_DIANLIU,P_C_DIANLIU,P_A_YGGL,P_B_YGGL,P_C_YGGL,P_HXYGGL,P_A_WGGL,P_B_WGGL,P_C_WGGL,P_HXWGGL,P_A_SZGL,P_B_SZGL,P_C_SZGL,P_HXSZGL,P_A_GLYS,P_B_GLYS,P_C_GLYS,P_HXGLYS,P_DWPL,P_BY_KwhZ,P_BY_KwhJ,P_BY_KwhF,P_BY_KwhP,P_BY_KwhG,P_BY_HKwhZ,P_BY_HKwhJ,P_BY_HKwhF,P_BY_HKwhP,P_BY_HKwhG, P_BY_KvarhZ,P_BY_KvarhJ,P_BY_KvarhF,P_BY_KvarhP,P_BY_KvarhG, P_BY_HKvarhZ,P_BY_HKvarhJ,P_BY_HKvarhF,P_BY_HKvarhP,P_BY_HKvarhG, P_SY_KwhZ,P_SY_KwhJ,P_SY_KwhF,P_SY_KwhP,P_SY_KwhG, P_SY_HKwhZ,P_SY_HKwhJ,P_SY_HKwhF,P_SY_HKwhP,P_SY_HKwhG, P_SY_KvarhZ,P_SY_KvarhJ,P_SY_KvarhF,P_SY_KvarhP,P_SY_KvarhG, P_SY_HKvarhZ,P_SY_HKvarhJ,P_SY_HKvarhF,P_SY_HKvarhP,P_SY_HKvarhG, P_SSY_KwhZ,P_SSY_KwhJ,P_SSY_KwhF,P_SSY_KwhP,P_SSY_KwhG, P_SSY_HKwhZ,P_SSY_HKwhJ,P_SSY_HKwhF,P_SSY_HKwhP,P_SSY_HKwhG, P_SSY_KvarhZ,P_SSY_KvarhJ,P_SSY_KvarhF,P_SSY_KvarhP,P_SSY_KvarhG, P_SSY_HKvarhZ,P_SSY_HKvarhJ,P_SSY_HKvarhF,P_SSY_HKvarhP,P_SSY_HKvarhG,P_CODE,P_TIME,P_ZXYGDN,P_FXYGDN,P_ZXWGDN,P_FXWGDN)values(239.847,240.151,239.914,415.605,415.692,415.432,0,0,0,240,0,240,600,240,0,240,480,360,0,360,720,0.629,0,0.81,0.767,50.00869,2554.2,28.2,1985.4,0,540,0,0,0,0,0,771,19.8,540.6,0,210,0,0,0,0,0,2317.2,31.2,1833.6,0,451.8,0,0,0,0,0,657,16.8,459.6,0,180.6,0,0,0,0,0,2519.4,51.6,1960.8,0,506.4,0,0,0,0,0,974.4,45,634.2,0,294.6,0,0,0,0,7.0714e-41,27,20171128015100,145.389,0,56.257,3.837)
写入成功读取完毕一个
write:1C 03 00 38 00 34 C6 5D
write:1C 03 07 CF 00 78 77 2E
write:1C 03 01 0F 00 08 76 7E
write:1D 03 00 38 00 34 C7 8C
write:1D 03 07 CF 00 78 76 FF
write:1D 03 01 0F 00 08 77 AF
77 77 77
heart:77 77 77 2E 75 73 72 2E 63 6E
write:1E 03 00 38 00 34 C7 BF
77 77 77
heart:77 77 77 2E 75 73 72 2E 63 6E
77 77 77
heart:77 77 77 2E 75 73 72 2E 63 6E 77 77 77 2E 75 73 72 2E 63 6E
77 77 77
heart:77 77 77 2E 75 73 72 2E 63 6E
write:1E 03 07 CF 00 78 76 CC
write:1E 03 01 0F 00 08 77 9C
77 77 77
heart:77 77 77 2E 75 73 72 2E 63 6E
write:1F 03 00 38 00 34 C6 6E
77 77 77
heart:77 77 77 2E 75 73 72 2E 63 6E
write:1F 03 07 CF 00 78 77 1D
write:1F 03 01 0F 00 08 76 4D
77 77 77
heart:77 77 77 2E 75 73 72 2E 63 6E
write:20 03 00 38 00 34 C3 61
77 77 77
heart:77 77 77 2E 75 73 72 2E 63 6E
write:20 03 07 CF 00 78 72 12
write:20 03 01 0F 00 08 73 42
77 77 77
heart:77 77 77 2E 75 73 72 2E 63 6E
write:0A 03 00 38 00 34 C4 AB
77 77 77
heart:77 77 77 2E 75 73 72 2E 63 6E
write:0A 03 07 CF 00 78 75 D8
write:0A 03 01 0F 00 08 74 88
77 77 77
heart:77 77 77 2E 75 73 72 2E 63 6E
write:0B 03 00 38 00 34 C5 7A
77 77 77
heart:77 77 77 2E 75 73 72 2E 63 6E
write:0B 03 07 CF 00 78 74 09
write:0B 03 01 0F 00 08 75 59
write:0C 03 00 38 00 34 C4 CD
write:0C 03 07 CF 00 78 75 BE
write:0C 03 01 0F 00 08 74 EE
write:0D 03 00 38 00 34 C5 1C
write:0D 03 07 CF 00 78 74 6F
write:0D 03 01 0F 00 08 75 3F
write:1A 03 00 38 00 34 C6 3B
write:1A 03 07 CF 00 78 77 48
write:1A 03 01 0F 00 08 76 18
write:1B 03 00 38 00 34 C7 EA
77 77 77
heart:77 77 77 2E 75 73 72 2E 63 6E
77 77 77
heart:77 77 77 2E 75 73 72 2E 63 6E
77 77 77
heart:77 77 77 2E 75 73 72 2E 63 6E 77 77 77 2E 75 73 72 2E 63 6E 77 77 77 2E 75 73 72 2E 63 6E 77 77 77 2E 75 73 72 2E 63 6E 77 77 77 2E 75 73 72 2E 63 6E FB F1 ED FF C4 6B FF FF FB EE FF FD BE 57 70 4B 44 43 CF F9 DB 43 D0 10 00 43 CF EE B8 40 40 00 00 40 75 C2 8F 40 99 99 9A 43 B4 00 00 43 F0 00 00 44 34 00 00 44 C3 00 00 43 B4 00 00 43 F0 00 00 44 34 00 00 44 C3 00 00 44 34 00 00 44 70 00 00 44 96 00 00 45 0E 80 00 3E FD 70 A4 3F 16 C8 B4 3F 13 F7 CF 3F 32 B0 21 42 48 E3 48
write:1B 03 07 CF 00 78 76 99
1B 03 F0
27totalsize 240
45 1F A3 33 41 E1 99 9A 44 F8 2C CD 00 00 00 00 44 07 00 00 00 00 00 00 00 00 00 00 00 00 00 00 00 00 00 00 00 00 00 00 44 40 C0 00 41 9E 66 66 44 07 26 66 00 00 00 00 43 52 00 00 00 00 00 00 00 00 00 00 00 00 00 00 00 00 00 00 00 00 00 00 45 10 D3 33 41 F9 99 9A 44 E5 33 33 00 00 00 00 43 E1 E6 66 00 00 00 00 00 00 00 00 00 00 00 00 00 00 00 00 00 00 00 00 44 24 40 00 41 86 66 66 43 E5 CC CD 00 00 00 00 43 34 99 9A 00 00 00 00 00 00 00 00 00 00 00 00 00 00 00 00 00 00 00 00 45 1D 76 66 42 4E 66 66 44 F5 19 9A 00 00 00 00 43 FD 33 33 00 00 00 00 00 00 00 00 00 00 00 00 00 00 00 00 00 00 00 00 44 73 99 9A 42 34 00 00 44 1E 8C CD 00 00 00 00 43 93 4C CD 00 00 00 00 00 00 00 00 00 00 00 00 00 00 00 00 00 00 C5 1F
write:1B 03 01 0F 00 08 77 C9
77 77 77
heart:77 77 77 2E 75 73 72 2E 63 6E
1B 03 10
2700 02 37 ED 00 00 00 00 00 00 DB C1 00 00 0E FD
write:1C 03 00 38 00 34 C6 5D
write:1C 03 07 CF 00 78 77 2E
77 77 77
heart:77 77 77 2E 75 73 72 2E 63 6E
write:1C 03 01 0F 00 08 76 7E
77 77 77
heart:77 77 77 2E 75 73 72 2E 63 6E
write:1D 03 00 38 00 34 C7 8C
write:1D 03 07 CF 00 78 76 FF
write:1D 03 01 0F 00 08 77 AF
write:1E 03 00 38 00 34 C7 BF
write:1E 03 07 CF 00 78 76 CC
write:1E 03 01 0F 00 08 77 9C
write:1F 03 00 38 00 34 C6 6E
write:1F 03 07 CF 00 78 77 1D
write:1F 03 01 0F 00 08 76 4D
write:20 03 00 38 00 34 C3 61
write:20 03 07 CF 00 78 72 12
write:20 03 01 0F 00 08 73 42
write:0A 03 00 38 00 34 C4 AB
77 77 77
heart:77 77 77 2E 75 73 72 2E 63 6E
write:0A 03 07 CF 00 78 75 D8
77 77 77
heart:77 77 77 2E 75 73 72 2E 63 6E
77 77 77
heart:77 77 77 2E 75 73 72 2E 63 6E 77 77 77 2E 75 73 72 2E 63 6E 77 77 77 2E 75 73 72 2E 63 6E 77 77 77 2E 75 73 72 2E 63 6E 77 77 77 2E 75 73 72 2E 63 6E 77 77 77 2E 75 73 72 2E 63 6E 77 77 77 2E 75 73 72 2E 63 6E
write:0A 03 01 0F 00 08 74 88
77 77 77
heart:77 77 77 2E 75 73 72 2E 63 6E
write:0B 03 00 38 00 34 C5 7A
write:0B 03 07 CF 00 78 74 09
write:0B 03 01 0F 00 08 75 59
write:0C 03 00 38 00 34 C4 CD
write:0C 03 07 CF 00 78 75 BE
write:0C 03 01 0F 00 08 74 EE
write:0D 03 00 38 00 34 C5 1C
write:0D 03 07 CF 00 78 74 6F
write:0D 03 01 0F 00 08 75 3F
write:1A 03 00 38 00 34 C6 3B
write:1A 03 07 CF 00 78 77 48
write:1A 03 01 0F 00 08 76 18
write:1B 03 00 38 00 34 C7 EA
write:1B 03 07 CF 00 78 76 99
write:1B 03 01 0F 00 08 77 C9
write:1C 03 00 38 00 34 C6 5D
write:1C 03 07 CF 00 78 77 2E
write:1C 03 01 0F 00 08 76 7E
write:1D 03 00 38 00 34 C7 8C
write:1D 03 07 CF 00 78 76 FF
write:1D 03 01 0F 00 08 77 AF
write:1E 03 00 38 00 34 C7 BF
write:1E 03 07 CF 00 78 76 CC
write:1E 03 01 0F 00 08 77 9C
write:1F 03 00 38 00 34 C6 6E
write:1F 03 07 CF 00 78 77 1D
write:1F 03 01 0F 00 08 76 4D
write:20 03 00 38 00 34 C3 61
write:20 03 07 CF 00 78 72 12
write:20 03 01 0F 00 08 73 42
write:0A 03 00 38 00 34 C4 AB
write:0A 03 07 CF 00 78 75 D8
write:0A 03 01 0F 00 08 74 88
write:0B 03 00 38 00 34 C5 7A
write:0B 03 07 CF 00 78 74 09
write:0B 03 01 0F 00 08 75 59
write:0C 03 00 38 00 34 C4 CD
write:0C 03 07 CF 00 78 75 BE
write:0C 03 01 0F 00 08 74 EE
write:0D 03 00 38 00 34 C5 1C
write:0D 03 07 CF 00 78 74 6F
write:0D 03 01 0F 00 08 75 3F
write:1A 03 00 38 00 34 C6 3B
write:1A 03 07 CF 00 78 77 48
write:1A 03 01 0F 00 08 76 18
write:1B 03 00 38 00 34 C7 EA
write:1B 03 07 CF 00 78 76 99
write:1B 03 01 0F 00 08 77 C9
write:1C 03 00 38 00 34 C6 5D

err2222: read tcp 172.16.246.153:6002->124.160.213.177:17744: read: connection timed out
write:1C 03 07 CF 00 78 77 2E
write err: write tcp 172.16.246.153:6002->124.160.213.177:17744: use of closed network connection
received messag ?->? 
 124.160.213.2:62558 172.16.246.153:6002
write:0A 03 00 38 00 34 C4 AB
77 77 77
heart:77 77 77 2E 75 73 72 2E 63 6E
write:0A 03 07 CF 00 78 75 D8
77 77 77
heart:77 77 77 2E 75 73 72 2E 63 6E
write:0A 03 01 0F 00 08 74 88
write:0B 03 00 38 00 34 C5 7A
77 77 77
heart:77 77 77 2E 75 73 72 2E 63 6E
write:0B 03 07 CF 00 78 74 09
77 77 77
heart:77 77 77 2E 75 73 72 2E 63 6E
write:0B 03 01 0F 00 08 75 59
write:0C 03 00 38 00 34 C4 CD
77 77 77
heart:77 77 77 2E 75 73 72 2E 63 6E
write:0C 03 07 CF 00 78 75 BE
77 77 77
heart:77 77 77 2E 75 73 72 2E 63 6E
write:0C 03 01 0F 00 08 74 EE
write:0D 03 00 38 00 34 C5 1C
77 77 77
heart:77 77 77 2E 75 73 72 2E 63 6E
write:0D 03 07 CF 00 78 74 6F
77 77 77
heart:77 77 77 2E 75 73 72 2E 63 6E
write:0D 03 01 0F 00 08 75 3F
write:1A 03 00 38 00 34 C6 3B
1A 03 68
2643 70 86 25 43 70 F3 33 43 70 BE B8 43 D0 73 B6 43 D0 89 DB 43 D0 5D 91 40 40 00 00 40 75 C2 8F 40 95 C2 8F 43 B4 00 00 43 F0 00 00 44 16 00 00 44 C3 00 00 43 F0 00 00 43 F0 00 00 44 34 00 00 44 D2 00 00 44 34 00 00 44 70 00 00 44 96 00 00 45 0E 80 00 3E FD 70 A4 3F 16 45 A2 3F 0B 43 96 3F 2E 56 04 42 47 96 6E
write:1A 03 07 CF 00 78 77 48
1A 03 F0
26totalsize 240
44 F0 86 66 43 53 CC CD 44 87 13 33 00 00 00 00 44 1D CC CD 00 00 00 00 00 00 00 00 00 00 00 00 00 00 00 00 00 00 00 00 42 9A CC CD 40 99 99 9A 42 20 CC CD 00 00 00 00 41 FE 66 66 44 6C 40 00 43 19 00 00 43 CA 80 00 00 00 00 00 43 C0 E6 66 44 AC E0 00 43 0E CC CD 44 4A 33 33 00 00 00 00 43 D7 19 9A 00 00 00 00 00 00 00 00 00 00 00 00 00 00 00 00 00 00 00 00 40 C0 00 00 3F E6 66 66 40 19 99 9A 00 00 00 00 3F 99 99 9A 44 70 00 00 43 11 33 33 43 D5 4C CD 00 00 00 00 43 C1 CC CD 44 E4 00 00 42 EE CC CD 44 94 20 00 00 00 00 00 44 01 E6 66 00 00 00 00 00 00 00 00 00 00 00 00 00 00 00 00 00 00 00 00 42 0B 33 33 00 00 00 00 41 D3 33 33 00 00 00 00 41 06 66 66 44 3E F3 33 42 F7 33 33 43 9F E6 66 00 00 00 00 43 9F B1 FA
write:1A 03 01 0F 00 08 76 18
1A 03 10
2600 02 8C 33 00 00 00 00 00 00 3E 05 00 00 7E 3E
43 70 86 25
240.524
43 70 F3 33
240.95
43 70 BE B8
240.745
43 D0 73 B6
416.904
43 D0 89 DB
417.077
43 D0 5D 91
416.731
40 40 00 00
3
40 75 C2 8F
3.84
40 95 C2 8F
4.68
43 B4 00 00
360
43 F0 00 00
480
44 16 00 00
600
44 C3 00 00
1560
43 F0 00 00
480
43 F0 00 00
480
44 34 00 00
720
44 D2 00 00
1680
44 34 00 00
720
44 70 00 00
960
44 96 00 00
1200
45 0E 80 00
2280
3E FD 70 A4
0.495
3F 16 45 A2
0.587
3F 0B 43 96
0.544
3F 2E 56 04
0.681
42 47 96 6E
49.896904
44 F0 86 66
1924.2
43 53 CC CD
211.8
44 87 13 33
1080.6
00 00 00 00
0
44 1D CC CD
631.2
00 00 00 00
0
00 00 00 00
0
00 00 00 00
0
00 00 00 00
0
00 00 00 00
0
42 9A CC CD
77.4
40 99 99 9A
4.8
42 20 CC CD
40.2
00 00 00 00
0
41 FE 66 66
31.8
44 6C 40 00
945
43 19 00 00
153
43 CA 80 00
405
00 00 00 00
0
43 C0 E6 66
385.8
44 AC E0 00
1383
43 0E CC CD
142.8
44 4A 33 33
808.8
00 00 00 00
0
43 D7 19 9A
430.2
00 00 00 00
0
00 00 00 00
0
00 00 00 00
0
00 00 00 00
0
00 00 00 00
0
40 C0 00 00
6
3F E6 66 66
1.8
40 19 99 9A
2.4
00 00 00 00
0
3F 99 99 9A
1.2
44 70 00 00
960
43 11 33 33
145.2
43 D5 4C CD
426.6
00 00 00 00
0
43 C1 CC CD
387.6
44 E4 00 00
1824
42 EE CC CD
119.4
44 94 20 00
1185
00 00 00 00
0
44 01 E6 66
519.6
00 00 00 00
0
00 00 00 00
0
00 00 00 00
0
00 00 00 00
0
00 00 00 00
0
42 0B 33 33
34.8
00 00 00 00
0
41 D3 33 33
26.4
00 00 00 00
0
41 06 66 66
8.4
44 3E F3 33
763.8
42 F7 33 33
123.6
43 9F E6 66
319.8
00 00 00 00
0
43 9F B1 FA
319.39044
00 02 8C 33
166963
00 00 00 00
0
00 00 3E 05
15877
00 00 7E 3E
32318
240.524240.95240.745416.904417.077416.73133.844.6836048060015604804807201680720960120022800.4950.5870.5440.68149.8969041924.2211.81080.60631.20000077.44.840.2031.89451534050385.81383142.8808.80430.20000061.82.401.2960145.2426.60387.61824119.411850519.60000034.8026.408.4763.8123.6319.80319.390442620171128023619166.963015.87732.318insert into tbl_power_info_v2(P_A_DIANYA,P_B_DIANYA,P_C_DIANYA,P_UAB_XIANDIANYA,P_UBC_XIANDIANYA,P_UCA_XIANDIANYA,P_A_DIANLIU,P_B_DIANLIU,P_C_DIANLIU,P_A_YGGL,P_B_YGGL,P_C_YGGL,P_HXYGGL,P_A_WGGL,P_B_WGGL,P_C_WGGL,P_HXWGGL,P_A_SZGL,P_B_SZGL,P_C_SZGL,P_HXSZGL,P_A_GLYS,P_B_GLYS,P_C_GLYS,P_HXGLYS,P_DWPL,P_BY_KwhZ,P_BY_KwhJ,P_BY_KwhF,P_BY_KwhP,P_BY_KwhG,P_BY_HKwhZ,P_BY_HKwhJ,P_BY_HKwhF,P_BY_HKwhP,P_BY_HKwhG, P_BY_KvarhZ,P_BY_KvarhJ,P_BY_KvarhF,P_BY_KvarhP,P_BY_KvarhG, P_BY_HKvarhZ,P_BY_HKvarhJ,P_BY_HKvarhF,P_BY_HKvarhP,P_BY_HKvarhG, P_SY_KwhZ,P_SY_KwhJ,P_SY_KwhF,P_SY_KwhP,P_SY_KwhG, P_SY_HKwhZ,P_SY_HKwhJ,P_SY_HKwhF,P_SY_HKwhP,P_SY_HKwhG, P_SY_KvarhZ,P_SY_KvarhJ,P_SY_KvarhF,P_SY_KvarhP,P_SY_KvarhG, P_SY_HKvarhZ,P_SY_HKvarhJ,P_SY_HKvarhF,P_SY_HKvarhP,P_SY_HKvarhG, P_SSY_KwhZ,P_SSY_KwhJ,P_SSY_KwhF,P_SSY_KwhP,P_SSY_KwhG, P_SSY_HKwhZ,P_SSY_HKwhJ,P_SSY_HKwhF,P_SSY_HKwhP,P_SSY_HKwhG, P_SSY_KvarhZ,P_SSY_KvarhJ,P_SSY_KvarhF,P_SSY_KvarhP,P_SSY_KvarhG, P_SSY_HKvarhZ,P_SSY_HKvarhJ,P_SSY_HKvarhF,P_SSY_HKvarhP,P_SSY_HKvarhG,P_CODE,P_TIME,P_ZXYGDN,P_FXYGDN,P_ZXWGDN,P_FXWGDN)values(240.524,240.95,240.745,416.904,417.077,416.731,3,3.84,4.68,360,480,600,1560,480,480,720,1680,720,960,1200,2280,0.495,0.587,0.544,0.681,49.896904,1924.2,211.8,1080.6,0,631.2,0,0,0,0,0,77.4,4.8,40.2,0,31.8,945,153,405,0,385.8,1383,142.8,808.8,0,430.2,0,0,0,0,0,6,1.8,2.4,0,1.2,960,145.2,426.6,0,387.6,1824,119.4,1185,0,519.6,0,0,0,0,0,34.8,0,26.4,0,8.4,763.8,123.6,319.8,0,319.39044,26,20171128023619,166.963,0,15.877,32.318)
写入成功读取完毕一个
write:1B 03 00 38 00 34 C7 EA
1B 03 68
