nohup: ignoring input
Listening on :6002
received messag ?->? 
 124.160.213.21:18123 172.16.246.153:6002
write:0A 03 00 38 00 34 C4 AB
77 77 77
heart:77 77 77 2E 75 73 72 2E 63 6E
write:0A 03 07 CF 00 78 75 D8
write:0A 03 01 0F 00 08 74 88
write:0B 03 00 38 00 34 C5 7A
write:0B 03 07 CF 00 78 74 09
write:0B 03 01 0F 00 08 75 59
write:0C 03 00 38 00 34 C4 CD
write:0C 03 07 CF 00 78 75 BE
write:0C 03 01 0F 00 08 74 EE
write:0D 03 00 38 00 34 C5 1C
write:0D 03 07 CF 00 78 74 6F
write:0D 03 01 0F 00 08 75 3F
write:1A 03 00 38 00 34 C6 3B
write:1A 03 07 CF 00 78 77 48
write:1A 03 01 0F 00 08 76 18
write:1B 03 00 38 00 34 C7 EA
write:1B 03 07 CF 00 78 76 99
write:1B 03 01 0F 00 08 77 C9
write:1C 03 00 38 00 34 C6 5D
write:1C 03 07 CF 00 78 77 2E
write:1C 03 01 0F 00 08 76 7E
write:1D 03 00 38 00 34 C7 8C
write:1D 03 07 CF 00 78 76 FF
write:1D 03 01 0F 00 08 77 AF
write:1E 03 00 38 00 34 C7 BF
write:1E 03 07 CF 00 78 76 CC
write:1E 03 01 0F 00 08 77 9C
write:1F 03 00 38 00 34 C6 6E
write:1F 03 07 CF 00 78 77 1D
write:1F 03 01 0F 00 08 76 4D
write:20 03 00 38 00 34 C3 61
write:20 03 07 CF 00 78 72 12
write:20 03 01 0F 00 08 73 42
write:0A 03 00 38 00 34 C4 AB
write:0A 03 07 CF 00 78 75 D8
write:0A 03 01 0F 00 08 74 88
write:0B 03 00 38 00 34 C5 7A
write:0B 03 07 CF 00 78 74 09
write:0B 03 01 0F 00 08 75 59
write:0C 03 00 38 00 34 C4 CD
write:0C 03 07 CF 00 78 75 BE
write:0C 03 01 0F 00 08 74 EE
write:0D 03 00 38 00 34 C5 1C
write:0D 03 07 CF 00 78 74 6F
write:0D 03 01 0F 00 08 75 3F
write:1A 03 00 38 00 34 C6 3B
write:1A 03 07 CF 00 78 77 48
write:1A 03 01 0F 00 08 76 18
write:1B 03 00 38 00 34 C7 EA
write:1B 03 07 CF 00 78 76 99
write:1B 03 01 0F 00 08 77 C9

err2222: read tcp 172.16.246.153:6002->124.160.213.21:18123: read: connection timed out
write:1C 03 00 38 00 34 C6 5D
write err: write tcp 172.16.246.153:6002->124.160.213.21:18123: use of closed network connection
received messag ?->? 
 124.160.217.37:12840 172.16.246.153:6002
write:0A 03 00 38 00 34 C4 AB
77 77 77
heart:77 77 77 2E 75 73 72 2E 63 6E
write:0A 03 07 CF 00 78 75 D8
77 77 77
heart:77 77 77 2E 75 73 72 2E 63 6E
write:0A 03 01 0F 00 08 74 88
write:0B 03 00 38 00 34 C5 7A
write:0B 03 07 CF 00 78 74 09
write:0B 03 01 0F 00 08 75 59
write:0C 03 00 38 00 34 C4 CD
write:0C 03 07 CF 00 78 75 BE
write:0C 03 01 0F 00 08 74 EE
write:0D 03 00 38 00 34 C5 1C
write:0D 03 07 CF 00 78 74 6F
77 77 77
heart:77 77 77 2E 75 73 72 2E 63 6E
write:0D 03 01 0F 00 08 75 3F
77 77 77
heart:77 77 77 2E 75 73 72 2E 63 6E
77 77 77
heart:77 77 77 2E 75 73 72 2E 63 6E 77 77 77 2E 75 73 72 2E 63 6E 77 77 77 2E 75 73 72 2E 63 6E 77 77 77 2E 75 73 72 2E 63 6E
write:1A 03 00 38 00 34 C6 3B
77 77 77
heart:77 77 77 2E 75 73 72 2E 63 6E
1A 03 68
2643 6C CB 85 43 6C EF DF 43 6C BF BE 43 CD 13 12 43 CD 13 12 43 CC FC EE 41 68 51 EC 41 98 A3 D7 41 CC 7A E1 45 3B 80 00 45 70 00 00 45 B0 40 00 46 44 E0 00 43 B4 00 00 43 B4 00 00 44 34 00 00 44 B4 00 00 45 59 80 00 45 8E 80 00 45 BB 80 00 46 44 E0 00 3F 5E 76 C9 3F 5C ED 91 3F 6F 9D B2 3F 7E 35 3F 42 47 5E 63
write:1A 03 07 CF 00 78 77 48
1A 03 F0
26totalsize 240
44 F3 AC CD 43 53 CC CD 44 89 19 9A 00 00 00 00 44 20 33 33 00 00 00 00 00 00 00 00 00 00 00 00 00 00 00 00 00 00 00 00 42 9A CC CD 40 99 99 9A 42 20 CC CD 00 00 00 00 41 FE 66 66 44 6F D9 9A 43 19 00 00 43 CD 80 00 00 00 00 00 43 C5 66 66 44 AC E0 00 43 0E CC CD 44 4A 33 33 00 00 00 00 43 D7 19 9A 00 00 00 00 00 00 00 00 00 00 00 00 00 00 00 00 00 00 00 00 40 C0 00 00 3F E6 66 66 40 19 99 9A 00 00 00 00 3F 99 99 9A 44 70 00 00 43 11 33 33 43 D5 4C CD 00 00 00 00 43 C1 CC CD 44 E4 00 00 42 EE CC CD 44 94 20 00 00 00 00 00 44 01 E6 66 00 00 00 00 00 00 00 00 00 00 00 00 00 00 00 00 00 00 00 00 42 0B 33 33 00 00 00 00 41 D3 33 33 00 00 00 00 41 06 66 66 44 3E F3 33 42 F7 33 33 43 9F E6 66 00 00 00 00 43 9F 57 03
write:1A 03 01 0F 00 08 76 18
write:1B 03 00 38 00 34 C7 EA
write:1B 03 07 CF 00 78 76 99
write:1B 03 01 0F 00 08 77 C9
write:1C 03 00 38 00 34 C6 5D
write:1C 03 07 CF 00 78 77 2E
write:1C 03 01 0F 00 08 76 7E
write:1D 03 00 38 00 34 C7 8C
write:1D 03 07 CF 00 78 76 FF
write:1D 03 01 0F 00 08 77 AF
write:1E 03 00 38 00 34 C7 BF
write:1E 03 07 CF 00 78 76 CC
write:1E 03 01 0F 00 08 77 9C
write:1F 03 00 38 00 34 C6 6E
write:1F 03 07 CF 00 78 77 1D
write:1F 03 01 0F 00 08 76 4D
write:20 03 00 38 00 34 C3 61
write:20 03 07 CF 00 78 72 12
write:20 03 01 0F 00 08 73 42
write:0A 03 00 38 00 34 C4 AB
write:0A 03 07 CF 00 78 75 D8
write:0A 03 01 0F 00 08 74 88
write:0B 03 00 38 00 34 C5 7A
write:0B 03 07 CF 00 78 74 09
write:0B 03 01 0F 00 08 75 59
write:0C 03 00 38 00 34 C4 CD
write:0C 03 07 CF 00 78 75 BE
write:0C 03 01 0F 00 08 74 EE
write:0D 03 00 38 00 34 C5 1C
write:0D 03 07 CF 00 78 74 6F
write:0D 03 01 0F 00 08 75 3F
write:1A 03 00 38 00 34 C6 3B
write:1A 03 07 CF 00 78 77 48
write:1A 03 01 0F 00 08 76 18
write:1B 03 00 38 00 34 C7 EA
write:1B 03 07 CF 00 78 76 99
write:1B 03 01 0F 00 08 77 C9
write:1C 03 00 38 00 34 C6 5D
write:1C 03 07 CF 00 78 77 2E
write:1C 03 01 0F 00 08 76 7E
write:1D 03 00 38 00 34 C7 8C
write:1D 03 07 CF 00 78 76 FF
write:1D 03 01 0F 00 08 77 AF
write:1E 03 00 38 00 34 C7 BF
write:1E 03 07 CF 00 78 76 CC
write:1E 03 01 0F 00 08 77 9C
write:1F 03 00 38 00 34 C6 6E
write:1F 03 07 CF 00 78 77 1D
write:1F 03 01 0F 00 08 76 4D
write:20 03 00 38 00 34 C3 61
write:20 03 07 CF 00 78 72 12
write:20 03 01 0F 00 08 73 42

err2222: read tcp 172.16.246.153:6002->124.160.217.37:12840: read: connection timed out
write:0A 03 00 38 00 34 C4 AB
write err: write tcp 172.16.246.153:6002->124.160.217.37:12840: use of closed network connection
