nohup: ignoring input
Listening on :6002
received messag ?->? 
 120.79.20.118:48502 172.16.246.153:6002
write:0A 03 00 38 00 34 C4 AB

err2222: read tcp 172.16.246.153:6002->120.79.20.118:48502: read: connection reset by peer
write:0A 03 07 CF 00 78 75 D8
write err: write tcp 172.16.246.153:6002->120.79.20.118:48502: use of closed network connection
received messag ?->? 
 124.160.213.88:18250 172.16.246.153:6002
write:0A 03 00 38 00 34 C4 AB
77 77 77
heart:77 77 77 2E 75 73 72 2E 63 6E
write:0A 03 07 CF 00 78 75 D8
write:0A 03 01 0F 00 08 74 88
write:0B 03 00 38 00 34 C5 7A
write:0B 03 07 CF 00 78 74 09
write:0B 03 01 0F 00 08 75 59
write:0C 03 00 38 00 34 C4 CD
write:0C 03 07 CF 00 78 75 BE
write:0C 03 01 0F 00 08 74 EE
write:0D 03 00 38 00 34 C5 1C
write:0D 03 07 CF 00 78 74 6F
write:0D 03 01 0F 00 08 75 3F
write:1A 03 00 38 00 34 C6 3B
write:1A 03 07 CF 00 78 77 48
write:1A 03 01 0F 00 08 76 18
write:1B 03 00 38 00 34 C7 EA
write:1B 03 07 CF 00 78 76 99
write:1B 03 01 0F 00 08 77 C9
write:1C 03 00 38 00 34 C6 5D
write:1C 03 07 CF 00 78 77 2E
write:1C 03 01 0F 00 08 76 7E
write:1D 03 00 38 00 34 C7 8C
write:1D 03 07 CF 00 78 76 FF
write:1D 03 01 0F 00 08 77 AF
write:1E 03 00 38 00 34 C7 BF
write:1E 03 07 CF 00 78 76 CC
write:1E 03 01 0F 00 08 77 9C
write:1F 03 00 38 00 34 C6 6E
write:1F 03 07 CF 00 78 77 1D
write:1F 03 01 0F 00 08 76 4D
write:20 03 00 38 00 34 C3 61
write:20 03 07 CF 00 78 72 12
write:20 03 01 0F 00 08 73 42
write:0A 03 00 38 00 34 C4 AB
write:0A 03 07 CF 00 78 75 D8
write:0A 03 01 0F 00 08 74 88
write:0B 03 00 38 00 34 C5 7A
write:0B 03 07 CF 00 78 74 09
write:0B 03 01 0F 00 08 75 59
write:0C 03 00 38 00 34 C4 CD
write:0C 03 07 CF 00 78 75 BE
write:0C 03 01 0F 00 08 74 EE
write:0D 03 00 38 00 34 C5 1C
write:0D 03 07 CF 00 78 74 6F
write:0D 03 01 0F 00 08 75 3F
write:1A 03 00 38 00 34 C6 3B
write:1A 03 07 CF 00 78 77 48
write:1A 03 01 0F 00 08 76 18
write:1B 03 00 38 00 34 C7 EA
write:1B 03 07 CF 00 78 76 99
write:1B 03 01 0F 00 08 77 C9

err2222: read tcp 172.16.246.153:6002->124.160.213.88:18250: read: connection timed out
write:1C 03 00 38 00 34 C6 5D
write err: write tcp 172.16.246.153:6002->124.160.213.88:18250: use of closed network connection
received messag ?->? 
 124.160.213.48:16577 172.16.246.153:6002
write:0A 03 00 38 00 34 C4 AB
77 77 77
heart:77 77 77 2E 75 73 72 2E 63 6E
write:0A 03 07 CF 00 78 75 D8
write:0A 03 01 0F 00 08 74 88
write:0B 03 00 38 00 34 C5 7A
write:0B 03 07 CF 00 78 74 09
77 77 77
heart:77 77 77 2E 75 73 72 2E 63 6E 77 77 77 2E 75 73 72 2E 63 6E
77 77 77
heart:77 77 77 2E 75 73 72 2E 63 6E
write:0B 03 01 0F 00 08 75 59
write:0C 03 00 38 00 34 C4 CD
write:0C 03 07 CF 00 78 75 BE
write:0C 03 01 0F 00 08 74 EE
write:0D 03 00 38 00 34 C5 1C
write:0D 03 07 CF 00 78 74 6F
write:0D 03 01 0F 00 08 75 3F
write:1A 03 00 38 00 34 C6 3B
write:1A 03 07 CF 00 78 77 48
write:1A 03 01 0F 00 08 76 18
write:1B 03 00 38 00 34 C7 EA
write:1B 03 07 CF 00 78 76 99
write:1B 03 01 0F 00 08 77 C9
write:1C 03 00 38 00 34 C6 5D
write:1C 03 07 CF 00 78 77 2E
write:1C 03 01 0F 00 08 76 7E
write:1D 03 00 38 00 34 C7 8C
write:1D 03 07 CF 00 78 76 FF
write:1D 03 01 0F 00 08 77 AF
write:1E 03 00 38 00 34 C7 BF
write:1E 03 07 CF 00 78 76 CC
write:1E 03 01 0F 00 08 77 9C
write:1F 03 00 38 00 34 C6 6E
write:1F 03 07 CF 00 78 77 1D
write:1F 03 01 0F 00 08 76 4D
write:20 03 00 38 00 34 C3 61
write:20 03 07 CF 00 78 72 12
write:20 03 01 0F 00 08 73 42
write:0A 03 00 38 00 34 C4 AB
write:0A 03 07 CF 00 78 75 D8
write:0A 03 01 0F 00 08 74 88
write:0B 03 00 38 00 34 C5 7A
write:0B 03 07 CF 00 78 74 09
write:0B 03 01 0F 00 08 75 59
write:0C 03 00 38 00 34 C4 CD
write:0C 03 07 CF 00 78 75 BE
write:0C 03 01 0F 00 08 74 EE
write:0D 03 00 38 00 34 C5 1C
write:0D 03 07 CF 00 78 74 6F
write:0D 03 01 0F 00 08 75 3F
write:1A 03 00 38 00 34 C6 3B
write:1A 03 07 CF 00 78 77 48
write:1A 03 01 0F 00 08 76 18
write:1B 03 00 38 00 34 C7 EA
write:1B 03 07 CF 00 78 76 99
write:1B 03 01 0F 00 08 77 C9
write:1C 03 00 38 00 34 C6 5D
write:1C 03 07 CF 00 78 77 2E
write:1C 03 01 0F 00 08 76 7E
write:1D 03 00 38 00 34 C7 8C
write:1D 03 07 CF 00 78 76 FF

err2222: read tcp 172.16.246.153:6002->124.160.213.48:16577: read: connection timed out
write:1D 03 01 0F 00 08 77 AF
write err: write tcp 172.16.246.153:6002->124.160.213.48:16577: use of closed network connection
signal: killed
