nohup: ignoring input
Listening on :6004
received messag ?->? 
 124.160.219.145:16268 172.16.246.153:6004
write:21 03 00 38 00 34 C2 B0
34 30 32
heart:34 30 32 37 32 32 35 36 30 34 38 32
write:21 03 07 CF 00 78 73 C3
write:21 03 01 0F 00 08 72 93
write:22 03 00 38 00 34 C2 83
22 03 68
3443 6C 2C 4A 43 6C 20 42 43 6B EC 4A 43 CC 77 F0 43 CC 61 CB 43 CC 61 CB 42 B5 8F 5C 42 BD 4C CD 42 BE 9E B8 46 64 48 00 46 6E 20 00 46 72 58 00 47 31 30 00 46 6D 30 00 46 77 08 00 46 77 80 00 47 36 EE 00 46 A7 94 00 46 AE 9C 00 46 B0 04 00 47 7E A6 00 3F 2E 97 8D 3F 2E 97 8D 3F 30 20 C5 3F 32 2D 0E 42 48 F3 D6
write:22 03 07 CF 00 78 73 F0
write:22 03 01 0F 00 08 72 A0
write:23 03 00 38 00 34 C3 52
write:23 03 07 CF 00 78 72 21
write:23 03 01 0F 00 08 73 71
write:24 03 00 38 00 34 C2 E5
write:24 03 07 CF 00 78 73 96
write:24 03 01 0F 00 08 72 C6
write:25 03 00 38 00 34 C3 34
22 03 F0
34totalsize 240
46 91 81 CD 45 92 D0 00 46 35 2B 66 00 00 00 00 45 11 BE 66 00 00 00 00 00 00 00 00 00 00 00 00 00 00 00 00 00 00 00 00 46 57 0E 33 45 57 2A 66 46 05 93 33 00 00 00 00 44 DD 79 9A 40 E6 66 66 00 00 00 00 3F 66 66 66 00 00 00 00 40 C9 99 9A 46 A2 7B E6 45 AB C7 33 46 39 CA 9A 00 00 00 00 45 55 24 00 00 00 00 00 00 00 00 00 00 00 00 00 00 00 00 00 00 00 00 00 46 67 37 33 45 6B CC CD 46 06 3E 33 00 00 00 00 45 18 14 CD 41 28 00 00 3E E6 66 66 3F F9 99 9A 00 00 00 00 40 FE 66 66 46 28 7C CD 44 CD 5E 66 45 D8 06 00 00 00 00 00 45 0B 35 9A 00 00 00 00 00 00 00 00 00 00 00 00 00 00 00 00 00 00 00 00 46 14 0F 33 44 A5 86 66 45 BE D0 66 00 00 00 00 44 FF AC CD 40 53 33 33 00 00 00 00 3E 19 99 9A 00 00 00 00 40 40 F9 34
34 30 32
heart:34 30 32 37 32 32 35 36 30 34 38 32
write:25 03 07 CF 00 78 72 47
EB FF EF
heart:EB FF EF F7 EC EE FF 7B CB FD EF 2F 1D FF BF D7 F4 CB F1 F9 EF FF EF F7 DC 00 09 16 BB 00 00 00 00 00 08 EC 31 00 00 80 14
25 03 F0
37totalsize 240
45 7D 87 33 43 FE EC CD 45 2F 57 33 00 00 00 00 44 39 40 00 00 00 00 00 00 00 00 00 00 00 00 00 00 00 00 00 00 00 00 00 44 C8 2C CD 43 7E 40 00 44 8B F3 33 00 00 00 00 43 63 66 66 40 36 66 66 3E 99 99 9A 3E E6 66 66 00 00 00 00 3F F9 99 9A 45 5E 62 66 43 A5 E6 66 45 25 D8 00 00 00 00 00 44 0F 2C CD 00 00 00 00 00 00 00 00 00 00 00 00 00 00 00 00 00 00 00 00 45 0E 46 66 43 77 F3 33 44 D2 51 9A 00 00 00 00 43 AC E0 00 40 10 00 00 3E 99 99 9A 3F 19 99 9A 00 00 00 00 3F 99 99 9A 45 22 37 33 43 83 EC CD 44 F1 46 66 00 00 00 00 43 C8 A0 00 00 00 00 00 00 00 00 00 00 00 00 00 00 00 00 00 00 00 00 00 44 DC 50 00 43 48 19 9A 44 A5 5B 33 00 00 00 00 43 6F 66 66 40 E1 99 9A 40 66 66 66 40 10 00 00 00 00 00 00 3F 99 51 C3
write:25 03 01 0F 00 08 73 17
25 03 10
3700 06 B9 4A 00 00 00 00 00 03 BF 7E 00 00 BC 9F
write:26 03 00 38 00 34 C3 07
write:26 03 07 CF 00 78 72 74
26 03 68
3843 6B 3D B2 43 6B 70 A4 43 6A FE FA 43 CB C6 87 43 CB A5 3F 43 CB 8F 1B 00 00 00 00 00 00 00 00 3F 8A 3D 71 00 00 00 00 00 00 00 00 42 70 00 00 43 16 00 00 00 00 00 00 00 00 00 00 43 52 00 00 43 87 00 00 00 00 00 00 42 70 00 00 43 70 00 00 43 96 00 00 00 00 00 00 3F 3B 22 D1 3E 8E D9 17 3E EA 7E FA 42 47 36 B5
26 03 F0
38totalsize 240
45 58 B4 00 42 28 99 9A 45 20 B4 CD 00 00 00 00 44 55 69 9A 40 81 99 9A 00 00 00 00 40 53 33 33 00 00 00 00 3F 40 00 00 45 49 3E 66 40 40 00 00 45 1A 2C 00 00 00 00 00 44 3B 80 00 42 A3 CC CD 41 A8 00 00 41 94 CC CD 00 00 00 00 42 28 99 9A 44 90 73 33 42 5B 00 00 44 55 13 33 00 00 00 00 43 78 66 66 3F AC CC CD 00 00 00 00 3F 86 66 66 00 00 00 00 3E 19 99 9A 44 89 53 33 42 2F CC CD 44 50 FC CD 00 00 00 00 43 5A 8C CD 41 C6 00 00 40 C9 99 9A 40 A8 00 00 00 00 00 00 41 50 CC CD 42 AF 33 33 40 19 99 9A 42 77 CC CD 00 00 00 00 41 B8 CC CD 00 00 00 00 00 00 00 00 00 00 00 00 00 00 00 00 00 00 00 00 42 1D 33 33 3F C0 00 00 41 E7 99 9A 00 00 00 00 41 0B 33 33 41 01 99 9A 3E 99 99 9A 40 B6 66 66 00 00 00 00 3F F9 34 87
write:26 03 01 0F 00 08 73 24
26 03 10
3800 02 7E 19 00 00 00 B7 00 02 3C 24 00 00 FD CC
43 6B 3D B2
235.241
43 6B 70 A4
235.44
43 6A FE FA
234.996
43 CB C6 87
407.551
43 CB A5 3F
407.291
43 CB 8F 1B
407.118
00 00 00 00
0
00 00 00 00
0
3F 8A 3D 71
1.08
00 00 00 00
0
00 00 00 00
0
42 70 00 00
60
43 16 00 00
150
00 00 00 00
0
00 00 00 00
0
43 52 00 00
210
43 87 00 00
270
00 00 00 00
0
42 70 00 00
60
43 70 00 00
240
43 96 00 00
300
00 00 00 00
0
3F 3B 22 D1
0.731
3E 8E D9 17
0.279
3E EA 7E FA
0.458
42 47 36 B5
49.803425
45 58 B4 00
3467.25
42 28 99 9A
42.15
45 20 B4 CD
2571.3
00 00 00 00
0
44 55 69 9A
853.65
40 81 99 9A
4.05
00 00 00 00
0
40 53 33 33
3.3
00 00 00 00
0
3F 40 00 00
0.75
45 49 3E 66
3219.9
40 40 00 00
3
45 1A 2C 00
2466.75
00 00 00 00
0
44 3B 80 00
750
42 A3 CC CD
81.9
41 A8 00 00
21
41 94 CC CD
18.6
00 00 00 00
0
42 28 99 9A
42.15
44 90 73 33
1155.6
42 5B 00 00
54.75
44 55 13 33
852.3
00 00 00 00
0
43 78 66 66
248.4
3F AC CC CD
1.35
00 00 00 00
0
3F 86 66 66
1.05
00 00 00 00
0
3E 19 99 9A
0.15
44 89 53 33
1098.6
42 2F CC CD
43.95
44 50 FC CD
835.95
00 00 00 00
0
43 5A 8C CD
218.55
41 C6 00 00
24.75
40 C9 99 9A
6.3
40 A8 00 00
5.25
00 00 00 00
0
41 50 CC CD
13.05
42 AF 33 33
87.6
40 19 99 9A
2.4
42 77 CC CD
61.95
00 00 00 00
0
41 B8 CC CD
23.1
00 00 00 00
0
00 00 00 00
0
00 00 00 00
0
00 00 00 00
0
00 00 00 00
0
42 1D 33 33
39.3
3F C0 00 00
1.5
41 E7 99 9A
28.95
00 00 00 00
0
41 0B 33 33
8.7
41 01 99 9A
8.1
3E 99 99 9A
0.3
40 B6 66 66
5.7
00 00 00 00
0
3F F9 34 87
1.9469155
00 02 7E 19
163353
00 00 00 B7
183
00 02 3C 24
146468
00 00 FD CC
64972
235.241235.44234.996407.551407.291407.118001.0800601500021027006024030000.7310.2790.45849.8034253467.2542.152571.30853.654.0503.300.753219.932466.75075081.92118.6042.151155.654.75852.30248.41.3501.0500.151098.643.95835.950218.5524.756.35.25013.0587.62.461.95023.10000039.31.528.9508.78.10.35.701.94691553820171127192433163.3530.183146.46864.972insert into tbl_power_info_v2(P_A_DIANYA,P_B_DIANYA,P_C_DIANYA,P_UAB_XIANDIANYA,P_UBC_XIANDIANYA,P_UCA_XIANDIANYA,P_A_DIANLIU,P_B_DIANLIU,P_C_DIANLIU,P_A_YGGL,P_B_YGGL,P_C_YGGL,P_HXYGGL,P_A_WGGL,P_B_WGGL,P_C_WGGL,P_HXWGGL,P_A_SZGL,P_B_SZGL,P_C_SZGL,P_HXSZGL,P_A_GLYS,P_B_GLYS,P_C_GLYS,P_HXGLYS,P_DWPL,P_BY_KwhZ,P_BY_KwhJ,P_BY_KwhF,P_BY_KwhP,P_BY_KwhG,P_BY_HKwhZ,P_BY_HKwhJ,P_BY_HKwhF,P_BY_HKwhP,P_BY_HKwhG, P_BY_KvarhZ,P_BY_KvarhJ,P_BY_KvarhF,P_BY_KvarhP,P_BY_KvarhG, P_BY_HKvarhZ,P_BY_HKvarhJ,P_BY_HKvarhF,P_BY_HKvarhP,P_BY_HKvarhG, P_SY_KwhZ,P_SY_KwhJ,P_SY_KwhF,P_SY_KwhP,P_SY_KwhG, P_SY_HKwhZ,P_SY_HKwhJ,P_SY_HKwhF,P_SY_HKwhP,P_SY_HKwhG, P_SY_KvarhZ,P_SY_KvarhJ,P_SY_KvarhF,P_SY_KvarhP,P_SY_KvarhG, P_SY_HKvarhZ,P_SY_HKvarhJ,P_SY_HKvarhF,P_SY_HKvarhP,P_SY_HKvarhG, P_SSY_KwhZ,P_SSY_KwhJ,P_SSY_KwhF,P_SSY_KwhP,P_SSY_KwhG, P_SSY_HKwhZ,P_SSY_HKwhJ,P_SSY_HKwhF,P_SSY_HKwhP,P_SSY_HKwhG, P_SSY_KvarhZ,P_SSY_KvarhJ,P_SSY_KvarhF,P_SSY_KvarhP,P_SSY_KvarhG, P_SSY_HKvarhZ,P_SSY_HKvarhJ,P_SSY_HKvarhF,P_SSY_HKvarhP,P_SSY_HKvarhG,P_CODE,P_TIME,P_ZXYGDN,P_FXYGDN,P_ZXWGDN,P_FXWGDN)values(235.241,235.44,234.996,407.551,407.291,407.118,0,0,1.08,0,0,60,150,0,0,210,270,0,60,240,300,0,0.731,0.279,0.458,49.803425,3467.25,42.15,2571.3,0,853.65,4.05,0,3.3,0,0.75,3219.9,3,2466.75,0,750,81.9,21,18.6,0,42.15,1155.6,54.75,852.3,0,248.4,1.35,0,1.05,0,0.15,1098.6,43.95,835.95,0,218.55,24.75,6.3,5.25,0,13.05,87.6,2.4,61.95,0,23.1,0,0,0,0,0,39.3,1.5,28.95,0,8.7,8.1,0.3,5.7,0,1.9469155,38,20171127192433,163.353,0.183,146.468,64.972)
写入成功读取完毕一个
write:27 03 00 38 00 34 C2 D6
27 03 68
3943 6C 0B 44 43 6B F6 C9 43 6B A7 AE 43 CC 56 A8 43 CC 2A 5E 43 CC 35 60 00 00 00 00 00 00 00 00 3F 28 F5 C3 00 00 00 00 00 00 00 00 42 70 00 00 42 B4 00 00 00 00 00 00 00 00 00 00 42 70 00 00 00 00 00 00 00 00 00 00 00 00 00 00 43 16 00 00 42 B4 00 00 00 00 00 00 00 00 00 00 3E E3 53 F8 3F 75 C2 8F 42 48 5A 15
write:27 03 07 CF 00 78 73 A5
write:27 03 01 0F 00 08 72 F5
write:28 03 00 38 00 34 C2 29
write:28 03 07 CF 00 78 73 5A
write:28 03 01 0F 00 08 72 0A
write:29 03 00 38 00 34 C3 F8
write:29 03 07 CF 00 78 72 8B
write:29 03 01 0F 00 08 73 DB
write:2A 03 00 38 00 34 C3 CB
write:2A 03 07 CF 00 78 72 B8
write:2A 03 01 0F 00 08 73 E8
write:2B 03 00 38 00 34 C2 1A
write:2B 03 07 CF 00 78 73 69
write:2B 03 01 0F 00 08 72 39
write:2C 03 00 38 00 34 C3 AD
write:2C 03 07 CF 00 78 72 DE
write:2C 03 01 0F 00 08 73 8E
write:2D 03 00 38 00 34 C2 7C
write:2D 03 07 CF 00 78 73 0F
write:2D 03 01 0F 00 08 72 5F
write:2E 03 00 38 00 34 C2 4F
27 03 F0
39totalsize 240
43 96 E6 66 41 28 00 00 43 53 0C CD 00 00 00 00 42 9F E6 66 00 00 00 00 00 00 00 00 00 00 00 00 00 00 00 00 00 00 00 00 42 FA CC CD 00 00 00 00 42 C4 CC CD 00 00 00 00 41 D8 00 00 40 B6 66 66 00 00 00 00 40 90 00 00 00 00 00 00 3F 86 66 66 43 0C 66 66 41 38 CC CD 42 A5 E6 66 00 00 00 00 42 37 99 9A 00 00 00 00 00 00 00 00 00 00 00 00 00 00 00 00 00 00 00 00 3F AC CC CD 00 00 00 00 3F 19 99 9A 00 00 00 00 3F 19 99 9A 41 08 CC CD 00 00 00 00 40 D8 00 00 00 00 00 00 3F E6 66 66 43 68 59 9A 41 38 CC CD 43 1A CC CD 00 00 00 00 42 83 B3 33 00 00 00 00 00 00 00 00 00 00 00 00 00 00 00 00 00 00 00 00 41 8A 00 00 00 00 00 00 41 77 33 33 00 00 00 00 3F D3 33 33 41 88 CC CD 3E 19 99 9A 41 53 33 33 00 00 00 00 40 66 FB C9
34 30 32
heart:34 30 32 37 32 32 35 36 30 34 38 32
write:2E 03 07 CF 00 78 73 3C
34 30 32
heart:34 30 32 37 32 32 35 36 30 34 38 32
34 30 32
heart:34 30 32 37 32 32 35 36 30 34 38 32 34 30 32 37 32 32 35 36 30 34 38 32
EF FF EF
heart:EF FF EF F7 B4 FD FE F3 EA FD EF 6F EB F9 BF B7 FC 2D FF FF FB CF D7 A4 F5 FC FE D9 FD FF F9 F1 FE FF BF EC 2D FF FF FB 7C FF A3 E3 FF FE EF FF FF DF 4F FB EE FF B5 FF FF F4 FF FF CB DC AC 41 BA E1 48 42 5E 14 7B 41 B5 C2 8F 45 89 80 00 45 E3 80 00 45 87 00 00 46 7A 00 00 45 39 00 00 46 29 60 00 45 31 00 00 3F 4D 0E 56 3F 0E 56 04 3F 4E 56 04 3F 31 A9 FC 42 47 18 10
2E 03 F0
46totalsize 240
45 CB 8B 33 44 90 79 9A 45 88 63 33 00 00 00 00 44 78 40 00 00 00 00 00 00 00 00 00 00 00 00 00 00 00 00 00 00 00 00 00 42 0A 66 66 40 B9 99 9A 41 C4 CC CD 00 00 00 00 40 80 00 00 44 38 D9 9A 42 FA 66 66 43 A5 66 66 00 00 00 00 43 8D 99 9A 46 38 B4 CD 45 18 13 33 45 F1 63 33 00 00 00 00 44 CF EC CD 00 00 00 00 00 00 00 00 00 00 00 00 00 00 00 00 00 00 00 00 40 40 00 00 00 00 00 00 40 26 66 66 00 00 00 00 3E 4C CC CD 44 6D 4C CD 43 24 33 33 43 DE B3 33 00 00 00 00 43 A9 CC CD 46 61 63 33 45 17 7C CD 46 1D 2A 66 00 00 00 00 44 F2 C0 00 00 00 00 00 00 00 00 00 00 00 00 00 00 00 00 00 00 00 00 00 42 1E 66 66 40 AC CC CD 41 F0 00 00 00 00 00 00 40 80 00 00 44 24 26 66 42 CA CC CD 43 93 99 9A 00 00 00 00 43 82 EE 51
write:2E 03 01 0F 00 08 72 6C
write:2F 03 00 38 00 34 C3 9E
write:2F 03 07 CF 00 78 72 ED
write:2F 03 01 0F 00 08 73 BD
write:30 03 00 38 00 34 C1 F1
write:30 03 07 CF 00 78 70 82
write:30 03 01 0F 00 08 71 D2
write:31 03 00 38 00 34 C0 20
write:31 03 07 CF 00 78 71 53
write:31 03 01 0F 00 08 70 03
write:32 03 00 38 00 34 C0 13
write:32 03 07 CF 00 78 71 60
2E 03 10
4600 26 A0 AA 00 00 00 00 00 00 34 80 00 02 60 2F
34 30 32
heart:34 30 32 37 32 32 35 36 30 34 38 32
34 30 32
heart:34 30 32 37 32 32 35 36 30 34 38 32
write:32 03 01 0F 00 08 70 30
write:21 03 00 38 00 34 C2 B0
FF FD EF
heart:FF FD EF 15 CF FF FF FD D6 F9 DA D6 FB EF DA 96 FF F7 FC D7 F3 EF 65 96 E1 EF E5 96 FF F7 E4 96 F9 FF F4 B3 FF FF F4 00 00 00 00 43 04 4C CD 00 00 00 00 42 F2 19 9A 00 00 00 00 41 2F 33 33 41 31 99 9A 3F 40 00 00 40 FE 66 66 00 00 00 00 40 10 00 00 44 D7 83 33 40 53 33 33 44 A5 2B 33 00 00 00 00 43 C7 A6 66 00
00 00 00
heart:00 00 00 00 00 00 00 00 00 00 00 00 00 00 00 00 00 00 00 41 CD 33 33 00 00 00 00 41 B6 66 66 00 00 00 00 40 36 66 66 41 23 33 33 3F 66 66 66 40 E1 99 9A 00 00 00 00 40 06 66 66 44 FF 48 00 3F 86 66 66 44 CF 34 CD 00 00 00 00 43 BF B3 33 00 00 00 00 00 00 00 00 00 00 00 00 00 00 00 00 00 00 00 00 42 52 99 9A 00 00 00 00 42 3A 99 9A 00 00 00 00 40 BB 33 33 41 23 33 33 3E E6 66 66 40 DC CC CD 00 00 00 00 40 2C 1F 0A
write:21 03 07 CF 00 78 73 C3
write:21 03 01 0F 00 08 72 93
write:22 03 00 38 00 34 C2 83
22 03 68
3443 6B E8 B4 43 6B FC AC 43 6B AC 8B 43 CC 4B 85 43 CC 2A 5E 43 CC 2A 5E 42 98 C2 8F 42 AA 94 7B 42 A2 E6 66 46 47 38 00 46 61 00 00 46 54 58 00 47 1F 24 00 46 3C E8 00 46 52 00 00 46 49 90 00 47 16 1E 00 46 8C DC 00 46 9D 44 00 46 96 00 00 47 5A CA 00 3F 34 FD F4 3F 37 4B C7 3F 35 3F 7D 3F 3A 1C AC 42 48 73 B7
write:22 03 07 CF 00 78 73 F0
22 03 F0
34totalsize 240
46 91 9D B3 45 93 3F 9A 46 35 2B 66 00 00 00 00 45 11 BE 66 00 00 00 00 00 00 00 00 00 00 00 00 00 00 00 00 00 00 00 00 46 57 44 CD 45 58 07 33 46 05 93 33 00 00 00 00 44 DD 79 9A 40 E6 66 66 00 00 00 00 3F 66 66 66 00 00 00 00 40 C9 99 9A 46 A2 7B E6 45 AB C7 33 46 39 CA 9A 00 00 00 00 45 55 24 00 00 00 00 00 00 00 00 00 00 00 00 00 00 00 00 00 00 00 00 00 46 67 37 33 45 6B CC CD 46 06 3E 33 00 00 00 00 45 18 14 CD 41 28 00 00 3E E6 66 66 3F F9 99 9A 00 00 00 00 40 FE 66 66 46 28 7C CD 44 CD 5E 66 45 D8 06 00 00 00 00 00 45 0B 35 9A 00 00 00 00 00 00 00 00 00 00 00 00 00 00 00 00 00 00 00 00 46 14 0F 33 44 A5 86 66 45 BE D0 66 00 00 00 00 44 FF AC CD 40 53 33 33 00 00 00 00 3E 19 99 9A 00 00 00 00 40 40 84 17
write:22 03 01 0F 00 08 72 A0
22 03 10
3400 1D D4 F1 00 00 00 00 00 17 3F DB 00 00 3A A5
43 6B E8 B4
235.909
43 6B FC AC
235.987
43 6B AC 8B
235.674
43 CC 4B 85
408.59
43 CC 2A 5E
408.331
43 CC 2A 5E
408.331
42 98 C2 8F
76.38
42 AA 94 7B
85.29
42 A2 E6 66
81.45
46 47 38 00
12750
46 61 00 00
14400
46 54 58 00
13590
47 1F 24 00
40740
46 3C E8 00
12090
46 52 00 00
13440
46 49 90 00
12900
47 16 1E 00
38430
46 8C DC 00
18030
46 9D 44 00
20130
46 96 00 00
19200
47 5A CA 00
56010
3F 34 FD F4
0.707
3F 37 4B C7
0.716
3F 35 3F 7D
0.708
3F 3A 1C AC
0.727
42 48 73 B7
50.113003
46 91 9D B3
18638.85
45 93 3F 9A
4711.95
46 35 2B 66
11594.85
00 00 00 00
0
45 11 BE 66
2331.9
00 00 00 00
0
00 00 00 00
0
00 00 00 00
0
00 00 00 00
0
00 00 00 00
0
46 57 44 CD
13777.2
45 58 07 33
3456.45
46 05 93 33
8548.8
00 00 00 00
0
44 DD 79 9A
1771.8
40 E6 66 66
7.2
00 00 00 00
0
3F 66 66 66
0.9
00 00 00 00
0
40 C9 99 9A
6.3
46 A2 7B E6
20797.95
45 AB C7 33
5496.9
46 39 CA 9A
11890.65
00 00 00 00
0
45 55 24 00
3410.25
00 00 00 00
0
00 00 00 00
0
00 00 00 00
0
00 00 00 00
0
00 00 00 00
0
46 67 37 33
14797.8
45 6B CC CD
3772.8
46 06 3E 33
8591.55
00 00 00 00
0
45 18 14 CD
2433.3
41 28 00 00
10.5
3E E6 66 66
0.45
3F F9 99 9A
1.95
00 00 00 00
0
40 FE 66 66
7.95
46 28 7C CD
10783.2
44 CD 5E 66
1642.95
45 D8 06 00
6912.75
00 00 00 00
0
45 0B 35 9A
2227.35
00 00 00 00
0
00 00 00 00
0
00 00 00 00
0
00 00 00 00
0
00 00 00 00
0
46 14 0F 33
9475.8
44 A5 86 66
1324.2
45 BE D0 66
6106.05
00 00 00 00
0
44 FF AC CD
2045.4
40 53 33 33
3.3
00 00 00 00
0
3E 19 99 9A
0.15
00 00 00 00
0
40 40 84 17
3.0080621
00 1D D4 F1
1955057
00 00 00 00
0
00 17 3F DB
1523675
00 00 3A A5
15013
235.909235.987235.674408.59408.331408.33176.3885.2981.451275014400135904074012090134401290038430180302013019200560100.7070.7160.7080.72750.11300318638.854711.9511594.8502331.90000013777.23456.458548.801771.87.200.906.320797.955496.911890.6503410.250000014797.83772.88591.5502433.310.50.451.9507.9510783.21642.956912.7502227.35000009475.81324.26106.0502045.43.300.1503.008062134201711271938251955.05701523.67515.013insert into tbl_power_info_v2(P_A_DIANYA,P_B_DIANYA,P_C_DIANYA,P_UAB_XIANDIANYA,P_UBC_XIANDIANYA,P_UCA_XIANDIANYA,P_A_DIANLIU,P_B_DIANLIU,P_C_DIANLIU,P_A_YGGL,P_B_YGGL,P_C_YGGL,P_HXYGGL,P_A_WGGL,P_B_WGGL,P_C_WGGL,P_HXWGGL,P_A_SZGL,P_B_SZGL,P_C_SZGL,P_HXSZGL,P_A_GLYS,P_B_GLYS,P_C_GLYS,P_HXGLYS,P_DWPL,P_BY_KwhZ,P_BY_KwhJ,P_BY_KwhF,P_BY_KwhP,P_BY_KwhG,P_BY_HKwhZ,P_BY_HKwhJ,P_BY_HKwhF,P_BY_HKwhP,P_BY_HKwhG, P_BY_KvarhZ,P_BY_KvarhJ,P_BY_KvarhF,P_BY_KvarhP,P_BY_KvarhG, P_BY_HKvarhZ,P_BY_HKvarhJ,P_BY_HKvarhF,P_BY_HKvarhP,P_BY_HKvarhG, P_SY_KwhZ,P_SY_KwhJ,P_SY_KwhF,P_SY_KwhP,P_SY_KwhG, P_SY_HKwhZ,P_SY_HKwhJ,P_SY_HKwhF,P_SY_HKwhP,P_SY_HKwhG, P_SY_KvarhZ,P_SY_KvarhJ,P_SY_KvarhF,P_SY_KvarhP,P_SY_KvarhG, P_SY_HKvarhZ,P_SY_HKvarhJ,P_SY_HKvarhF,P_SY_HKvarhP,P_SY_HKvarhG, P_SSY_KwhZ,P_SSY_KwhJ,P_SSY_KwhF,P_SSY_KwhP,P_SSY_KwhG, P_SSY_HKwhZ,P_SSY_HKwhJ,P_SSY_HKwhF,P_SSY_HKwhP,P_SSY_HKwhG, P_SSY_KvarhZ,P_SSY_KvarhJ,P_SSY_KvarhF,P_SSY_KvarhP,P_SSY_KvarhG, P_SSY_HKvarhZ,P_SSY_HKvarhJ,P_SSY_HKvarhF,P_SSY_HKvarhP,P_SSY_HKvarhG,P_CODE,P_TIME,P_ZXYGDN,P_FXYGDN,P_ZXWGDN,P_FXWGDN)values(235.909,235.987,235.674,408.59,408.331,408.331,76.38,85.29,81.45,12750,14400,13590,40740,12090,13440,12900,38430,18030,20130,19200,56010,0.707,0.716,0.708,0.727,50.113003,18638.85,4711.95,11594.85,0,2331.9,0,0,0,0,0,13777.2,3456.45,8548.8,0,1771.8,7.2,0,0.9,0,6.3,20797.95,5496.9,11890.65,0,3410.25,0,0,0,0,0,14797.8,3772.8,8591.55,0,2433.3,10.5,0.45,1.95,0,7.95,10783.2,1642.95,6912.75,0,2227.35,0,0,0,0,0,9475.8,1324.2,6106.05,0,2045.4,3.3,0,0.15,0,3.0080621,34,20171127193825,1955.057,0,1523.675,15.013)
写入成功读取完毕一个
write:23 03 00 38 00 34 C3 52
write:23 03 07 CF 00 78 72 21
write:23 03 01 0F 00 08 73 71
write:24 03 00 38 00 34 C2 E5
24 03 68
3643 6B EE 56 43 6C 21 48 43 6B BA A0 43 CC 61 CB 43 CC 4B 85 43 CC 35 60 3F A8 F5 C3 40 9C 7A E1 00 00 00 00 43 52 00 00 44 3B 80 00 00 00 00 00 44 77 80 00 42 B4 00 00 42 B4 00 00 42 B4 00 00 42 70 00 00 43 96 00 00 44 92 40 00 42 B4 00 00 44 77 80 00 3F 29 FB E7 3F 27 2B 02 3E 9F 3B 64 3F 7F BE 77 42 48 22 91
write:24 03 07 CF 00 78 73 96
24 03 F0
36totalsize 240
44 E6 9B 33 42 90 E6 66 44 B7 64 CD 00 00 00 00 43 98 A0 00 00 00 00 00 00 00 00 00 00 00 00 00 00 00 00 00 00 00 00 00 44 E3 49 9A 41 99 99 9A 44 C4 8E 66 00 00 00 00 43 62 59 9A 40 40 00 00 3E E6 66 66 3F 19 99 9A 00 00 00 00 3F F9 99 9A 44 FE DE 66 42 D6 CC CD 44 C8 0B 33 00 00 00 00 43 A5 99 9A 00 00 00 00 00 00 00 00 00 00 00 00 00 00 00 00 00 00 00 00 44 FD F8 00 42 43 00 00 44 D9 B0 00 00 00 00 00 43 71 80 00 40 A3 33 33 3E 99 99 9A 3F D3 33 33 00 00 00 00 40 40 00 00 44 FE E3 33 42 4A 33 33 44 CD C3 33 00 00 00 00 43 AB 26 66 00 00 00 00 00 00 00 00 00 00 00 00 00 00 00 00 00 00 00 00 45 00 B3 33 41 23 33 33 44 E2 4B 33 00 00 00 00 43 6E 80 00 40 A8 00 00 3F 66 66 66 40 06 66 66 00 00 00 00 40 10 50 B5
write:24 03 01 0F 00 08 72 C6
24 03 10
3600 09 16 C4 00 00 00 00 00 08 EC 31 00 00 1A C1
43 6B EE 56
235.931
43 6C 21 48
236.13
43 6B BA A0
235.729
43 CC 61 CB
408.764
43 CC 4B 85
408.59
43 CC 35 60
408.417
3F A8 F5 C3
1.32
40 9C 7A E1
4.89
00 00 00 00
0
43 52 00 00
210
44 3B 80 00
750
00 00 00 00
0
44 77 80 00
990
42 B4 00 00
90
42 B4 00 00
90
42 B4 00 00
90
42 70 00 00
60
43 96 00 00
300
44 92 40 00
1170
42 B4 00 00
90
44 77 80 00
990
3F 29 FB E7
0.664
3F 27 2B 02
0.653
3E 9F 3B 64
0.311
3F 7F BE 77
0.999
42 48 22 91
50.033756
44 E6 9B 33
1844.85
42 90 E6 66
72.45
44 B7 64 CD
1467.15
00 00 00 00
0
43 98 A0 00
305.25
00 00 00 00
0
00 00 00 00
0
00 00 00 00
0
00 00 00 00
0
00 00 00 00
0
44 E3 49 9A
1818.3
41 99 99 9A
19.2
44 C4 8E 66
1572.45
00 00 00 00
0
43 62 59 9A
226.35
40 40 00 00
3
3E E6 66 66
0.45
3F 19 99 9A
0.6
00 00 00 00
0
3F F9 99 9A
1.95
44 FE DE 66
2038.95
42 D6 CC CD
107.4
44 C8 0B 33
1600.35
00 00 00 00
0
43 A5 99 9A
331.2
00 00 00 00
0
00 00 00 00
0
00 00 00 00
0
00 00 00 00
0
00 00 00 00
0
44 FD F8 00
2031.75
42 43 00 00
48.75
44 D9 B0 00
1741.5
00 00 00 00
0
43 71 80 00
241.5
40 A3 33 33
5.1
3E 99 99 9A
0.3
3F D3 33 33
1.65
00 00 00 00
0
40 40 00 00
3
44 FE E3 33
2039.1
42 4A 33 33
50.55
44 CD C3 33
1646.1
00 00 00 00
0
43 AB 26 66
342.3
00 00 00 00
0
00 00 00 00
0
00 00 00 00
0
00 00 00 00
0
00 00 00 00
0
45 00 B3 33
2059.2
41 23 33 33
10.2
44 E2 4B 33
1810.35
00 00 00 00
0
43 6E 80 00
238.5
40 A8 00 00
5.25
3F 66 66 66
0.9
40 06 66 66
2.1
00 00 00 00
0
40 10 50 B5
2.254926
00 09 16 C4
595652
00 00 00 00
0
00 08 EC 31
584753
00 00 1A C1
6849
235.931236.13235.729408.764408.59408.4171.324.8902107500990909090603001170909900.6640.6530.3110.99950.0337561844.8572.451467.150305.25000001818.319.21572.450226.3530.450.601.952038.95107.41600.350331.2000002031.7548.751741.50241.55.10.31.65032039.150.551646.10342.3000002059.210.21810.350238.55.250.92.102.2549263620171127194026595.6520584.7536.849insert into tbl_power_info_v2(P_A_DIANYA,P_B_DIANYA,P_C_DIANYA,P_UAB_XIANDIANYA,P_UBC_XIANDIANYA,P_UCA_XIANDIANYA,P_A_DIANLIU,P_B_DIANLIU,P_C_DIANLIU,P_A_YGGL,P_B_YGGL,P_C_YGGL,P_HXYGGL,P_A_WGGL,P_B_WGGL,P_C_WGGL,P_HXWGGL,P_A_SZGL,P_B_SZGL,P_C_SZGL,P_HXSZGL,P_A_GLYS,P_B_GLYS,P_C_GLYS,P_HXGLYS,P_DWPL,P_BY_KwhZ,P_BY_KwhJ,P_BY_KwhF,P_BY_KwhP,P_BY_KwhG,P_BY_HKwhZ,P_BY_HKwhJ,P_BY_HKwhF,P_BY_HKwhP,P_BY_HKwhG, P_BY_KvarhZ,P_BY_KvarhJ,P_BY_KvarhF,P_BY_KvarhP,P_BY_KvarhG, P_BY_HKvarhZ,P_BY_HKvarhJ,P_BY_HKvarhF,P_BY_HKvarhP,P_BY_HKvarhG, P_SY_KwhZ,P_SY_KwhJ,P_SY_KwhF,P_SY_KwhP,P_SY_KwhG, P_SY_HKwhZ,P_SY_HKwhJ,P_SY_HKwhF,P_SY_HKwhP,P_SY_HKwhG, P_SY_KvarhZ,P_SY_KvarhJ,P_SY_KvarhF,P_SY_KvarhP,P_SY_KvarhG, P_SY_HKvarhZ,P_SY_HKvarhJ,P_SY_HKvarhF,P_SY_HKvarhP,P_SY_HKvarhG, P_SSY_KwhZ,P_SSY_KwhJ,P_SSY_KwhF,P_SSY_KwhP,P_SSY_KwhG, P_SSY_HKwhZ,P_SSY_HKwhJ,P_SSY_HKwhF,P_SSY_HKwhP,P_SSY_HKwhG, P_SSY_KvarhZ,P_SSY_KvarhJ,P_SSY_KvarhF,P_SSY_KvarhP,P_SSY_KvarhG, P_SSY_HKvarhZ,P_SSY_HKvarhJ,P_SSY_HKvarhF,P_SSY_HKvarhP,P_SSY_HKvarhG,P_CODE,P_TIME,P_ZXYGDN,P_FXYGDN,P_ZXWGDN,P_FXWGDN)values(235.931,236.13,235.729,408.764,408.59,408.417,1.32,4.89,0,210,750,0,990,90,90,90,60,300,1170,90,990,0.664,0.653,0.311,0.999,50.033756,1844.85,72.45,1467.15,0,305.25,0,0,0,0,0,1818.3,19.2,1572.45,0,226.35,3,0.45,0.6,0,1.95,2038.95,107.4,1600.35,0,331.2,0,0,0,0,0,2031.75,48.75,1741.5,0,241.5,5.1,0.3,1.65,0,3,2039.1,50.55,1646.1,0,342.3,0,0,0,0,0,2059.2,10.2,1810.35,0,238.5,5.25,0.9,2.1,0,2.254926,36,20171127194026,595.652,0,584.753,6.849)
写入成功读取完毕一个
write:25 03 00 38 00 34 C3 34
write:25 03 07 CF 00 78 72 47
25 03 68
3743 6B EE 98 43 6B D4 7B 43 6B 98 D5 43 CC 40 83 43 CC 14 19 43 CC 1F 3B 42 17 AE 14 42 18 66 66 42 17 CC CD 46 0A C0 00 46 0B 38 00 46 0A C0 00 46 D0 5C 00 44 7F 00 00 44 8A C0 00 44 77 80 00 45 43 00 00 46 0B B0 00 46 0C A0 00 46 0B B0 00 46 D1 C4 00 3F 7E 35 3F 3F 7D F3 B6 3F 7E 35 3F 3F 7E 35 3F 42 48 1A 60
write:25 03 01 0F 00 08 73 17
write:26 03 00 38 00 34 C3 07
write:26 03 07 CF 00 78 72 74
write:26 03 01 0F 00 08 73 24
write:27 03 00 38 00 34 C2 D6
write:27 03 07 CF 00 78 73 A5
write:27 03 01 0F 00 08 72 F5
write:28 03 00 38 00 34 C2 29
write:28 03 07 CF 00 78 73 5A
write:28 03 01 0F 00 08 72 0A
write:29 03 00 38 00 34 C3 F8
write:29 03 07 CF 00 78 72 8B
25 03 F0
37totalsize 240
45 7D C8 00 44 00 79 9A 45 2F 57 33 00 00 00 00 44 39 40 00 00 00 00 00 00 00 00 00 00 00 00 00 00 00 00 00 00 00 00 00 44 C8 53 33 43 7F 73 33 44 8B F3 33 00 00 00 00 43 63 66 66 40 36 66 66 3E 99 99 9A 3E E6 66 66 00 00 00 00 3F F9 99 9A 45 5E 62 66 43 A5 E6 66 45 25 D8 00 00 00 00 00 44 0F 2C CD 00 00 00 00 00 00 00 00 00 00 00 00 00 00 00 00 00 00 00 00 45 0E 46 66 43 77 F3 33 44 D2 51 9A 00 00 00 00 43 AC E0 00 40 10 00 00 3E 99 99 9A 3F 19 99 9A 00 00 00 00 3F 99 99 9A 45 22 37 33 43 83 EC CD 44 F1 46 66 00 00 00 00 43 C8 A0 00 00 00 00 00 00 00 00 00 00 00 00 00 00 00 00 00 00 00 00 00 44 DC 50 00 43 48 19 9A 44 A5 5B 33 00 00 00 00 43 6F 66 66 40 E1 99 9A 40 66 66 66 40 10 00 00 00 00 00 00 3F 99 7A 0E
25 03 10
3700 06 B9 D1 00 00 00 00 00 03 BF A4 00 00 45 42
43 6B EE 98
235.932
43 6B D4 7B
235.83
43 6B 98 D5
235.597
43 CC 40 83
408.504
43 CC 14 19
408.157
43 CC 1F 3B
408.244
42 17 AE 14
37.92
42 18 66 66
38.1
42 17 CC CD
37.95
46 0A C0 00
8880
46 0B 38 00
8910
46 0A C0 00
8880
46 D0 5C 00
26670
44 7F 00 00
1020
44 8A C0 00
1110
44 77 80 00
990
45 43 00 00
3120
46 0B B0 00
8940
46 0C A0 00
9000
46 0B B0 00
8940
46 D1 C4 00
26850
3F 7E 35 3F
0.993
3F 7D F3 B6
0.992
3F 7E 35 3F
0.993
3F 7E 35 3F
0.993
42 48 1A 60
50.025757
45 7D C8 00
4060.5
44 00 79 9A
513.9
45 2F 57 33
2805.45
00 00 00 00
0
44 39 40 00
741
00 00 00 00
0
00 00 00 00
0
00 00 00 00
0
00 00 00 00
0
00 00 00 00
0
44 C8 53 33
1602.6
43 7F 73 33
255.45
44 8B F3 33
1119.6
00 00 00 00
0
43 63 66 66
227.4
40 36 66 66
2.85
3E 99 99 9A
0.3
3E E6 66 66
0.45
00 00 00 00
0
3F F9 99 9A
1.95
45 5E 62 66
3558.15
43 A5 E6 66
331.8
45 25 D8 00
2653.5
00 00 00 00
0
44 0F 2C CD
572.7
00 00 00 00
0
00 00 00 00
0
00 00 00 00
0
00 00 00 00
0
00 00 00 00
0
45 0E 46 66
2276.4
43 77 F3 33
247.95
44 D2 51 9A
1682.55
00 00 00 00
0
43 AC E0 00
345.75
40 10 00 00
2.25
3E 99 99 9A
0.3
3F 19 99 9A
0.6
00 00 00 00
0
3F 99 99 9A
1.2
45 22 37 33
2595.45
43 83 EC CD
263.85
44 F1 46 66
1930.2
00 00 00 00
0
43 C8 A0 00
401.25
00 00 00 00
0
00 00 00 00
0
00 00 00 00
0
00 00 00 00
0
00 00 00 00
0
44 DC 50 00
1762.5
43 48 19 9A
200.1
44 A5 5B 33
1322.85
00 00 00 00
0
43 6F 66 66
239.4
40 E1 99 9A
7.05
40 66 66 66
3.6
40 10 00 00
2.25
00 00 00 00
0
3F 99 7A 0E
1.1990373
00 06 B9 D1
440785
00 00 00 00
0
00 03 BF A4
245668
00 00 45 42
17730
235.932235.83235.597408.504408.157408.24437.9238.137.9588808910888026670102011109903120894090008940268500.9930.9920.9930.99350.0257574060.5513.92805.450741000001602.6255.451119.60227.42.850.30.4501.953558.15331.82653.50572.7000002276.4247.951682.550345.752.250.30.601.22595.45263.851930.20401.25000001762.5200.11322.850239.47.053.62.2501.19903733720171127194506440.7850245.66817.73insert into tbl_power_info_v2(P_A_DIANYA,P_B_DIANYA,P_C_DIANYA,P_UAB_XIANDIANYA,P_UBC_XIANDIANYA,P_UCA_XIANDIANYA,P_A_DIANLIU,P_B_DIANLIU,P_C_DIANLIU,P_A_YGGL,P_B_YGGL,P_C_YGGL,P_HXYGGL,P_A_WGGL,P_B_WGGL,P_C_WGGL,P_HXWGGL,P_A_SZGL,P_B_SZGL,P_C_SZGL,P_HXSZGL,P_A_GLYS,P_B_GLYS,P_C_GLYS,P_HXGLYS,P_DWPL,P_BY_KwhZ,P_BY_KwhJ,P_BY_KwhF,P_BY_KwhP,P_BY_KwhG,P_BY_HKwhZ,P_BY_HKwhJ,P_BY_HKwhF,P_BY_HKwhP,P_BY_HKwhG, P_BY_KvarhZ,P_BY_KvarhJ,P_BY_KvarhF,P_BY_KvarhP,P_BY_KvarhG, P_BY_HKvarhZ,P_BY_HKvarhJ,P_BY_HKvarhF,P_BY_HKvarhP,P_BY_HKvarhG, P_SY_KwhZ,P_SY_KwhJ,P_SY_KwhF,P_SY_KwhP,P_SY_KwhG, P_SY_HKwhZ,P_SY_HKwhJ,P_SY_HKwhF,P_SY_HKwhP,P_SY_HKwhG, P_SY_KvarhZ,P_SY_KvarhJ,P_SY_KvarhF,P_SY_KvarhP,P_SY_KvarhG, P_SY_HKvarhZ,P_SY_HKvarhJ,P_SY_HKvarhF,P_SY_HKvarhP,P_SY_HKvarhG, P_SSY_KwhZ,P_SSY_KwhJ,P_SSY_KwhF,P_SSY_KwhP,P_SSY_KwhG, P_SSY_HKwhZ,P_SSY_HKwhJ,P_SSY_HKwhF,P_SSY_HKwhP,P_SSY_HKwhG, P_SSY_KvarhZ,P_SSY_KvarhJ,P_SSY_KvarhF,P_SSY_KvarhP,P_SSY_KvarhG, P_SSY_HKvarhZ,P_SSY_HKvarhJ,P_SSY_HKvarhF,P_SSY_HKvarhP,P_SSY_HKvarhG,P_CODE,P_TIME,P_ZXYGDN,P_FXYGDN,P_ZXWGDN,P_FXWGDN)values(235.932,235.83,235.597,408.504,408.157,408.244,37.92,38.1,37.95,8880,8910,8880,26670,1020,1110,990,3120,8940,9000,8940,26850,0.993,0.992,0.993,0.993,50.025757,4060.5,513.9,2805.45,0,741,0,0,0,0,0,1602.6,255.45,1119.6,0,227.4,2.85,0.3,0.45,0,1.95,3558.15,331.8,2653.5,0,572.7,0,0,0,0,0,2276.4,247.95,1682.55,0,345.75,2.25,0.3,0.6,0,1.2,2595.45,263.85,1930.2,0,401.25,0,0,0,0,0,1762.5,200.1,1322.85,0,239.4,7.05,3.6,2.25,0,1.1990373,37,20171127194506,440.785,0,245.668,17.73)
写入成功读取完毕一个
26 03 68
3843 6B B0 21 43 6B F1 68 43 6B 77 0A 43 CC 2A 5E 43 CC 14 19 43 CB F2 D1 00 00 00 00 00 00 00 00 3F 5E B8 52 00 00 00 00 00 00 00 00 00 00 00 00 42 F0 00 00 00 00 00 00 00 00 00 00 43 34 00 00 43 70 00 00 42 70 00 00 42 70 00 00 43 52 00 00 43 87 00 00 3F 1E 35 3F 3F 32 6E 98 3E 56 04 19 3E DA 9F BE 42 48 11 EE
write:29 03 01 0F 00 08 73 DB
write:2A 03 00 38 00 34 C3 CB
write:2A 03 07 CF 00 78 72 B8
write:2A 03 01 0F 00 08 73 E8
write:2B 03 00 38 00 34 C2 1A
write:2B 03 07 CF 00 78 73 69
write:2B 03 01 0F 00 08 72 39
write:2C 03 00 38 00 34 C3 AD
write:2C 03 07 CF 00 78 72 DE
write:2C 03 01 0F 00 08 73 8E
write:2D 03 00 38 00 34 C2 7C
write:2D 03 07 CF 00 78 73 0F
write:2D 03 01 0F 00 08 72 5F
write:2E 03 00 38 00 34 C2 4F
write:2E 03 07 CF 00 78 73 3C
write:2E 03 01 0F 00 08 72 6C
write:2F 03 00 38 00 34 C3 9E
write:2F 03 07 CF 00 78 72 ED
34 30 32
heart:34 30 32 37 32 32 35 36 30 34 38 32
34 30 32
heart:34 30 32 37 32 32 35 36 30 34 38 32 FE 7F FF EF DD CB EF FF CC FB FE EF F7 45 20 B4 CD 00 00 00 00 54 FD FB F0 FF FF FF 7B F1 FC CA 45 53 33 33 00 00 00 00 3F 40 00 00 45 49 3E 66 40 40 00 00 45 1A 2C 00 00 00 00 00 44 3B 80 00 42 A4 19 9A 41 A8 00 00 41 94 CC CD 00 00 00 00 42 28 99 9A 44 90 73 33 42 5B 00 00 44 55 13 33 00 00 00 00 43 78 66 66 3F AC CC CD 00 00 00 00 3F 86 66 66 00 00 00 00 3E 19 99 9A 44 89 53 33 42 2F CC CD 44 50 FC CD 00 00 00 00 43 5A 8C CD 41 C6 00 00 40 C9 99 9A 40 A8 00 00 00 00 00 00 41 50 CC CD 42 AF 33 33 40 19 99 9A 42 77 CC CD 00 00 00 00 41 B8 CC CD 00 00 00 00 00 00 00 00 00 00 00 00 00 00 00 00 00 00 00 00 42 1D 33 33 3F C0 00 00 41 E7 99 9A 00 00 00 00 41 0B 33 33 41 01 99 F9 CF F7 BC EB FE BF F0 00 00 00 00 00 69 C5 00 00 6E 78
write:2F 03 01 0F 00 08 73 BD
write:30 03 00 38 00 34 C1 F1
write:30 03 07 CF 00 78 70 82
write:30 03 01 0F 00 08 71 D2
write:31 03 00 38 00 34 C0 20
write:31 03 07 CF 00 78 71 53
write:31 03 01 0F 00 08 70 03
write:32 03 00 38 00 34 C0 13
write:32 03 07 CF 00 78 71 60
write:32 03 01 0F 00 08 70 30
write:21 03 00 38 00 34 C2 B0
write:21 03 07 CF 00 78 73 C3
write:21 03 01 0F 00 08 72 93
write:22 03 00 38 00 34 C2 83
write:22 03 07 CF 00 78 73 F0
write:22 03 01 0F 00 08 72 A0
write:23 03 00 38 00 34 C3 52
write:23 03 07 CF 00 78 72 21
write:23 03 01 0F 00 08 73 71
9A 3E 99
heart:9A 3E 99 99 9A 40 B6 66 66 00 00 00 00 3F F9 E4 62
34 30 32
heart:34 30 32 37 32 32 35 36 30 34 38 32
write:24 03 00 38 00 34 C2 E5
write:24 03 07 CF 00 78 73 96
write:24 03 01 0F 00 08 72 C6
write:25 03 00 38 00 34 C3 34
write:25 03 07 CF 00 78 72 47
write:25 03 01 0F 00 08 73 17
write:26 03 00 38 00 34 C3 07
write:26 03 07 CF 00 78 72 74
write:26 03 01 0F 00 08 73 24
write:27 03 00 38 00 34 C2 D6
write:27 03 07 CF 00 78 73 A5
write:27 03 01 0F 00 08 72 F5
write:28 03 00 38 00 34 C2 29
write:28 03 07 CF 00 78 73 5A
write:28 03 01 0F 00 08 72 0A
write:29 03 00 38 00 34 C3 F8
write:29 03 07 CF 00 78 72 8B
write:29 03 01 0F 00 08 73 DB
write:2A 03 00 38 00 34 C3 CB
write:2A 03 07 CF 00 78 72 B8
write:2A 03 01 0F 00 08 73 E8
write:2B 03 00 38 00 34 C2 1A
write:2B 03 07 CF 00 78 73 69
write:2B 03 01 0F 00 08 72 39
write:2C 03 00 38 00 34 C3 AD

err2222: read tcp 172.16.246.153:6004->124.160.219.145:16268: read: connection timed out
write:2C 03 07 CF 00 78 72 DE
write err: write tcp 172.16.246.153:6004->124.160.219.145:16268: use of closed network connection
received messag ?->? 
 124.160.217.223:17704 172.16.246.153:6004
34 30 32
heart:34 30 32 37 32 32 35 36 30 34 38 32
write:21 03 00 38 00 34 C2 B0
write:21 03 07 CF 00 78 73 C3
write:21 03 01 0F 00 08 72 93
write:22 03 00 38 00 34 C2 83
22 03 68
3443 6B ED D3 43 6C 4D 0E 43 6B BC EE 43 CC 77 F0 43 CC 61 CB 43 CC 35 60 42 BE 23 D7 42 BF 66 66 42 BE 70 A4 46 7A 50 00 46 77 80 00 46 76 90 00 47 3A 18 00 46 6E 20 00 46 74 B0 00 46 71 E0 00 47 35 2C 00 46 AF 50 00 46 B0 B8 00 46 AF 50 00 47 81 D8 00 3F 37 0A 3D 3F 33 33 33 3F 33 F7 CF 3F 37 4B C7 42 47 54 AC
write:22 03 07 CF 00 78 73 F0
write:22 03 01 0F 00 08 72 A0
write:23 03 00 38 00 34 C3 52
write:23 03 07 CF 00 78 72 21
write:23 03 01 0F 00 08 73 71
write:24 03 00 38 00 34 C2 E5
write:24 03 07 CF 00 78 73 96
write:24 03 01 0F 00 08 72 C6
write:25 03 00 38 00 34 C3 34
write:25 03 07 CF 00 78 72 47
write:25 03 01 0F 00 08 73 17
write:26 03 00 38 00 34 C3 07
write:26 03 07 CF 00 78 72 74
write:26 03 01 0F 00 08 73 24
write:27 03 00 38 00 34 C2 D6
write:27 03 07 CF 00 78 73 A5
write:27 03 01 0F 00 08 72 F5
write:28 03 00 38 00 34 C2 29
write:28 03 07 CF 00 78 73 5A
write:28 03 01 0F 00 08 72 0A
22 03 F0
34totalsize 240
46 91 D3 66 45 94 16 66 46 35 2B 66 00 00 00 00 45 11 BE 66 00 00 00 00 00 00 00 00 00 00 00 00 00 00 00 00 00 00 00 00 46 57 AF 00 45 59 AD 9A 46 05 93 33 00 00 00 00 44 DD 79 9A 40 E6 66 66 00 00 00 00 3F 66 66 66 00 00 00 00 40 C9 99 9A 46 A2 7B E6 45 AB C7 33 46 39 CA 9A 00 00 00 00 45 55 24 00 00 00 00 00 00 00 00 00 00 00 00 00 00 00 00 00 00 00 00 00 46 67 37 33 45 6B CC CD 46 06 3E 33 00 00 00 00 45 18 14 CD 41 28 00 00 3E E6 66 66 3F F9 99 9A 00 00 00 00 40 FE 66 66 46 28 7C CD 44 CD 5E 66 45 D8 06 00 00 00 00 00 45 0B 35 9A 00 00 00 00 00 00 00 00 00 00 00 00 00 00 00 00 00 00 00 00 46 14 0F 33 44 A5 86 66 45 BE D0 66 00 00 00 00 44 FF AC CD 40 53 33 33 00 00 00 00 3E 19 99 9A 00 00 00 00 40 40 48 1F
write:29 03 00 38 00 34 C3 F8
22 03 10
3400 1D D8 75 00 00 00 00 00 17 43 50 00 00 FF FD
43 6B ED D3
235.929
43 6C 4D 0E
236.301
43 6B BC EE
235.738
43 CC 77 F0
408.937
43 CC 61 CB
408.764
43 CC 35 60
408.417
42 BE 23 D7
95.07
42 BF 66 66
95.7
42 BE 70 A4
95.22
46 7A 50 00
16020
46 77 80 00
15840
46 76 90 00
15780
47 3A 18 00
47640
46 6E 20 00
15240
46 74 B0 00
15660
46 71 E0 00
15480
47 35 2C 00
46380
46 AF 50 00
22440
46 B0 B8 00
22620
46 AF 50 00
22440
47 81 D8 00
66480
3F 37 0A 3D
0.715
3F 33 33 33
0.7
3F 33 F7 CF
0.703
3F 37 4B C7
0.716
42 47 54 AC
49.832687
46 91 D3 66
18665.7
45 94 16 66
4738.8
46 35 2B 66
11594.85
00 00 00 00
0
45 11 BE 66
2331.9
00 00 00 00
0
00 00 00 00
0
00 00 00 00
0
00 00 00 00
0
00 00 00 00
0
46 57 AF 00
13803.75
45 59 AD 9A
3482.85
46 05 93 33
8548.8
00 00 00 00
0
44 DD 79 9A
1771.8
40 E6 66 66
7.2
00 00 00 00
0
3F 66 66 66
0.9
00 00 00 00
0
40 C9 99 9A
6.3
46 A2 7B E6
20797.95
45 AB C7 33
5496.9
46 39 CA 9A
11890.65
00 00 00 00
0
45 55 24 00
3410.25
00 00 00 00
0
00 00 00 00
0
00 00 00 00
0
00 00 00 00
0
00 00 00 00
0
46 67 37 33
14797.8
45 6B CC CD
3772.8
46 06 3E 33
8591.55
00 00 00 00
0
45 18 14 CD
2433.3
41 28 00 00
10.5
3E E6 66 66
0.45
3F F9 99 9A
1.95
00 00 00 00
0
40 FE 66 66
7.95
46 28 7C CD
10783.2
44 CD 5E 66
1642.95
45 D8 06 00
6912.75
00 00 00 00
0
45 0B 35 9A
2227.35
00 00 00 00
0
00 00 00 00
0
00 00 00 00
0
00 00 00 00
0
00 00 00 00
0
46 14 0F 33
9475.8
44 A5 86 66
1324.2
45 BE D0 66
6106.05
00 00 00 00
0
44 FF AC CD
2045.4
40 53 33 33
3.3
00 00 00 00
0
3E 19 99 9A
0.15
00 00 00 00
0
40 40 48 1F
3.004402
00 1D D8 75
1955957
00 00 00 00
0
00 17 43 50
1524560
00 00 FF FD
65533
235.929236.301235.738408.937408.764408.41795.0795.795.221602015840157804764015240156601548046380224402262022440664800.7150.70.7030.71649.83268718665.74738.811594.8502331.90000013803.753482.858548.801771.87.200.906.320797.955496.911890.6503410.250000014797.83772.88591.5502433.310.50.451.9507.9510783.21642.956912.7502227.35000009475.81324.26106.0502045.43.300.1503.00440234201711272019041955.95701524.5665.533insert into tbl_power_info_v2(P_A_DIANYA,P_B_DIANYA,P_C_DIANYA,P_UAB_XIANDIANYA,P_UBC_XIANDIANYA,P_UCA_XIANDIANYA,P_A_DIANLIU,P_B_DIANLIU,P_C_DIANLIU,P_A_YGGL,P_B_YGGL,P_C_YGGL,P_HXYGGL,P_A_WGGL,P_B_WGGL,P_C_WGGL,P_HXWGGL,P_A_SZGL,P_B_SZGL,P_C_SZGL,P_HXSZGL,P_A_GLYS,P_B_GLYS,P_C_GLYS,P_HXGLYS,P_DWPL,P_BY_KwhZ,P_BY_KwhJ,P_BY_KwhF,P_BY_KwhP,P_BY_KwhG,P_BY_HKwhZ,P_BY_HKwhJ,P_BY_HKwhF,P_BY_HKwhP,P_BY_HKwhG, P_BY_KvarhZ,P_BY_KvarhJ,P_BY_KvarhF,P_BY_KvarhP,P_BY_KvarhG, P_BY_HKvarhZ,P_BY_HKvarhJ,P_BY_HKvarhF,P_BY_HKvarhP,P_BY_HKvarhG, P_SY_KwhZ,P_SY_KwhJ,P_SY_KwhF,P_SY_KwhP,P_SY_KwhG, P_SY_HKwhZ,P_SY_HKwhJ,P_SY_HKwhF,P_SY_HKwhP,P_SY_HKwhG, P_SY_KvarhZ,P_SY_KvarhJ,P_SY_KvarhF,P_SY_KvarhP,P_SY_KvarhG, P_SY_HKvarhZ,P_SY_HKvarhJ,P_SY_HKvarhF,P_SY_HKvarhP,P_SY_HKvarhG, P_SSY_KwhZ,P_SSY_KwhJ,P_SSY_KwhF,P_SSY_KwhP,P_SSY_KwhG, P_SSY_HKwhZ,P_SSY_HKwhJ,P_SSY_HKwhF,P_SSY_HKwhP,P_SSY_HKwhG, P_SSY_KvarhZ,P_SSY_KvarhJ,P_SSY_KvarhF,P_SSY_KvarhP,P_SSY_KvarhG, P_SSY_HKvarhZ,P_SSY_HKvarhJ,P_SSY_HKvarhF,P_SSY_HKvarhP,P_SSY_HKvarhG,P_CODE,P_TIME,P_ZXYGDN,P_FXYGDN,P_ZXWGDN,P_FXWGDN)values(235.929,236.301,235.738,408.937,408.764,408.417,95.07,95.7,95.22,16020,15840,15780,47640,15240,15660,15480,46380,22440,22620,22440,66480,0.715,0.7,0.703,0.716,49.832687,18665.7,4738.8,11594.85,0,2331.9,0,0,0,0,0,13803.75,3482.85,8548.8,0,1771.8,7.2,0,0.9,0,6.3,20797.95,5496.9,11890.65,0,3410.25,0,0,0,0,0,14797.8,3772.8,8591.55,0,2433.3,10.5,0.45,1.95,0,7.95,10783.2,1642.95,6912.75,0,2227.35,0,0,0,0,0,9475.8,1324.2,6106.05,0,2045.4,3.3,0,0.15,0,3.004402,34,20171127201904,1955.957,0,1524.56,65.533)
写入成功读取完毕一个
34 30 32
heart:34 30 32 37 32 32 35 36 30 34 38 32
34 30 32
heart:34 30 32 37 32 32 35 36 30 34 38 32 34 30 32 37 32 32 35 36 30 34 38 32
EF F1 ED
heart:EF F1 ED FF C6 FE FF FF EF 7E 7F 5F FF 75 FC ED CC F1 CB 43 CC BA 7F 43 CC 99 37 3F A8 F5 C3 40 9C 7A E1 3E F5 C2 8F 43 52 00 00 44 3B 80 00 42 70 00 00 44 7F 00 00 42 B4 00 00 42 B4 00 00 42 B4 00 00 42 B4 00 00 43 96 00 00 44 F9 E1 FF B5 FB EF D7 5E FF 5F FF 9F BB FE FF FF BF F1 F3 FC FF FF EF EF FA DF EB FD FF EF AD 43 2C 33 33 41 17 33 33 42 F8 19 9A 00 00 00 00 42 1A 33 33 00 00 00 00 00 00 00 00 00 00 00 00 00 00 00 00 00 00 00 00 42 BA 00 00 40 B6 66 66 42 7F 99 9A 00 00 00 00 41 BA 00 00 3F 40 00 00 00 00 00 00 3F 19 99 9A 00 00 00 00 00 00 00 00 43 2B C0 00 41 20 CC CD 42 D2 4C CD 00 00 00 00 42 61 99 9A 00 00 00 00 00 00 00 00 00 00 00 00 00 00 00 00 00 00 00 00 42 58 99 9A 40 E1 99 9A 41 D4 66 66 00 00 00 00 41 A3 33 33 3E 19 99 9A 00 00 00 00 3E 19 99 9A 00 00 00 00 00 00 00 00 44 49 69 9A 41 77 33 33 43 FD 59 9A 00 00 00 00 43 8D AC CD 00 00 00 00 00 00 00 00 00 00 00 00 00 00 00 00 00 00 00 00 43 67 7B FF FF 9E 00 00 43 14 33 33 00 00 00 00 42 93 00 00 3E 19 99 9A 00 00 00 00 00 00 00 00 00 00 00 00 00 00 E8 11
write:29 03 07 CF 00 78 72 8B
write:29 03 01 0F 00 08 73 DB
29 03 F0
41totalsize 261
44 2F 20 00 41 19 99 9A 43 FE 8C CD 41 19 99 9A 43 2B E6 66 00 00 00 00 00 00 00 00 00 00 00 00 00 00 00 00 00 00 00 00 44 0E 33 33 00 00 00 00 43 E4 4C CD 00 00 00 00 42 DF CC CD 42 C7 CC CD 41 0B 33 33 42 1C 00 00 41 10 00 00 42 2C CC CD 43 D1 D9 9A 40 90 00 00 43 A3 80 00 40 90 00 00 42 A6 33 33 00 00 00 00 00 00 00 00 00 00 00 00 00 00 00 00 00 00 00 00 43 A4 B3 33 3E 99 99 9A 43 8E 33 33 3E 99 99 9A 42 2F 33 33 42 9F 00 00 40 F9 99 9A 41 E1 99 9A 41 01 99 9A 42 0C 66 66 43 D6 F3 33 40 06 66 66 43 9B B3 33 40 06 66 66 42 E4 00 00 00 00 00 00 00 00 00 00 00 00 00 00 00 00 00 00 00 00 00 00 43 E1 E6 66 3F 99 99 9A 43 AF F3 33 3F C0 00 00 42 C1 33 33 42 35 33 33 40 B6 66 66 41 2C CC CD 40 C0 00 00 41 B1 B3 36 29 03 10 00 00 00 00 67 1E 00 00 00 00 00 00 5B 3A 00 00 AB B5
write:2A 03 00 38 00 34 C3 CB
2A 03 68
4243 6C 52 6F 43 6C D0 21 43 6B C7 2B 43 CC DB A6 43 CC 99 37 43 CC 61 CB 40 D1 47 AE 41 A8 28 F6 41 C5 1E B8 44 B6 80 00 45 97 E0 00 45 B4 00 00 46 3C C0 00 43 70 00 00 44 2A 00 00 42 20 00 00 44 61 00 00 44 C0 80 00 45 9B A0 00 45 B5 E0 00 46 3D 10 00 3F 71 26 E9 3F 79 DB 23 3F 7D F3 B6 3F 7F 3B 64 42 48 82 EF
write:2A 03 07 CF 00 78 72 B8
2A 03 F0
42totalsize 240
46 01 55 9A 44 A7 C3 33 45 78 50 00 00 00 00 00 45 39 23 33 00 00 00 00 00 00 00 00 00 00 00 00 00 00 00 00 00 00 00 00 40 73 33 33 00 00 00 00 3F E6 66 66 00 00 00 00 40 00 00 00 44 4C 0C CD 42 EE 00 00 43 CD 73 33 00 00 00 00 43 8F 19 9A 46 02 2F 33 44 AB 10 00 45 84 08 CD 00 00 00 00 45 2B 21 9A 00 00 00 00 00 00 00 00 00 00 00 00 00 00 00 00 00 00 00 00 40 40 00 00 00 00 00 00 40 39 99 9A 00 00 00 00 00 00 00 00 44 66 F3 33 43 13 80 00 43 D3 80 00 00 00 00 00 43 B0 99 9A 46 14 A7 9A 44 C0 90 00 45 95 06 66 00 00 00 00 45 48 48 00 00 00 00 00 00 00 00 00 00 00 00 00 00 00 00 00 00 00 00 00 43 B7 CC CD 42 58 00 00 43 24 99 9A 00 00 00 00 43 14 CC CD 44 1B B3 33 42 D3 00 00 43 7B E6 66 00 00 00 00 43 84 FD 7F
write:2A 03 01 0F 00 08 73 E8
2A 03 10
4200 31 D6 FC 00 00 00 00 00 02 48 64 00 03 13 91
43 6C 52 6F
236.322
43 6C D0 21
236.813
43 6B C7 2B
235.778
43 CC DB A6
409.716
43 CC 99 37
409.197
43 CC 61 CB
408.764
40 D1 47 AE
6.54
41 A8 28 F6
21.02
41 C5 1E B8
24.64
44 B6 80 00
1460
45 97 E0 00
4860
45 B4 00 00
5760
46 3C C0 00
12080
43 70 00 00
240
44 2A 00 00
680
42 20 00 00
40
44 61 00 00
900
44 C0 80 00
1540
45 9B A0 00
4980
45 B5 E0 00
5820
46 3D 10 00
12100
3F 71 26 E9
0.942
3F 79 DB 23
0.976
3F 7D F3 B6
0.992
3F 7F 3B 64
0.997
42 48 82 EF
50.127865
46 01 55 9A
8277.4
44 A7 C3 33
1342.1
45 78 50 00
3973
00 00 00 00
0
45 39 23 33
2962.2
00 00 00 00
0
00 00 00 00
0
00 00 00 00
0
00 00 00 00
0
00 00 00 00
0
40 73 33 33
3.8
00 00 00 00
0
3F E6 66 66
1.8
00 00 00 00
0
40 00 00 00
2
44 4C 0C CD
816.2
42 EE 00 00
119
43 CD 73 33
410.9
00 00 00 00
0
43 8F 19 9A
286.2
46 02 2F 33
8331.8
44 AB 10 00
1368.5
45 84 08 CD
4225.1
00 00 00 00
0
45 2B 21 9A
2738.1
00 00 00 00
0
00 00 00 00
0
00 00 00 00
0
00 00 00 00
0
00 00 00 00
0
40 40 00 00
3
00 00 00 00
0
40 39 99 9A
2.9
00 00 00 00
0
00 00 00 00
0
44 66 F3 33
923.8
43 13 80 00
147.5
43 D3 80 00
423
00 00 00 00
0
43 B0 99 9A
353.2
46 14 A7 9A
9513.9
44 C0 90 00
1540.5
45 95 06 66
4768.8
00 00 00 00
0
45 48 48 00
3204.5
00 00 00 00
0
00 00 00 00
0
00 00 00 00
0
00 00 00 00
0
00 00 00 00
0
43 B7 CC CD
367.6
42 58 00 00
54
43 24 99 9A
164.6
00 00 00 00
0
43 14 CC CD
148.8
44 1B B3 33
622.8
42 D3 00 00
105.5
43 7B E6 66
251.9
00 00 00 00
0
43 84 FD 7F
265.98044
00 31 D6 FC
3266300
00 00 00 00
0
00 02 48 64
149604
00 03 13 91
201617
236.322236.813235.778409.716409.197408.7646.5421.0224.641460486057601208024068040900154049805820121000.9420.9760.9920.99750.1278658277.41342.1397302962.2000003.801.802816.2119410.90286.28331.81368.54225.102738.100000302.900923.8147.54230353.29513.91540.54768.803204.500000367.654164.60148.8622.8105.5251.90265.9804442201711272020453266.30149.604201.617insert into tbl_power_info_v2(P_A_DIANYA,P_B_DIANYA,P_C_DIANYA,P_UAB_XIANDIANYA,P_UBC_XIANDIANYA,P_UCA_XIANDIANYA,P_A_DIANLIU,P_B_DIANLIU,P_C_DIANLIU,P_A_YGGL,P_B_YGGL,P_C_YGGL,P_HXYGGL,P_A_WGGL,P_B_WGGL,P_C_WGGL,P_HXWGGL,P_A_SZGL,P_B_SZGL,P_C_SZGL,P_HXSZGL,P_A_GLYS,P_B_GLYS,P_C_GLYS,P_HXGLYS,P_DWPL,P_BY_KwhZ,P_BY_KwhJ,P_BY_KwhF,P_BY_KwhP,P_BY_KwhG,P_BY_HKwhZ,P_BY_HKwhJ,P_BY_HKwhF,P_BY_HKwhP,P_BY_HKwhG, P_BY_KvarhZ,P_BY_KvarhJ,P_BY_KvarhF,P_BY_KvarhP,P_BY_KvarhG, P_BY_HKvarhZ,P_BY_HKvarhJ,P_BY_HKvarhF,P_BY_HKvarhP,P_BY_HKvarhG, P_SY_KwhZ,P_SY_KwhJ,P_SY_KwhF,P_SY_KwhP,P_SY_KwhG, P_SY_HKwhZ,P_SY_HKwhJ,P_SY_HKwhF,P_SY_HKwhP,P_SY_HKwhG, P_SY_KvarhZ,P_SY_KvarhJ,P_SY_KvarhF,P_SY_KvarhP,P_SY_KvarhG, P_SY_HKvarhZ,P_SY_HKvarhJ,P_SY_HKvarhF,P_SY_HKvarhP,P_SY_HKvarhG, P_SSY_KwhZ,P_SSY_KwhJ,P_SSY_KwhF,P_SSY_KwhP,P_SSY_KwhG, P_SSY_HKwhZ,P_SSY_HKwhJ,P_SSY_HKwhF,P_SSY_HKwhP,P_SSY_HKwhG, P_SSY_KvarhZ,P_SSY_KvarhJ,P_SSY_KvarhF,P_SSY_KvarhP,P_SSY_KvarhG, P_SSY_HKvarhZ,P_SSY_HKvarhJ,P_SSY_HKvarhF,P_SSY_HKvarhP,P_SSY_HKvarhG,P_CODE,P_TIME,P_ZXYGDN,P_FXYGDN,P_ZXWGDN,P_FXWGDN)values(236.322,236.813,235.778,409.716,409.197,408.764,6.54,21.02,24.64,1460,4860,5760,12080,240,680,40,900,1540,4980,5820,12100,0.942,0.976,0.992,0.997,50.127865,8277.4,1342.1,3973,0,2962.2,0,0,0,0,0,3.8,0,1.8,0,2,816.2,119,410.9,0,286.2,8331.8,1368.5,4225.1,0,2738.1,0,0,0,0,0,3,0,2.9,0,0,923.8,147.5,423,0,353.2,9513.9,1540.5,4768.8,0,3204.5,0,0,0,0,0,367.6,54,164.6,0,148.8,622.8,105.5,251.9,0,265.98044,42,20171127202045,3266.3,0,149.604,201.617)
写入成功读取完毕一个
write:2B 03 00 38 00 34 C2 1A
2B 03 68
4343 6C 0E 98 43 6C 82 4E 43 6B A7 6D 43 CC 99 37 43 CC 6C CD 43 CC 35 60 41 95 70 A4 41 53 D7 0A 42 43 D7 0A 45 7C 80 00 45 2A 00 00 46 02 A0 00 46 6B A0 00 44 34 00 00 43 A0 00 00 45 F3 C0 00 46 00 20 00 45 89 80 00 45 43 00 00 46 34 00 00 46 86 60 00 3F 69 FB E7 3F 5E 35 3F 3F 39 58 10 3F 60 C4 9C 42 48 F3 F8
write:2B 03 07 CF 00 78 73 69
2B 03 F0
43totalsize 240
45 E5 29 9A 44 DA EC CD 45 3D 36 66 00 00 00 00 45 1F A3 33 00 00 00 00 00 00 00 00 00 00 00 00 00 00 00 00 00 00 00 00 45 13 19 9A 44 32 40 00 44 AA 99 9A 00 00 00 00 43 89 E6 66 42 A6 66 66 41 00 00 00 40 8C CC CD 00 00 00 00 42 8D 33 33 45 AB 83 33 44 C5 D3 33 44 EA 46 66 00 00 00 00 44 FD F3 33 00 00 00 00 00 00 00 00 00 00 00 00 00 00 00 00 00 00 00 00 44 C3 93 33 44 12 66 66 44 3F F3 33 00 00 00 00 43 53 33 33 43 40 CC CD 42 07 33 33 41 C1 99 9A 00 00 00 00 43 06 99 9A 45 53 13 33 44 5A 99 9A 44 F5 06 66 00 00 00 00 44 07 99 9A 00 00 00 00 00 00 00 00 00 00 00 00 00 00 00 00 00 00 00 00 44 53 40 00 43 AE 99 9A 43 E0 19 9A 00 00 00 00 42 3D 99 9A 42 09 99 9A 40 D9 99 9A 41 00 00 00 00 00 00 00 41 9C 39 10
write:2B 03 01 0F 00 08 72 39
2B 03 10
4300 06 D2 90 00 00 00 00 00 02 04 2D 00 00 D3 03
43 6C 0E 98
236.057
43 6C 82 4E
236.509
43 6B A7 6D
235.654
43 CC 99 37
409.197
43 CC 6C CD
408.85
43 CC 35 60
408.417
41 95 70 A4
18.68
41 53 D7 0A
13.24
42 43 D7 0A
48.96
45 7C 80 00
4040
45 2A 00 00
2720
46 02 A0 00
8360
46 6B A0 00
15080
44 34 00 00
720
43 A0 00 00
320
45 F3 C0 00
7800
46 00 20 00
8200
45 89 80 00
4400
45 43 00 00
3120
46 34 00 00
11520
46 86 60 00
17200
3F 69 FB E7
0.914
3F 5E 35 3F
0.868
3F 39 58 10
0.724
3F 60 C4 9C
0.878
42 48 F3 F8
50.23825
45 E5 29 9A
7333.2
44 DA EC CD
1751.4
45 3D 36 66
3027.4
00 00 00 00
0
45 1F A3 33
2554.2
00 00 00 00
0
00 00 00 00
0
00 00 00 00
0
00 00 00 00
0
00 00 00 00
0
45 13 19 9A
2353.6
44 32 40 00
713
44 AA 99 9A
1364.8
00 00 00 00
0
43 89 E6 66
275.8
42 A6 66 66
83.2
41 00 00 00
8
40 8C CC CD
4.4
00 00 00 00
0
42 8D 33 33
70.6
45 AB 83 33
5488.4
44 C5 D3 33
1582.6
44 EA 46 66
1874.2
00 00 00 00
0
44 FD F3 33
2031.6
00 00 00 00
0
00 00 00 00
0
00 00 00 00
0
00 00 00 00
0
00 00 00 00
0
44 C3 93 33
1564.6
44 12 66 66
585.6
44 3F F3 33
767.8
00 00 00 00
0
43 53 33 33
211.2
43 40 CC CD
192.8
42 07 33 33
33.8
41 C1 99 9A
24.2
00 00 00 00
0
43 06 99 9A
134.6
45 53 13 33
3377.2
44 5A 99 9A
874.4
44 F5 06 66
1960.2
00 00 00 00
0
44 07 99 9A
542.4
00 00 00 00
0
00 00 00 00
0
00 00 00 00
0
00 00 00 00
0
00 00 00 00
0
44 53 40 00
845
43 AE 99 9A
349.2
43 E0 19 9A
448.2
00 00 00 00
0
42 3D 99 9A
47.4
42 09 99 9A
34.4
40 D9 99 9A
6.8
41 00 00 00
8
00 00 00 00
0
41 9C 39 10
19.527863
00 06 D2 90
447120
00 00 00 00
0
00 02 04 2D
132141
00 00 D3 03
54019
236.057236.509235.654409.197408.85408.41718.6813.2448.9640402720836015080720320780082004400312011520172000.9140.8680.7240.87850.238257333.21751.43027.402554.2000002353.67131364.80275.883.284.4070.65488.41582.61874.202031.6000001564.6585.6767.80211.2192.833.824.20134.63377.2874.41960.20542.400000845349.2448.2047.434.46.88019.5278634320171127202148447.120132.14154.019insert into tbl_power_info_v2(P_A_DIANYA,P_B_DIANYA,P_C_DIANYA,P_UAB_XIANDIANYA,P_UBC_XIANDIANYA,P_UCA_XIANDIANYA,P_A_DIANLIU,P_B_DIANLIU,P_C_DIANLIU,P_A_YGGL,P_B_YGGL,P_C_YGGL,P_HXYGGL,P_A_WGGL,P_B_WGGL,P_C_WGGL,P_HXWGGL,P_A_SZGL,P_B_SZGL,P_C_SZGL,P_HXSZGL,P_A_GLYS,P_B_GLYS,P_C_GLYS,P_HXGLYS,P_DWPL,P_BY_KwhZ,P_BY_KwhJ,P_BY_KwhF,P_BY_KwhP,P_BY_KwhG,P_BY_HKwhZ,P_BY_HKwhJ,P_BY_HKwhF,P_BY_HKwhP,P_BY_HKwhG, P_BY_KvarhZ,P_BY_KvarhJ,P_BY_KvarhF,P_BY_KvarhP,P_BY_KvarhG, P_BY_HKvarhZ,P_BY_HKvarhJ,P_BY_HKvarhF,P_BY_HKvarhP,P_BY_HKvarhG, P_SY_KwhZ,P_SY_KwhJ,P_SY_KwhF,P_SY_KwhP,P_SY_KwhG, P_SY_HKwhZ,P_SY_HKwhJ,P_SY_HKwhF,P_SY_HKwhP,P_SY_HKwhG, P_SY_KvarhZ,P_SY_KvarhJ,P_SY_KvarhF,P_SY_KvarhP,P_SY_KvarhG, P_SY_HKvarhZ,P_SY_HKvarhJ,P_SY_HKvarhF,P_SY_HKvarhP,P_SY_HKvarhG, P_SSY_KwhZ,P_SSY_KwhJ,P_SSY_KwhF,P_SSY_KwhP,P_SSY_KwhG, P_SSY_HKwhZ,P_SSY_HKwhJ,P_SSY_HKwhF,P_SSY_HKwhP,P_SSY_HKwhG, P_SSY_KvarhZ,P_SSY_KvarhJ,P_SSY_KvarhF,P_SSY_KvarhP,P_SSY_KvarhG, P_SSY_HKvarhZ,P_SSY_HKvarhJ,P_SSY_HKvarhF,P_SSY_HKvarhP,P_SSY_HKvarhG,P_CODE,P_TIME,P_ZXYGDN,P_FXYGDN,P_ZXWGDN,P_FXWGDN)values(236.057,236.509,235.654,409.197,408.85,408.417,18.68,13.24,48.96,4040,2720,8360,15080,720,320,7800,8200,4400,3120,11520,17200,0.914,0.868,0.724,0.878,50.23825,7333.2,1751.4,3027.4,0,2554.2,0,0,0,0,0,2353.6,713,1364.8,0,275.8,83.2,8,4.4,0,70.6,5488.4,1582.6,1874.2,0,2031.6,0,0,0,0,0,1564.6,585.6,767.8,0,211.2,192.8,33.8,24.2,0,134.6,3377.2,874.4,1960.2,0,542.4,0,0,0,0,0,845,349.2,448.2,0,47.4,34.4,6.8,8,0,19.527863,43,20171127202148,447.12,0,132.141,54.019)
写入成功读取完毕一个
write:2C 03 00 38 00 34 C3 AD
2C 03 68
4443 6C 83 D7 43 6C D0 62 43 6B CE 14 43 CC F1 CB 43 CC A4 39 43 CC 82 F2 41 8B 33 33 42 2A E1 48 41 87 AE 14 45 39 00 00 45 C8 00 00 44 66 00 00 46 10 60 00 43 20 00 00 45 F1 40 00 44 2A 00 00 46 05 C0 00 45 80 C0 00 46 1E 20 00 45 7A 00 00 46 44 40 00 3E E9 FB E7 3F 22 4D D3 00 00 00 00 00 00 00 00 00 00 00 00
3F 34 39
heart:3F 34 39 58 3F 35 C2 8F 42 47 55 32
write:2C 03 07 CF 00 78 72 DE
write:2C 03 01 0F 00 08 73 8E
2C 03 F0
44totalsize 240
45 5B 76 66 44 2C 8C CD 45 12 23 33 00 00 00 00 43 F1 66 66 00 00 00 00 00 00 00 00 00 00 00 00 00 00 00 00 00 00 00 00 44 EE 06 66 43 C5 00 00 44 A0 C0 00 00 00 00 00 43 60 00 00 42 80 66 66 41 46 66 66 42 14 00 00 00 00 00 00 41 69 99 9A 45 5D 1C CD 44 48 F3 33 45 05 66 66 00 00 00 00 44 15 E6 66 00 00 00 00 00 00 00 00 00 00 00 00 00 00 00 00 00 00 00 00 44 8B 99 9A 43 18 00 00 44 48 D9 9A 00 00 00 00 43 21 33 33 43 27 99 9A 42 5C 00 00 42 98 66 66 00 00 00 00 42 10 00 00 45 29 09 9A 44 2A 99 9A 44 BC F9 9A 00 00 00 00 43 FF 19 9A 00 00 00 00 00 00 00 00 00 00 00 00 00 00 00 00 00 00 00 00 43 B2 19 9A 42 69 99 9A 43 6E 33 33 00 00 00 00 42 6D 99 9A 43 51 99 9A 42 63 33 33 42 DC CC CD 00 00 00 00 42 28 12 83
2C 03 10
4400 05 17 5F 00 00 00 00 00 01 78 CB 00 00 1C 89
43 6C 83 D7
236.515
43 6C D0 62
236.814
43 6B CE 14
235.805
43 CC F1 CB
409.889
43 CC A4 39
409.283
43 CC 82 F2
409.023
41 8B 33 33
17.4
42 2A E1 48
42.72
41 87 AE 14
16.96
45 39 00 00
2960
45 C8 00 00
6400
44 66 00 00
920
46 10 60 00
9240
43 20 00 00
160
45 F1 40 00
7720
44 2A 00 00
680
46 05 C0 00
8560
45 80 C0 00
4120
46 1E 20 00
10120
45 7A 00 00
4000
46 44 40 00
12560
3E E9 FB E7
0.457
3F 22 4D D3
0.634
00 00 00 00
0
00 00 00 00
0
00 00 00 00
0
45 5B 76 66
3511.4
44 2C 8C CD
690.2
45 12 23 33
2338.2
00 00 00 00
0
43 F1 66 66
482.8
00 00 00 00
0
00 00 00 00
0
00 00 00 00
0
00 00 00 00
0
00 00 00 00
0
44 EE 06 66
1904.2
43 C5 00 00
394
44 A0 C0 00
1286
00 00 00 00
0
43 60 00 00
224
42 80 66 66
64.2
41 46 66 66
12.4
42 14 00 00
37
00 00 00 00
0
41 69 99 9A
14.6
45 5D 1C CD
3537.8
44 48 F3 33
803.8
45 05 66 66
2134.4
00 00 00 00
0
44 15 E6 66
599.6
00 00 00 00
0
00 00 00 00
0
00 00 00 00
0
00 00 00 00
0
00 00 00 00
0
44 8B 99 9A
1116.8
43 18 00 00
152
44 48 D9 9A
803.4
00 00 00 00
0
43 21 33 33
161.2
43 27 99 9A
167.6
42 5C 00 00
55
42 98 66 66
76.2
00 00 00 00
0
42 10 00 00
36
45 29 09 9A
2704.6
44 2A 99 9A
682.4
44 BC F9 9A
1511.8
00 00 00 00
0
43 FF 19 9A
510.2
00 00 00 00
0
00 00 00 00
0
00 00 00 00
0
00 00 00 00
0
00 00 00 00
0
43 B2 19 9A
356.2
42 69 99 9A
58.4
43 6E 33 33
238.2
00 00 00 00
0
42 6D 99 9A
59.4
43 51 99 9A
209.6
42 63 33 33
56.8
42 DC CC CD
110.4
00 00 00 00
0
42 28 12 83
42.018078
00 05 17 5F
333663
00 00 00 00
0
00 01 78 CB
96459
00 00 1C 89
7305
236.515236.814235.805409.889409.283409.02317.442.7216.96296064009209240160772068085604120101204000125600.4570.6340003511.4690.22338.20482.8000001904.23941286022464.212.437014.63537.8803.82134.40599.6000001116.8152803.40161.2167.65576.20362704.6682.41511.80510.200000356.258.4238.2059.4209.656.8110.4042.0180784420171127202248333.663096.4597.305insert into tbl_power_info_v2(P_A_DIANYA,P_B_DIANYA,P_C_DIANYA,P_UAB_XIANDIANYA,P_UBC_XIANDIANYA,P_UCA_XIANDIANYA,P_A_DIANLIU,P_B_DIANLIU,P_C_DIANLIU,P_A_YGGL,P_B_YGGL,P_C_YGGL,P_HXYGGL,P_A_WGGL,P_B_WGGL,P_C_WGGL,P_HXWGGL,P_A_SZGL,P_B_SZGL,P_C_SZGL,P_HXSZGL,P_A_GLYS,P_B_GLYS,P_C_GLYS,P_HXGLYS,P_DWPL,P_BY_KwhZ,P_BY_KwhJ,P_BY_KwhF,P_BY_KwhP,P_BY_KwhG,P_BY_HKwhZ,P_BY_HKwhJ,P_BY_HKwhF,P_BY_HKwhP,P_BY_HKwhG, P_BY_KvarhZ,P_BY_KvarhJ,P_BY_KvarhF,P_BY_KvarhP,P_BY_KvarhG, P_BY_HKvarhZ,P_BY_HKvarhJ,P_BY_HKvarhF,P_BY_HKvarhP,P_BY_HKvarhG, P_SY_KwhZ,P_SY_KwhJ,P_SY_KwhF,P_SY_KwhP,P_SY_KwhG, P_SY_HKwhZ,P_SY_HKwhJ,P_SY_HKwhF,P_SY_HKwhP,P_SY_HKwhG, P_SY_KvarhZ,P_SY_KvarhJ,P_SY_KvarhF,P_SY_KvarhP,P_SY_KvarhG, P_SY_HKvarhZ,P_SY_HKvarhJ,P_SY_HKvarhF,P_SY_HKvarhP,P_SY_HKvarhG, P_SSY_KwhZ,P_SSY_KwhJ,P_SSY_KwhF,P_SSY_KwhP,P_SSY_KwhG, P_SSY_HKwhZ,P_SSY_HKwhJ,P_SSY_HKwhF,P_SSY_HKwhP,P_SSY_HKwhG, P_SSY_KvarhZ,P_SSY_KvarhJ,P_SSY_KvarhF,P_SSY_KvarhP,P_SSY_KvarhG, P_SSY_HKvarhZ,P_SSY_HKvarhJ,P_SSY_HKvarhF,P_SSY_HKvarhP,P_SSY_HKvarhG,P_CODE,P_TIME,P_ZXYGDN,P_FXYGDN,P_ZXWGDN,P_FXWGDN)values(236.515,236.814,235.805,409.889,409.283,409.023,17.4,42.72,16.96,2960,6400,920,9240,160,7720,680,8560,4120,10120,4000,12560,0.457,0.634,0,0,0,3511.4,690.2,2338.2,0,482.8,0,0,0,0,0,1904.2,394,1286,0,224,64.2,12.4,37,0,14.6,3537.8,803.8,2134.4,0,599.6,0,0,0,0,0,1116.8,152,803.4,0,161.2,167.6,55,76.2,0,36,2704.6,682.4,1511.8,0,510.2,0,0,0,0,0,356.2,58.4,238.2,0,59.4,209.6,56.8,110.4,0,42.018078,44,20171127202248,333.663,0,96.459,7.305)
写入成功读取完毕一个
write:2D 03 00 38 00 34 C2 7C
write:2D 03 07 CF 00 78 73 0F
2D 03 68
4543 6C 4B 44 43 6C A6 E9 43 6C 26 E9 43 CC BA 5E 43 CC AF 5C 43 CC 82 F2 3F AE 14 7B 40 38 51 EC 40 0C CC CD 42 F0 00 00 43 C8 00 00 43 48 00 00 44 34 00 00 43 8C 00 00 43 20 00 00 43 B4 00 00 44 48 00 00 43 A0 00 00 44 2A 00 00 44 02 00 00 44 87 00 00 3E 9F BE 77 3F 18 51 EC 3E D9 99 9A 3F 2B C6 A8 42 48 C1 40
write:2D 03 01 0F 00 08 72 5F
write:2E 03 00 38 00 34 C2 4F
write:2E 03 07 CF 00 78 73 3C
2D 03 F0
45totalsize 240
45 5F 90 00 43 F9 E6 66 45 1A C0 00 00 00 00 00 44 16 40 00 00 00 00 00 00 00 00 00 00 00 00 00 00 00 00 00 00 00 00 00 41 00 00 00 3F 4C CC CD 40 D9 99 9A 00 00 00 00 3E 4C CC CD 44 66 59 9A 43 1A CC CD 43 D2 B3 33 00 00 00 00 43 AC 80 00 45 59 E9 9A 44 17 99 9A 45 0A CC CD 00 00 00 00 44 24 CC CD 00 00 00 00 00 00 00 00 00 00 00 00 00 00 00 00 00 00 00 00 3F B3 33 33 3E 4C CC CD 3F 80 00 00 00 00 00 00 00 00 00 00 44 A2 A6 66 43 6C CC CD 44 1D F3 33 00 00 00 00 43 D8 33 33 45 38 96 66 43 C5 00 00 44 F1 8C CD 00 00 00 00 44 1C B3 33 00 00 00 00 00 00 00 00 00 00 00 00 00 00 00 00 00 00 00 00 3E CC CC CD 00 00 00 00 3E 4C CC CD 00 00 00 00 00 00 00 00 44 8E C0 00 43 45 66 66 44 05 E6 66 00 00 00 00 43 CC 10 2C
2E 03 68
4643 6B 61 CB 43 6B D5 3F 43 6B 26 25 43 CB FD F4 43 CB E7 CF 43 CB B0 62 41 4D 70 A4 41 04 7A E1 41 03 D7 0A 45 2C 80 00 44 C3 00 00 44 D2 00 00 45 BA 40 00 44 0C 00 00 44 02 00 00 44 02 00 00 44 C8 00 00 45 3E 00 00 44 F5 00 00 44 F5 00 00 45 C1 C0 00 3F 69 78 D5 3F 4A 7E FA 3F 5B A5 E3 3F 77 4B C7 42 48 28 C9
2D 03 10
4500 10 77 08 00 00 00 00 00 00 27 79 00 03 47 E7
43 6C 4B 44
236.294
43 6C A6 E9
236.652
43 6C 26 E9
236.152
43 CC BA 5E
409.456
43 CC AF 5C
409.37
43 CC 82 F2
409.023
3F AE 14 7B
1.36
40 38 51 EC
2.88
40 0C CC CD
2.2
42 F0 00 00
120
43 C8 00 00
400
43 48 00 00
200
44 34 00 00
720
43 8C 00 00
280
43 20 00 00
160
43 B4 00 00
360
44 48 00 00
800
43 A0 00 00
320
44 2A 00 00
680
44 02 00 00
520
44 87 00 00
1080
3E 9F BE 77
0.312
3F 18 51 EC
0.595
3E D9 99 9A
0.425
3F 2B C6 A8
0.671
42 48 C1 40
50.18872
45 5F 90 00
3577
43 F9 E6 66
499.8
45 1A C0 00
2476
00 00 00 00
0
44 16 40 00
601
00 00 00 00
0
00 00 00 00
0
00 00 00 00
0
00 00 00 00
0
00 00 00 00
0
41 00 00 00
8
3F 4C CC CD
0.8
40 D9 99 9A
6.8
00 00 00 00
0
3E 4C CC CD
0.2
44 66 59 9A
921.4
43 1A CC CD
154.8
43 D2 B3 33
421.4
00 00 00 00
0
43 AC 80 00
345
45 59 E9 9A
3486.6
44 17 99 9A
606.4
45 0A CC CD
2220.8
00 00 00 00
0
44 24 CC CD
659.2
00 00 00 00
0
00 00 00 00
0
00 00 00 00
0
00 00 00 00
0
00 00 00 00
0
3F B3 33 33
1.4
3E 4C CC CD
0.2
3F 80 00 00
1
00 00 00 00
0
00 00 00 00
0
44 A2 A6 66
1301.2
43 6C CC CD
236.8
44 1D F3 33
631.8
00 00 00 00
0
43 D8 33 33
432.4
45 38 96 66
2953.4
43 C5 00 00
394
44 F1 8C CD
1932.4
00 00 00 00
0
44 1C B3 33
626.8
00 00 00 00
0
00 00 00 00
0
00 00 00 00
0
00 00 00 00
0
00 00 00 00
0
3E CC CC CD
0.4
00 00 00 00
0
3E 4C CC CD
0.2
00 00 00 00
0
00 00 00 00
0
44 8E C0 00
1142
43 45 66 66
197.4
44 05 E6 66
535.6
00 00 00 00
0
43 CC 10 2C
408.12634
00 10 77 08
1079048
00 00 00 00
0
00 00 27 79
10105
00 03 47 E7
215015
236.294236.652236.152409.456409.37409.0231.362.882.212040020072028016036080032068052010800.3120.5950.4250.67150.188723577499.8247606010000080.86.800.2921.4154.8421.403453486.6606.42220.80659.2000001.40.21001301.2236.8631.80432.42953.43941932.40626.8000000.400.2001142197.4535.60408.1263445201711272024401079.048010.105215.015insert into tbl_power_info_v2(P_A_DIANYA,P_B_DIANYA,P_C_DIANYA,P_UAB_XIANDIANYA,P_UBC_XIANDIANYA,P_UCA_XIANDIANYA,P_A_DIANLIU,P_B_DIANLIU,P_C_DIANLIU,P_A_YGGL,P_B_YGGL,P_C_YGGL,P_HXYGGL,P_A_WGGL,P_B_WGGL,P_C_WGGL,P_HXWGGL,P_A_SZGL,P_B_SZGL,P_C_SZGL,P_HXSZGL,P_A_GLYS,P_B_GLYS,P_C_GLYS,P_HXGLYS,P_DWPL,P_BY_KwhZ,P_BY_KwhJ,P_BY_KwhF,P_BY_KwhP,P_BY_KwhG,P_BY_HKwhZ,P_BY_HKwhJ,P_BY_HKwhF,P_BY_HKwhP,P_BY_HKwhG, P_BY_KvarhZ,P_BY_KvarhJ,P_BY_KvarhF,P_BY_KvarhP,P_BY_KvarhG, P_BY_HKvarhZ,P_BY_HKvarhJ,P_BY_HKvarhF,P_BY_HKvarhP,P_BY_HKvarhG, P_SY_KwhZ,P_SY_KwhJ,P_SY_KwhF,P_SY_KwhP,P_SY_KwhG, P_SY_HKwhZ,P_SY_HKwhJ,P_SY_HKwhF,P_SY_HKwhP,P_SY_HKwhG, P_SY_KvarhZ,P_SY_KvarhJ,P_SY_KvarhF,P_SY_KvarhP,P_SY_KvarhG, P_SY_HKvarhZ,P_SY_HKvarhJ,P_SY_HKvarhF,P_SY_HKvarhP,P_SY_HKvarhG, P_SSY_KwhZ,P_SSY_KwhJ,P_SSY_KwhF,P_SSY_KwhP,P_SSY_KwhG, P_SSY_HKwhZ,P_SSY_HKwhJ,P_SSY_HKwhF,P_SSY_HKwhP,P_SSY_HKwhG, P_SSY_KvarhZ,P_SSY_KvarhJ,P_SSY_KvarhF,P_SSY_KvarhP,P_SSY_KvarhG, P_SSY_HKvarhZ,P_SSY_HKvarhJ,P_SSY_HKvarhF,P_SSY_HKvarhP,P_SSY_HKvarhG,P_CODE,P_TIME,P_ZXYGDN,P_FXYGDN,P_ZXWGDN,P_FXWGDN)values(236.294,236.652,236.152,409.456,409.37,409.023,1.36,2.88,2.2,120,400,200,720,280,160,360,800,320,680,520,1080,0.312,0.595,0.425,0.671,50.18872,3577,499.8,2476,0,601,0,0,0,0,0,8,0.8,6.8,0,0.2,921.4,154.8,421.4,0,345,3486.6,606.4,2220.8,0,659.2,0,0,0,0,0,1.4,0.2,1,0,0,1301.2,236.8,631.8,0,432.4,2953.4,394,1932.4,0,626.8,0,0,0,0,0,0.4,0,0.2,0,0,1142,197.4,535.6,0,408.12634,45,20171127202440,1079.048,0,10.105,215.015)
写入成功读取完毕一个
write:2E 03 01 0F 00 08 72 6C
write:2F 03 00 38 00 34 C3 9E
2E 03 F0
46totalsize 240
45 CB AC CD 44 91 06 66 45 88 63 33 00 00 00 00 44 78 40 00 00 00 00 00 00 00 00 00 00 00 00 00 00 00 00 00 00 00 00 00 42 0A 66 66 40 B9 99 9A 41 C4 CC CD 00 00 00 00 40 80 00 00 44 39 33 33 42 FD 33 33 43 A5 66 66 00 00 00 00 43 8D 99 9A 46 38 B4 CD 45 18 13 33 45 F1 63 33 00 00 00 00 44 CF EC CD 00 00 00 00 00 00 00 00 00 00 00 00 00 00 00 00 00 00 00 00 40 40 00 00 00 00 00 00 40 26 66 66 00 00 00 00 3E 4C CC CD 44 6D 4C CD 43 24 33 33 43 DE B3 33 00 00 00 00 43 A9 CC CD 46 61 63 33 45 17 7C CD 46 1D 2A 66 00 00 00 00 44 F2 C0 00 00 00 00 00 00 00 00 00 00 00 00 00 00 00 00 00 00 00 00 00 42 1E 66 66 40 AC CC CD 41 F0 00 00 00 00 00 00 40 80 00 00 44 24 26 66 42 CA CC CD 43 93 99 9A 00 00 00 00 43 82 23 FF
2E 03 10
4600 26 A1 14 00 00 00 00 00 00 34 80 00 02 FF C6
43 6B 61 CB
235.382
43 6B D5 3F
235.833
43 6B 26 25
235.149
43 CB FD F4
407.984
43 CB E7 CF
407.811
43 CB B0 62
407.378
41 4D 70 A4
12.84
41 04 7A E1
8.28
41 03 D7 0A
8.24
45 2C 80 00
2760
44 C3 00 00
1560
44 D2 00 00
1680
45 BA 40 00
5960
44 0C 00 00
560
44 02 00 00
520
44 02 00 00
520
44 C8 00 00
1600
45 3E 00 00
3040
44 F5 00 00
1960
44 F5 00 00
1960
45 C1 C0 00
6200
3F 69 78 D5
0.912
3F 4A 7E FA
0.791
3F 5B A5 E3
0.858
3F 77 4B C7
0.966
42 48 28 C9
50.03983
45 CB AC CD
6517.6
44 91 06 66
1160.2
45 88 63 33
4364.4
00 00 00 00
0
44 78 40 00
993
00 00 00 00
0
00 00 00 00
0
00 00 00 00
0
00 00 00 00
0
00 00 00 00
0
42 0A 66 66
34.6
40 B9 99 9A
5.8
41 C4 CC CD
24.6
00 00 00 00
0
40 80 00 00
4
44 39 33 33
740.8
42 FD 33 33
126.6
43 A5 66 66
330.8
00 00 00 00
0
43 8D 99 9A
283.2
46 38 B4 CD
11821.2
45 18 13 33
2433.2
45 F1 63 33
7724.4
00 00 00 00
0
44 CF EC CD
1663.4
00 00 00 00
0
00 00 00 00
0
00 00 00 00
0
00 00 00 00
0
00 00 00 00
0
40 40 00 00
3
00 00 00 00
0
40 26 66 66
2.6
00 00 00 00
0
3E 4C CC CD
0.2
44 6D 4C CD
949.2
43 24 33 33
164.2
43 DE B3 33
445.4
00 00 00 00
0
43 A9 CC CD
339.6
46 61 63 33
14424.8
45 17 7C CD
2423.8
46 1D 2A 66
10058.6
00 00 00 00
0
44 F2 C0 00
1942
00 00 00 00
0
00 00 00 00
0
00 00 00 00
0
00 00 00 00
0
00 00 00 00
0
42 1E 66 66
39.6
40 AC CC CD
5.4
41 F0 00 00
30
00 00 00 00
0
40 80 00 00
4
44 24 26 66
656.6
42 CA CC CD
101.4
43 93 99 9A
295.2
00 00 00 00
0
43 82 23 FF
260.28122
00 26 A1 14
2531604
00 00 00 00
0
00 00 34 80
13440
00 02 FF C6
196550
235.382235.833235.149407.984407.811407.37812.848.288.242760156016805960560520520160030401960196062000.9120.7910.8580.96650.039836517.61160.24364.409930000034.65.824.604740.8126.6330.80283.211821.22433.27724.401663.400000302.600.2949.2164.2445.40339.614424.82423.810058.6019420000039.65.43004656.6101.4295.20260.2812246201711272025062531.604013.44196.55insert into tbl_power_info_v2(P_A_DIANYA,P_B_DIANYA,P_C_DIANYA,P_UAB_XIANDIANYA,P_UBC_XIANDIANYA,P_UCA_XIANDIANYA,P_A_DIANLIU,P_B_DIANLIU,P_C_DIANLIU,P_A_YGGL,P_B_YGGL,P_C_YGGL,P_HXYGGL,P_A_WGGL,P_B_WGGL,P_C_WGGL,P_HXWGGL,P_A_SZGL,P_B_SZGL,P_C_SZGL,P_HXSZGL,P_A_GLYS,P_B_GLYS,P_C_GLYS,P_HXGLYS,P_DWPL,P_BY_KwhZ,P_BY_KwhJ,P_BY_KwhF,P_BY_KwhP,P_BY_KwhG,P_BY_HKwhZ,P_BY_HKwhJ,P_BY_HKwhF,P_BY_HKwhP,P_BY_HKwhG, P_BY_KvarhZ,P_BY_KvarhJ,P_BY_KvarhF,P_BY_KvarhP,P_BY_KvarhG, P_BY_HKvarhZ,P_BY_HKvarhJ,P_BY_HKvarhF,P_BY_HKvarhP,P_BY_HKvarhG, P_SY_KwhZ,P_SY_KwhJ,P_SY_KwhF,P_SY_KwhP,P_SY_KwhG, P_SY_HKwhZ,P_SY_HKwhJ,P_SY_HKwhF,P_SY_HKwhP,P_SY_HKwhG, P_SY_KvarhZ,P_SY_KvarhJ,P_SY_KvarhF,P_SY_KvarhP,P_SY_KvarhG, P_SY_HKvarhZ,P_SY_HKvarhJ,P_SY_HKvarhF,P_SY_HKvarhP,P_SY_HKvarhG, P_SSY_KwhZ,P_SSY_KwhJ,P_SSY_KwhF,P_SSY_KwhP,P_SSY_KwhG, P_SSY_HKwhZ,P_SSY_HKwhJ,P_SSY_HKwhF,P_SSY_HKwhP,P_SSY_HKwhG, P_SSY_KvarhZ,P_SSY_KvarhJ,P_SSY_KvarhF,P_SSY_KvarhP,P_SSY_KvarhG, P_SSY_HKvarhZ,P_SSY_HKvarhJ,P_SSY_HKvarhF,P_SSY_HKvarhP,P_SSY_HKvarhG,P_CODE,P_TIME,P_ZXYGDN,P_FXYGDN,P_ZXWGDN,P_FXWGDN)values(235.382,235.833,235.149,407.984,407.811,407.378,12.84,8.28,8.24,2760,1560,1680,5960,560,520,520,1600,3040,1960,1960,6200,0.912,0.791,0.858,0.966,50.03983,6517.6,1160.2,4364.4,0,993,0,0,0,0,0,34.6,5.8,24.6,0,4,740.8,126.6,330.8,0,283.2,11821.2,2433.2,7724.4,0,1663.4,0,0,0,0,0,3,0,2.6,0,0.2,949.2,164.2,445.4,0,339.6,14424.8,2423.8,10058.6,0,1942,0,0,0,0,0,39.6,5.4,30,0,4,656.6,101.4,295.2,0,260.28122,46,20171127202506,2531.604,0,13.44,196.55)
写入成功读取完毕一个
2F 03 68
4743 6B E8 B4 43 6C 29 37 43 6B 9E 35 43 CC 61 CB 43 CC 40 83 43 CC 2A 5E 3F 19 99 9A 00 00 00 00 00 00 00 00 42 F0 00 00 00 00 00 00 42 B4 00 00 43 52 00 00 00 00 00 00 00 00 00 00 00 00 00 00 42 70 00 00 43 16 00 00 00 00 00 00 42 B4 00 00 43 70 00 00 3F 76 87 2B 00 00 00 00 3F 44 9B A6 3F 78 51 EC 42 48 40 F5
write:2F 03 07 CF 00 78 72 ED
2F 03 F0
47totalsize 240
44 DA C6 66 40 86 66 66 44 B4 18 00 00 00 00 00 43 98 A0 00 00 00 00 00 00 00 00 00 00 00 00 00 00 00 00 00 00 00 00 00 43 04 4C CD 00 00 00 00 42 F2 19 9A 00 00 00 00 41 2F 33 33 41 34 00 00 3F 40 00 00 40 FE 66 66 00 00 00 00 40 10 00 00 44 D7 83 33 40 53 33 33 44 A5 2B 33 00 00 00 00 43 C7 A6 66 00 00 00 00 00 00 00 00 00 00 00 00 00 00 00 00 00 00 00 00 41 CD 33 33 00 00 00 00 41 B6 66 66 00 00 00 00 40 36 66 66 41 23 33 33 3F 66 66 66 40 E1 99 9A 00 00 00 00 40 06 66 66 44 FF 48 00 3F 86 66 66 44 CF 34 CD 00 00 00 00 43 BF B3 33 00 00 00 00 00 00 00 00 00 00 00 00 00 00 00 00 00 00 00 00 42 52 99 9A 00 00 00 00 42 3A 99 9A 00 00 00 00 40 BB 33 33 41 23 33 33 3E E6 66 66 40 DC CC CD 00 00 00 00 40 2C 5D E8
write:2F 03 01 0F 00 08 73 BD
2F 03 10
4700 04 9D DC 00 00 00 00 00 00 29 2F 00 00 8B A7
43 6B E8 B4
235.909
43 6C 29 37
236.161
43 6B 9E 35
235.618
43 CC 61 CB
408.764
43 CC 40 83
408.504
43 CC 2A 5E
408.331
3F 19 99 9A
0.6
00 00 00 00
0
00 00 00 00
0
42 F0 00 00
120
00 00 00 00
0
42 B4 00 00
90
43 52 00 00
210
00 00 00 00
0
00 00 00 00
0
00 00 00 00
0
42 70 00 00
60
43 16 00 00
150
00 00 00 00
0
42 B4 00 00
90
43 70 00 00
240
3F 76 87 2B
0.963
00 00 00 00
0
3F 44 9B A6
0.768
3F 78 51 EC
0.97
42 48 40 F5
50.063435
44 DA C6 66
1750.2
40 86 66 66
4.2
44 B4 18 00
1440.75
00 00 00 00
0
43 98 A0 00
305.25
00 00 00 00
0
00 00 00 00
0
00 00 00 00
0
00 00 00 00
0
00 00 00 00
0
43 04 4C CD
132.3
00 00 00 00
0
42 F2 19 9A
121.05
00 00 00 00
0
41 2F 33 33
10.95
41 34 00 00
11.25
3F 40 00 00
0.75
40 FE 66 66
7.95
00 00 00 00
0
40 10 00 00
2.25
44 D7 83 33
1724.1
40 53 33 33
3.3
44 A5 2B 33
1321.35
00 00 00 00
0
43 C7 A6 66
399.3
00 00 00 00
0
00 00 00 00
0
00 00 00 00
0
00 00 00 00
0
00 00 00 00
0
41 CD 33 33
25.65
00 00 00 00
0
41 B6 66 66
22.8
00 00 00 00
0
40 36 66 66
2.85
41 23 33 33
10.2
3F 66 66 66
0.9
40 E1 99 9A
7.05
00 00 00 00
0
40 06 66 66
2.1
44 FF 48 00
2042.25
3F 86 66 66
1.05
44 CF 34 CD
1657.65
00 00 00 00
0
43 BF B3 33
383.4
00 00 00 00
0
00 00 00 00
0
00 00 00 00
0
00 00 00 00
0
00 00 00 00
0
42 52 99 9A
52.65
00 00 00 00
0
42 3A 99 9A
46.65
00 00 00 00
0
40 BB 33 33
5.85
41 23 33 33
10.2
3E E6 66 66
0.45
40 DC CC CD
6.9
00 00 00 00
0
40 2C 5D E8
2.6932316
00 04 9D DC
302556
00 00 00 00
0
00 00 29 2F
10543
00 00 8B A7
35751
235.909236.161235.618408.764408.504408.3310.600120090210000601500902400.96300.7680.9750.0634351750.24.21440.750305.2500000132.30121.05010.9511.250.757.9502.251724.13.31321.350399.30000025.65022.802.8510.20.97.0502.12042.251.051657.650383.40000052.65046.6505.8510.20.456.902.69323164720171127202544302.556010.54335.751insert into tbl_power_info_v2(P_A_DIANYA,P_B_DIANYA,P_C_DIANYA,P_UAB_XIANDIANYA,P_UBC_XIANDIANYA,P_UCA_XIANDIANYA,P_A_DIANLIU,P_B_DIANLIU,P_C_DIANLIU,P_A_YGGL,P_B_YGGL,P_C_YGGL,P_HXYGGL,P_A_WGGL,P_B_WGGL,P_C_WGGL,P_HXWGGL,P_A_SZGL,P_B_SZGL,P_C_SZGL,P_HXSZGL,P_A_GLYS,P_B_GLYS,P_C_GLYS,P_HXGLYS,P_DWPL,P_BY_KwhZ,P_BY_KwhJ,P_BY_KwhF,P_BY_KwhP,P_BY_KwhG,P_BY_HKwhZ,P_BY_HKwhJ,P_BY_HKwhF,P_BY_HKwhP,P_BY_HKwhG, P_BY_KvarhZ,P_BY_KvarhJ,P_BY_KvarhF,P_BY_KvarhP,P_BY_KvarhG, P_BY_HKvarhZ,P_BY_HKvarhJ,P_BY_HKvarhF,P_BY_HKvarhP,P_BY_HKvarhG, P_SY_KwhZ,P_SY_KwhJ,P_SY_KwhF,P_SY_KwhP,P_SY_KwhG, P_SY_HKwhZ,P_SY_HKwhJ,P_SY_HKwhF,P_SY_HKwhP,P_SY_HKwhG, P_SY_KvarhZ,P_SY_KvarhJ,P_SY_KvarhF,P_SY_KvarhP,P_SY_KvarhG, P_SY_HKvarhZ,P_SY_HKvarhJ,P_SY_HKvarhF,P_SY_HKvarhP,P_SY_HKvarhG, P_SSY_KwhZ,P_SSY_KwhJ,P_SSY_KwhF,P_SSY_KwhP,P_SSY_KwhG, P_SSY_HKwhZ,P_SSY_HKwhJ,P_SSY_HKwhF,P_SSY_HKwhP,P_SSY_HKwhG, P_SSY_KvarhZ,P_SSY_KvarhJ,P_SSY_KvarhF,P_SSY_KvarhP,P_SSY_KvarhG, P_SSY_HKvarhZ,P_SSY_HKvarhJ,P_SSY_HKvarhF,P_SSY_HKvarhP,P_SSY_HKvarhG,P_CODE,P_TIME,P_ZXYGDN,P_FXYGDN,P_ZXWGDN,P_FXWGDN)values(235.909,236.161,235.618,408.764,408.504,408.331,0.6,0,0,120,0,90,210,0,0,0,60,150,0,90,240,0.963,0,0.768,0.97,50.063435,1750.2,4.2,1440.75,0,305.25,0,0,0,0,0,132.3,0,121.05,0,10.95,11.25,0.75,7.95,0,2.25,1724.1,3.3,1321.35,0,399.3,0,0,0,0,0,25.65,0,22.8,0,2.85,10.2,0.9,7.05,0,2.1,2042.25,1.05,1657.65,0,383.4,0,0,0,0,0,52.65,0,46.65,0,5.85,10.2,0.45,6.9,0,2.6932316,47,20171127202544,302.556,0,10.543,35.751)
写入成功读取完毕一个
write:30 03 00 38 00 34 C1 F1
30 03 68
4843 6C B9 DB 43 6C BD B2 43 6C 23 12 43 CC FC EE 43 CC BA 5E 43 CC BA 5E 00 00 00 00 00 00 00 00 00 00 00 00 00 00 00 00 00 00 00 00 00 00 00 00 00 00 00 00 00 00 00 00 00 00 00 00 00 00 00 00 00 00 00 00 42 70 00 00 00 00 00 00 00 00 00 00 42 70 00 00 3F 09 37 4C 00 00 00 00 00 00 00 00 3F 61 06 25 42 48 C5 23
write:30 03 07 CF 00 78 70 82
30 03 F0
48totalsize 240
44 2A 23 33 41 C1 33 33 43 C4 59 9A 00 00 00 00 43 83 C6 66 00 00 00 00 00 00 00 00 00 00 00 00 00 00 00 00 00 00 00 00 44 32 6C CD 41 FA CC CD 43 C6 E6 66 00 00 00 00 43 8E 33 33 40 2C CC CD 00 00 00 00 3F AC CC CD 00 00 00 00 3F AC CC CD 44 9C F4 CD 42 90 4C CD 44 39 96 66 00 00 00 00 43 DC 93 33 00 00 00 00 00 00 00 00 00 00 00 00 00 00 00 00 00 00 00 00 44 A1 3B 33 42 B2 33 33 44 37 43 33 00 00 00 00 43 E9 C6 66 40 E1 99 9A 00 00 00 00 40 A3 33 33 00 00 00 00 3F F9 99 9A 43 56 59 9A 40 10 00 00 43 15 B3 33 00 00 00 00 42 79 00 00 00 00 00 00 00 00 00 00 00 00 00 00 00 00 00 00 00 00 00 00 43 24 66 66 40 53 33 33 42 DC CC CD 00 00 00 00 42 4A CC CD 40 8B 33 33 00 00 00 00 40 49 99 9A 00 00 00 00 3F 86 ED FB
write:30 03 01 0F 00 08 71 D2
30 03 10
4800 01 19 B0 00 00 00 00 00 01 1B 52 00 00 85 F4
43 6C B9 DB
236.726
43 6C BD B2
236.741
43 6C 23 12
236.137
43 CC FC EE
409.976
43 CC BA 5E
409.456
43 CC BA 5E
409.456
00 00 00 00
0
00 00 00 00
0
00 00 00 00
0
00 00 00 00
0
00 00 00 00
0
00 00 00 00
0
00 00 00 00
0
00 00 00 00
0
00 00 00 00
0
00 00 00 00
0
00 00 00 00
0
42 70 00 00
60
00 00 00 00
0
00 00 00 00
0
42 70 00 00
60
3F 09 37 4C
0.536
00 00 00 00
0
00 00 00 00
0
3F 61 06 25
0.879
42 48 C5 23
50.192516
44 2A 23 33
680.55
41 C1 33 33
24.15
43 C4 59 9A
392.7
00 00 00 00
0
43 83 C6 66
263.55
00 00 00 00
0
00 00 00 00
0
00 00 00 00
0
00 00 00 00
0
00 00 00 00
0
44 32 6C CD
713.7
41 FA CC CD
31.35
43 C6 E6 66
397.8
00 00 00 00
0
43 8E 33 33
284.4
40 2C CC CD
2.7
00 00 00 00
0
3F AC CC CD
1.35
00 00 00 00
0
3F AC CC CD
1.35
44 9C F4 CD
1255.65
42 90 4C CD
72.15
44 39 96 66
742.35
00 00 00 00
0
43 DC 93 33
441.15
00 00 00 00
0
00 00 00 00
0
00 00 00 00
0
00 00 00 00
0
00 00 00 00
0
44 A1 3B 33
1289.85
42 B2 33 33
89.1
44 37 43 33
733.05
00 00 00 00
0
43 E9 C6 66
467.55
40 E1 99 9A
7.05
00 00 00 00
0
40 A3 33 33
5.1
00 00 00 00
0
3F F9 99 9A
1.95
43 56 59 9A
214.35
40 10 00 00
2.25
43 15 B3 33
149.7
00 00 00 00
0
42 79 00 00
62.25
00 00 00 00
0
00 00 00 00
0
00 00 00 00
0
00 00 00 00
0
00 00 00 00
0
43 24 66 66
164.4
40 53 33 33
3.3
42 DC CC CD
110.4
00 00 00 00
0
42 4A CC CD
50.7
40 8B 33 33
4.35
00 00 00 00
0
40 49 99 9A
3.15
00 00 00 00
0
3F 86 ED FB
1.0541376
00 01 19 B0
72112
00 00 00 00
0
00 01 1B 52
72530
00 00 85 F4
34292
236.726236.741236.137409.976409.456409.456000000000006000600.536000.87950.192516680.5524.15392.70263.5500000713.731.35397.80284.42.701.3501.351255.6572.15742.350441.15000001289.8589.1733.050467.557.0505.101.95214.352.25149.7062.2500000164.43.3110.4050.74.3503.1501.0541376482017112720264472.112072.5334.292insert into tbl_power_info_v2(P_A_DIANYA,P_B_DIANYA,P_C_DIANYA,P_UAB_XIANDIANYA,P_UBC_XIANDIANYA,P_UCA_XIANDIANYA,P_A_DIANLIU,P_B_DIANLIU,P_C_DIANLIU,P_A_YGGL,P_B_YGGL,P_C_YGGL,P_HXYGGL,P_A_WGGL,P_B_WGGL,P_C_WGGL,P_HXWGGL,P_A_SZGL,P_B_SZGL,P_C_SZGL,P_HXSZGL,P_A_GLYS,P_B_GLYS,P_C_GLYS,P_HXGLYS,P_DWPL,P_BY_KwhZ,P_BY_KwhJ,P_BY_KwhF,P_BY_KwhP,P_BY_KwhG,P_BY_HKwhZ,P_BY_HKwhJ,P_BY_HKwhF,P_BY_HKwhP,P_BY_HKwhG, P_BY_KvarhZ,P_BY_KvarhJ,P_BY_KvarhF,P_BY_KvarhP,P_BY_KvarhG, P_BY_HKvarhZ,P_BY_HKvarhJ,P_BY_HKvarhF,P_BY_HKvarhP,P_BY_HKvarhG, P_SY_KwhZ,P_SY_KwhJ,P_SY_KwhF,P_SY_KwhP,P_SY_KwhG, P_SY_HKwhZ,P_SY_HKwhJ,P_SY_HKwhF,P_SY_HKwhP,P_SY_HKwhG, P_SY_KvarhZ,P_SY_KvarhJ,P_SY_KvarhF,P_SY_KvarhP,P_SY_KvarhG, P_SY_HKvarhZ,P_SY_HKvarhJ,P_SY_HKvarhF,P_SY_HKvarhP,P_SY_HKvarhG, P_SSY_KwhZ,P_SSY_KwhJ,P_SSY_KwhF,P_SSY_KwhP,P_SSY_KwhG, P_SSY_HKwhZ,P_SSY_HKwhJ,P_SSY_HKwhF,P_SSY_HKwhP,P_SSY_HKwhG, P_SSY_KvarhZ,P_SSY_KvarhJ,P_SSY_KvarhF,P_SSY_KvarhP,P_SSY_KvarhG, P_SSY_HKvarhZ,P_SSY_HKvarhJ,P_SSY_HKvarhF,P_SSY_HKvarhP,P_SSY_HKvarhG,P_CODE,P_TIME,P_ZXYGDN,P_FXYGDN,P_ZXWGDN,P_FXWGDN)values(236.726,236.741,236.137,409.976,409.456,409.456,0,0,0,0,0,0,0,0,0,0,0,60,0,0,60,0.536,0,0,0.879,50.192516,680.55,24.15,392.7,0,263.55,0,0,0,0,0,713.7,31.35,397.8,0,284.4,2.7,0,1.35,0,1.35,1255.65,72.15,742.35,0,441.15,0,0,0,0,0,1289.85,89.1,733.05,0,467.55,7.05,0,5.1,0,1.95,214.35,2.25,149.7,0,62.25,0,0,0,0,0,164.4,3.3,110.4,0,50.7,4.35,0,3.15,0,1.0541376,48,20171127202644,72.112,0,72.53,34.292)
写入成功读取完毕一个
write:31 03 00 38 00 34 C0 20
31 03 68
4943 6C 23 D7 43 6C 75 3F 43 6C 22 4E 43 CC 99 37 43 CC 99 37 43 CC 77 F0 00 00 00 00 00 00 00 00 00 00 00 00 00 00 00 00 00 00 00 00 00 00 00 00 00 00 00 00 00 00 00 00 00 00 00 00 00 00 00 00 00 00 00 00 00 00 00 00 00 00 00 00 00 00 00 00 00 00 00 00 00 00 00 00 00 00 00 00 00 00 00 00 00 00 00 00 42 48 BB C3
write:31 03 07 CF 00 78 71 53
31 03 F0
49totalsize 240
42 17 33 33 41 73 33 33 41 8B 33 33 00 00 00 00 40 A0 00 00 00 00 00 00 00 00 00 00 00 00 00 00 00 00 00 00 00 00 00 00 42 10 CC CD 41 A4 CC CD 41 76 66 66 00 00 00 00 00 00 00 00 3F B3 33 33 00 00 00 00 3F 80 00 00 00 00 00 00 3E CC CC CD 43 88 CC CD 42 1E 66 66 43 04 00 00 00 00 00 00 42 CB 99 9A 00 00 00 00 00 00 00 00 00 00 00 00 00 00 00 00 00 00 00 00 43 B2 33 33 42 68 CC CD 43 1E 33 33 00 00 00 00 43 0B 99 9A 40 0C CC CD 00 00 00 00 3F CC CC CD 00 00 00 00 3F 19 99 9A 42 9A CC CD 42 73 33 33 41 7C CC CD 00 00 00 00 3E CC CC CD 00 00 00 00 00 00 00 00 00 00 00 00 00 00 00 00 00 00 00 00 42 E3 33 33 42 B6 CC CD 41 B0 00 00 00 00 00 00 00 00 00 00 00 00 00 00 00 00 00 00 00 00 00 00 00 00 00 00 00 00 DE 85
write:31 03 01 0F 00 08 70 03
31 03 10
4900 00 30 C5 00 00 00 00 00 00 41 22 00 00 B2 E4
43 6C 23 D7
236.14
43 6C 75 3F
236.458
43 6C 22 4E
236.134
43 CC 99 37
409.197
43 CC 99 37
409.197
43 CC 77 F0
408.937
00 00 00 00
0
00 00 00 00
0
00 00 00 00
0
00 00 00 00
0
00 00 00 00
0
00 00 00 00
0
00 00 00 00
0
00 00 00 00
0
00 00 00 00
0
00 00 00 00
0
00 00 00 00
0
00 00 00 00
0
00 00 00 00
0
00 00 00 00
0
00 00 00 00
0
00 00 00 00
0
00 00 00 00
0
00 00 00 00
0
00 00 00 00
0
42 48 BB C3
50.18336
42 17 33 33
37.8
41 73 33 33
15.2
41 8B 33 33
17.4
00 00 00 00
0
40 A0 00 00
5
00 00 00 00
0
00 00 00 00
0
00 00 00 00
0
00 00 00 00
0
00 00 00 00
0
42 10 CC CD
36.2
41 A4 CC CD
20.6
41 76 66 66
15.4
00 00 00 00
0
00 00 00 00
0
3F B3 33 33
1.4
00 00 00 00
0
3F 80 00 00
1
00 00 00 00
0
3E CC CC CD
0.4
43 88 CC CD
273.6
42 1E 66 66
39.6
43 04 00 00
132
00 00 00 00
0
42 CB 99 9A
101.8
00 00 00 00
0
00 00 00 00
0
00 00 00 00
0
00 00 00 00
0
00 00 00 00
0
43 B2 33 33
356.4
42 68 CC CD
58.2
43 1E 33 33
158.2
00 00 00 00
0
43 0B 99 9A
139.6
40 0C CC CD
2.2
00 00 00 00
0
3F CC CC CD
1.6
00 00 00 00
0
3F 19 99 9A
0.6
42 9A CC CD
77.4
42 73 33 33
60.8
41 7C CC CD
15.8
00 00 00 00
0
3E CC CC CD
0.4
00 00 00 00
0
00 00 00 00
0
00 00 00 00
0
00 00 00 00
0
00 00 00 00
0
42 E3 33 33
113.6
42 B6 CC CD
91.4
41 B0 00 00
22
00 00 00 00
0
00 00 00 00
0
00 00 00 00
0
00 00 00 00
0
00 00 00 00
0
00 00 00 00
0
00 00 DE 85
7.9825e-41
00 00 30 C5
12485
00 00 00 00
0
00 00 41 22
16674
00 00 B2 E4
45796
236.14236.458236.134409.197409.197408.937000000000000000000050.1833637.815.217.4050000036.220.615.4001.40100.4273.639.61320101.800000356.458.2158.20139.62.201.600.677.460.815.800.400000113.691.4220000007.9825e-41492017112720274412.485016.67445.796insert into tbl_power_info_v2(P_A_DIANYA,P_B_DIANYA,P_C_DIANYA,P_UAB_XIANDIANYA,P_UBC_XIANDIANYA,P_UCA_XIANDIANYA,P_A_DIANLIU,P_B_DIANLIU,P_C_DIANLIU,P_A_YGGL,P_B_YGGL,P_C_YGGL,P_HXYGGL,P_A_WGGL,P_B_WGGL,P_C_WGGL,P_HXWGGL,P_A_SZGL,P_B_SZGL,P_C_SZGL,P_HXSZGL,P_A_GLYS,P_B_GLYS,P_C_GLYS,P_HXGLYS,P_DWPL,P_BY_KwhZ,P_BY_KwhJ,P_BY_KwhF,P_BY_KwhP,P_BY_KwhG,P_BY_HKwhZ,P_BY_HKwhJ,P_BY_HKwhF,P_BY_HKwhP,P_BY_HKwhG, P_BY_KvarhZ,P_BY_KvarhJ,P_BY_KvarhF,P_BY_KvarhP,P_BY_KvarhG, P_BY_HKvarhZ,P_BY_HKvarhJ,P_BY_HKvarhF,P_BY_HKvarhP,P_BY_HKvarhG, P_SY_KwhZ,P_SY_KwhJ,P_SY_KwhF,P_SY_KwhP,P_SY_KwhG, P_SY_HKwhZ,P_SY_HKwhJ,P_SY_HKwhF,P_SY_HKwhP,P_SY_HKwhG, P_SY_KvarhZ,P_SY_KvarhJ,P_SY_KvarhF,P_SY_KvarhP,P_SY_KvarhG, P_SY_HKvarhZ,P_SY_HKvarhJ,P_SY_HKvarhF,P_SY_HKvarhP,P_SY_HKvarhG, P_SSY_KwhZ,P_SSY_KwhJ,P_SSY_KwhF,P_SSY_KwhP,P_SSY_KwhG, P_SSY_HKwhZ,P_SSY_HKwhJ,P_SSY_HKwhF,P_SSY_HKwhP,P_SSY_HKwhG, P_SSY_KvarhZ,P_SSY_KvarhJ,P_SSY_KvarhF,P_SSY_KvarhP,P_SSY_KvarhG, P_SSY_HKvarhZ,P_SSY_HKvarhJ,P_SSY_HKvarhF,P_SSY_HKvarhP,P_SSY_HKvarhG,P_CODE,P_TIME,P_ZXYGDN,P_FXYGDN,P_ZXWGDN,P_FXWGDN)values(236.14,236.458,236.134,409.197,409.197,408.937,0,0,0,0,0,0,0,0,0,0,0,0,0,0,0,0,0,0,0,50.18336,37.8,15.2,17.4,0,5,0,0,0,0,0,36.2,20.6,15.4,0,0,1.4,0,1,0,0.4,273.6,39.6,132,0,101.8,0,0,0,0,0,356.4,58.2,158.2,0,139.6,2.2,0,1.6,0,0.6,77.4,60.8,15.8,0,0.4,0,0,0,0,0,113.6,91.4,22,0,0,0,0,0,0,7.9825e-41,49,20171127202744,12.485,0,16.674,45.796)
写入成功读取完毕一个
write:32 03 00 38 00 34 C0 13
write:32 03 07 CF 00 78 71 60
32 03 68
5043 8C 2C 8B 43 44 FB A6 43 79 0B 44 43 CF AE B8 43 C1 84 DD 43 E5 53 B6 41 A3 33 33 41 5E B8 52 41 52 8F 5C 45 97 40 00 44 F5 00 00 45 36 80 00 46 00 00 00 00 00 00 00 00 00 00 00 00 00 00 00 00 00 00 00 00 00 00 00 00 00 00 00 00 00 00 00 00 00 00 00 00 00 00 00 00 00 00 00 00 00 00 00 00 00 00 00 00 00 00 00
17 40 00
heart:17 40 00 44 52 00 00 44 8C 00 00 43 70 00 00 44 D7 00 00 45 B2 C0 00 45 2C 80 00 45 4D 00 00 46 1A 60 00 3F 58 51 EC 3F 37 CE D9 3F 63 12 6F 3F 7C 28 F6 42 48 18 8B
write:32 03 01 0F 00 08 70 30
write:21 03 00 38 00 34 C2 B0
write:21 03 07 CF 00 78 73 C3
write:21 03 01 0F 00 08 72 93
write:22 03 00 38 00 34 C2 83
write:22 03 07 CF 00 78 73 F0
write:22 03 01 0F 00 08 72 A0
write:23 03 00 38 00 34 C3 52
write:23 03 07 CF 00 78 72 21
write:23 03 01 0F 00 08 73 71
write:24 03 00 38 00 34 C2 E5
write:24 03 07 CF 00 78 73 96
write:24 03 01 0F 00 08 72 C6
write:25 03 00 38 00 34 C3 34
write:25 03 07 CF 00 78 72 47
write:25 03 01 0F 00 08 73 17
write:26 03 00 38 00 34 C3 07
write:26 03 07 CF 00 78 72 74
write:26 03 01 0F 00 08 73 24
write:27 03 00 38 00 34 C2 D6
write:27 03 07 CF 00 78 73 A5
write:27 03 01 0F 00 08 72 F5
write:28 03 00 38 00 34 C2 29
write:28 03 07 CF 00 78 73 5A
write:28 03 01 0F 00 08 72 0A
write:29 03 00 38 00 34 C3 F8
write:29 03 07 CF 00 78 72 8B
write:29 03 01 0F 00 08 73 DB
32 03 F0
50totalsize 240
45 3A AC CD 44 2C 66 66 44 CB D9 9A 00 00 00 00 44 26 80 00 00 00 00 00 00 00 00 00 00 00 00 00 00 00 00 00 00 00 00 00 00 00 00 00 00 00 00 00 00 00 00 00 00 00 00 00 00 00 00 00 44 40 B3 33 43 14 66 66 43 C1 00 00 00 00 00 00 43 6C 33 33 45 27 30 00 44 24 E6 66 44 AE 66 66 00 00 00 00 44 1B 00 00 00 00 00 00 00 00 00 00 00 00 00 00 00 00 00 00 00 00 00 00 00 00 00 00 00 00 00 00 00 00 00 00 00 00 00 00 00 00 00 00 44 51 8C CD 43 29 66 66 43 CE 19 9A 00 00 00 00 43 80 4C CD 45 1C 83 33 44 0D B3 33 44 9C 99 9A 00 00 00 00 44 2B 19 9A 00 00 00 00 00 00 00 00 00 00 00 00 00 00 00 00 00 00 00 00 42 23 33 33 41 23 33 33 41 E4 CC CD 00 00 00 00 3F E6 66 66 44 3B 4C CD 43 11 CC CD 43 AE 33 33 00 00 00 00 43 7E 0A 01
write:2A 03 00 38 00 34 C3 CB
34 30 32
heart:34 30 32 37 32 32 35 36 30 34 38 32
34 30 32
heart:34 30 32 37 32 32 35 36 30 34 38 32
34 30 32
heart:34 30 32 37 32 32 35 36 30 34 38 32 34 30 32 37 32 32 35 36 30 34 38 32 34 30 32 37 32 32 35 36 30 34 38 32 34 30 32 37 32 32 35 36 30 34 38 32
FF CF D7
heart:FF CF D7 FC EF FC E6 F4 FD FF FB 36 7E FE FE E4 F9 FD FF EF F7 EC EE FF FC CB FD FF F9 C7 17 45 DB 00 00 04 BE
F9 7C FF
heart:F9 7C FF 46 73 FF FB FD FF EC 96 6F FB EF FB F1 CF F3 BF F4 FE FE FF FC BF BA FD AF EF FF FF F9 8A BF C6 EF D7 F9 E1 EB F1 ED FF C6 EB FB FF 7E EE FF 7F FF E7 FD ED EF F1 FF FE F7 FE CC 40 83 00 00 00 00 00 00 00 00 00 00 00 00 00 00 00 00 00 00 00 00 00 00 00 00 00 00 00 00 00 00 00 00 00 00 00 00 00 00 00 00 00 00 00 00 00 00 00 00 00 00 00 00 00 00 00 00 00 44 3B 80 00 00 00 00 00 44 77 80 00 42 B4 00 00 42 B4 00 00 42 B4 00 00 42 70 00 00 43 96 00 00 44 92 40 00 42 B4 00 00 44 77 80 00 3F 2B 02 0C 3F 26 A7 F0 3E 8F 5C 29 3F 7F 7C EE 42 47 E4 15 00 00 00 00 00 00 00 00 00 00 00 00 00 00 00 00 00 00 00 42 47 48 17
write:2A 03 07 CF 00 78 72 B8
write:2A 03 01 0F 00 08 73 E8
2A 03 F0
42totalsize 261
46 01 64 00 44 A8 36 66 45 78 50 00 00 00 00 00 45 39 23 33 00 00 00 00 00 00 00 00 00 00 00 00 00 00 00 00 00 00 00 00 40 73 33 33 00 00 00 00 3F E6 66 66 00 00 00 00 40 00 00 00 44 4C 20 00 42 EE 99 9A 43 CD 73 33 00 00 00 00 43 8F 19 9A 46 02 2F 33 44 AB 10 00 45 84 08 CD 00 00 00 00 45 2B 21 9A 00 00 00 00 00 00 00 00 00 00 00 00 00 00 00 00 00 00 00 00 40 40 00 00 00 00 00 00 40 39 99 9A 00 00 00 00 00 00 00 00 44 66 F3 33 43 13 80 00 43 D3 80 00 00 00 00 00 43 B0 99 9A 46 14 A7 9A 44 C0 90 00 45 95 06 66 00 00 00 00 45 48 48 00 00 00 00 00 00 00 00 00 00 00 00 00 00 00 00 00 00 00 00 00 43 B7 CC CD 42 58 00 00 43 24 99 9A 00 00 00 00 43 14 CC CD 44 1B B3 33 42 D3 00 00 43 7B E6 66 00 00 00 00 43 84 E7 BA 2A 03 10 00 00 00 31 D7 B1 00 00 00 00 00 02 48 64 00 03 80 3F
write:2B 03 00 38 00 34 C2 1A
2B 03 68
4343 6C 7E 77 43 6C E8 73 43 6C 61 06 43 CC F1 CB 43 CC E6 C9 43 CC AF 5C 41 90 F5 C3 40 B1 EB 85 42 40 28 F6 45 7F 00 00 44 7A 00 00 45 FA 00 00 46 4C 60 00 44 02 00 00 42 A0 00 00 45 FA 00 00 46 07 00 00 45 85 C0 00 44 A5 00 00 46 31 80 00 46 75 00 00 3F 74 39 58 3F 3F 7C EE 3F 34 7A E1 3F 55 C2 8F 42 48 28 8D
write:2B 03 07 CF 00 78 73 69
write:2B 03 01 0F 00 08 72 39
2B 03 F0
43totalsize 240
45 E5 49 9A 44 DB 66 66 45 3D 36 66 00 00 00 00 45 1F A3 33 00 00 00 00 00 00 00 00 00 00 00 00 00 00 00 00 00 00 00 00 45 13 43 33 44 32 E6 66 44 AA 99 9A 00 00 00 00 43 89 E6 66 42 A6 66 66 41 00 00 00 40 8C CC CD 00 00 00 00 42 8D 33 33 45 AB 83 33 44 C5 D3 33 44 EA 46 66 00 00 00 00 44 FD F3 33 00 00 00 00 00 00 00 00 00 00 00 00 00 00 00 00 00 00 00 00 44 C3 93 33 44 12 66 66 44 3F F3 33 00 00 00 00 43 53 33 33 43 40 CC CD 42 07 33 33 41 C1 99 9A 00 00 00 00 43 06 99 9A 45 53 13 33 44 5A 99 9A 44 F5 06 66 00 00 00 00 44 07 99 9A 00 00 00 00 00 00 00 00 00 00 00 00 00 00 00 00 00 00 00 00 44 53 40 00 43 AE 99 9A 43 E0 19 9A 00 00 00 00 42 3D 99 9A 42 09 99 9A 40 D9 99 9A 41 00 00 00 00 00 00 00 41 9C FD 10
2B 03 10
4300 06 D2 F1 00 00 00 00 00 02 04 6E 00 00 D8 2A
43 6C 7E 77
236.494
43 6C E8 73
236.908
43 6C 61 06
236.379
43 CC F1 CB
409.889
43 CC E6 C9
409.803
43 CC AF 5C
409.37
41 90 F5 C3
18.12
40 B1 EB 85
5.56
42 40 28 F6
48.04
45 7F 00 00
4080
44 7A 00 00
1000
45 FA 00 00
8000
46 4C 60 00
13080
44 02 00 00
520
42 A0 00 00
80
45 FA 00 00
8000
46 07 00 00
8640
45 85 C0 00
4280
44 A5 00 00
1320
46 31 80 00
11360
46 75 00 00
15680
3F 74 39 58
0.954
3F 3F 7C EE
0.748
3F 34 7A E1
0.705
3F 55 C2 8F
0.835
42 48 28 8D
50.0396
45 E5 49 9A
7337.2
44 DB 66 66
1755.2
45 3D 36 66
3027.4
00 00 00 00
0
45 1F A3 33
2554.2
00 00 00 00
0
00 00 00 00
0
00 00 00 00
0
00 00 00 00
0
00 00 00 00
0
45 13 43 33
2356.2
44 32 E6 66
715.6
44 AA 99 9A
1364.8
00 00 00 00
0
43 89 E6 66
275.8
42 A6 66 66
83.2
41 00 00 00
8
40 8C CC CD
4.4
00 00 00 00
0
42 8D 33 33
70.6
45 AB 83 33
5488.4
44 C5 D3 33
1582.6
44 EA 46 66
1874.2
00 00 00 00
0
44 FD F3 33
2031.6
00 00 00 00
0
00 00 00 00
0
00 00 00 00
0
00 00 00 00
0
00 00 00 00
0
44 C3 93 33
1564.6
44 12 66 66
585.6
44 3F F3 33
767.8
00 00 00 00
0
43 53 33 33
211.2
43 40 CC CD
192.8
42 07 33 33
33.8
41 C1 99 9A
24.2
00 00 00 00
0
43 06 99 9A
134.6
45 53 13 33
3377.2
44 5A 99 9A
874.4
44 F5 06 66
1960.2
00 00 00 00
0
44 07 99 9A
542.4
00 00 00 00
0
00 00 00 00
0
00 00 00 00
0
00 00 00 00
0
00 00 00 00
0
44 53 40 00
845
43 AE 99 9A
349.2
43 E0 19 9A
448.2
00 00 00 00
0
42 3D 99 9A
47.4
42 09 99 9A
34.4
40 D9 99 9A
6.8
41 00 00 00
8
00 00 00 00
0
41 9C FD 10
19.623566
00 06 D2 F1
447217
00 00 00 00
0
00 02 04 6E
132206
00 00 D8 2A
55338
236.494236.908236.379409.889409.803409.3718.125.5648.044080100080001308052080800086404280132011360156800.9540.7480.7050.83550.03967337.21755.23027.402554.2000002356.2715.61364.80275.883.284.4070.65488.41582.61874.202031.6000001564.6585.6767.80211.2192.833.824.20134.63377.2874.41960.20542.400000845349.2448.2047.434.46.88019.6235664320171127203950447.2170132.20655.338insert into tbl_power_info_v2(P_A_DIANYA,P_B_DIANYA,P_C_DIANYA,P_UAB_XIANDIANYA,P_UBC_XIANDIANYA,P_UCA_XIANDIANYA,P_A_DIANLIU,P_B_DIANLIU,P_C_DIANLIU,P_A_YGGL,P_B_YGGL,P_C_YGGL,P_HXYGGL,P_A_WGGL,P_B_WGGL,P_C_WGGL,P_HXWGGL,P_A_SZGL,P_B_SZGL,P_C_SZGL,P_HXSZGL,P_A_GLYS,P_B_GLYS,P_C_GLYS,P_HXGLYS,P_DWPL,P_BY_KwhZ,P_BY_KwhJ,P_BY_KwhF,P_BY_KwhP,P_BY_KwhG,P_BY_HKwhZ,P_BY_HKwhJ,P_BY_HKwhF,P_BY_HKwhP,P_BY_HKwhG, P_BY_KvarhZ,P_BY_KvarhJ,P_BY_KvarhF,P_BY_KvarhP,P_BY_KvarhG, P_BY_HKvarhZ,P_BY_HKvarhJ,P_BY_HKvarhF,P_BY_HKvarhP,P_BY_HKvarhG, P_SY_KwhZ,P_SY_KwhJ,P_SY_KwhF,P_SY_KwhP,P_SY_KwhG, P_SY_HKwhZ,P_SY_HKwhJ,P_SY_HKwhF,P_SY_HKwhP,P_SY_HKwhG, P_SY_KvarhZ,P_SY_KvarhJ,P_SY_KvarhF,P_SY_KvarhP,P_SY_KvarhG, P_SY_HKvarhZ,P_SY_HKvarhJ,P_SY_HKvarhF,P_SY_HKvarhP,P_SY_HKvarhG, P_SSY_KwhZ,P_SSY_KwhJ,P_SSY_KwhF,P_SSY_KwhP,P_SSY_KwhG, P_SSY_HKwhZ,P_SSY_HKwhJ,P_SSY_HKwhF,P_SSY_HKwhP,P_SSY_HKwhG, P_SSY_KvarhZ,P_SSY_KvarhJ,P_SSY_KvarhF,P_SSY_KvarhP,P_SSY_KvarhG, P_SSY_HKvarhZ,P_SSY_HKvarhJ,P_SSY_HKvarhF,P_SSY_HKvarhP,P_SSY_HKvarhG,P_CODE,P_TIME,P_ZXYGDN,P_FXYGDN,P_ZXWGDN,P_FXWGDN)values(236.494,236.908,236.379,409.889,409.803,409.37,18.12,5.56,48.04,4080,1000,8000,13080,520,80,8000,8640,4280,1320,11360,15680,0.954,0.748,0.705,0.835,50.0396,7337.2,1755.2,3027.4,0,2554.2,0,0,0,0,0,2356.2,715.6,1364.8,0,275.8,83.2,8,4.4,0,70.6,5488.4,1582.6,1874.2,0,2031.6,0,0,0,0,0,1564.6,585.6,767.8,0,211.2,192.8,33.8,24.2,0,134.6,3377.2,874.4,1960.2,0,542.4,0,0,0,0,0,845,349.2,448.2,0,47.4,34.4,6.8,8,0,19.623566,43,20171127203950,447.217,0,132.206,55.338)
写入成功读取完毕一个
write:2C 03 00 38 00 34 C3 AD
write:2C 03 07 CF 00 78 72 DE
write:2C 03 01 0F 00 08 73 8E
write:2D 03 00 38 00 34 C2 7C
write:2D 03 07 CF 00 78 73 0F
write:2D 03 01 0F 00 08 72 5F
write:2E 03 00 38 00 34 C2 4F
write:2E 03 07 CF 00 78 73 3C
write:2E 03 01 0F 00 08 72 6C
write:2F 03 00 38 00 34 C3 9E
write:2F 03 07 CF 00 78 72 ED
write:2F 03 01 0F 00 08 73 BD
write:30 03 00 38 00 34 C1 F1
write:30 03 07 CF 00 78 70 82
write:30 03 01 0F 00 08 71 D2
write:31 03 00 38 00 34 C0 20
write:31 03 07 CF 00 78 71 53
write:31 03 01 0F 00 08 70 03
write:32 03 00 38 00 34 C0 13
write:32 03 07 CF 00 78 71 60
write:32 03 01 0F 00 08 70 30
write:21 03 00 38 00 34 C2 B0
write:21 03 07 CF 00 78 73 C3
write:21 03 01 0F 00 08 72 93
write:22 03 00 38 00 34 C2 83
2C 03 68
4443 6C 5B 64 43 6C F9 DB 43 6C 37 8D 43 CC E6 C9 43 CC DB A6 43 CC 99 37 41 98 00 00 42 4F 33 33 41 98 A3 D7 44 DC 00 00 45 DE 80 00 44 E1 00 00 46 27 80 00 45 04 80 00 46 1B 00 00 45 02 00 00 00 00 00 00 00 00 00 00 00 00 00 00 00 00 00 00 00 00 00 00 00 00 00 00 00 00 00 00 00 00 00 00 00 00 00 00 00 00 00 00
00 46 5C
heart:00 46 5C A0 00 45 34 00 00 46 3F 40 00 45 31 80 00 46 8A 70 00 3F 1E B8 52 3F 14 FD F4 3F 23 53 F8 3F 1A E1 48 42 47 0A 0F
34 30 32
heart:34 30 32 37 32 32 35 36 30 34 38 32 34 30 32 37 32 32 35 36 30 34 38 32
34 30 32
heart:34 30 32 37 32 32 35 36 30 34 38 32 34 30 32 37 32 32 35 36 30 34 38 32 34 30 32 37 32 32 35 36 30 34 38 32
FB 7F FF
heart:FB 7F FF EF 8D CF EF F7 DC EB F9 E7 CF E3 FF F6 CB EF F7 84 CB FD FF B7 CB E1 EF A7 CB EF F7 8C 2D F1 FF 54 5A F9 FF D4 F6 FF FF F4 D7 FF FB EB FF FF BC D7 FF FF FC 96 F1 EF CA D7 E5 EF E5 CB FF 66 F9 E3 6F 7F F9 E1 EF 9F F9 8F F9 F2 7F ED EE 9F 7F 7D EF F3 FF EC FB FE 45 05 66 66 00 00 00 00 44 15 E6 66 00 00 00 00 00 00 00 00 00 00 00 00 00 00 00 00 00 00 00 00 44 8B 99 9A 43 18 00 00 44 48 D9 9A 00 00 00 00 43 21 33 33 43 27 99 9A 42 5C 00 00 42 98 66 66 00 00 00 00 42 10 00 00 45 29 09 9A 44 2A 99 9A 44 BC F9 9A 00 00 00 00 43 FF 19 9A 00 00 00 00 00 00 00 00 00 00 00 00 00 00 00 00 00 00 00 00 43 B2 19 9A 42 69 99 9A 43 6E 33 33 00 00 00 00 42 6D 99 9A 43 51 99 9A 42 63 33 33 42 DC CC CD 00 00 00 00 42 28 35 A6
write:22 03 07 CF 00 78 73 F0
write:22 03 01 0F 00 08 72 A0
22 03 F0
34totalsize 261
46 92 0C 1A 45 94 F9 33 46 35 2B 66 00 00 00 00 45 11 BE 66 00 00 00 00 00 00 00 00 00 00 00 00 00 00 00 00 00 00 00 00 46 58 1F 33 45 5B 6E 66 46 05 93 33 00 00 00 00 44 DD 79 9A 40 E6 66 66 00 00 00 00 3F 66 66 66 00 00 00 00 40 C9 99 9A 46 A2 7B E6 45 AB C7 33 46 39 CA 9A 00 00 00 00 45 55 24 00 00 00 00 00 00 00 00 00 00 00 00 00 00 00 00 00 00 00 00 00 46 67 37 33 45 6B CC CD 46 06 3E 33 00 00 00 00 45 18 14 CD 41 28 00 00 3E E6 66 66 3F F9 99 9A 00 00 00 00 40 FE 66 66 46 28 7C CD 44 CD 5E 66 45 D8 06 00 00 00 00 00 45 0B 35 9A 00 00 00 00 00 00 00 00 00 00 00 00 00 00 00 00 00 00 00 00 46 14 0F 33 44 A5 86 66 45 BE D0 66 00 00 00 00 44 FF AC CD 40 53 33 33 00 00 00 00 3E 19 99 9A 00 00 00 00 40 40 33 5F 22 03 10 00 00 00 1D DC 1F 00 00 00 00 00 17 46 F4 00 00 90 C4
write:23 03 00 38 00 34 C3 52
write:23 03 07 CF 00 78 72 21
write:23 03 01 0F 00 08 73 71
write:24 03 00 38 00 34 C2 E5
24 03 68
3643 6D 0B 02 43 6D 79 9A 43 6C EE 14 43 CD 6B C7 43 CD 60 A4 43 CD 34 5A 3F A8 F5 C3 40 9C 7A E1 00 00 00 00 43 52 00 00 44 3B 80 00 00 00 00 00 44 77 80 00 42 B4 00 00 42 B4 00 00 42 B4 00 00 42 70 00 00 43 96 00 00 44 92 40 00 42 B4 00 00 44 77 80 00 3F 2B 02 0C 3F 26 A7 F0 3E 9A 9F BE 3F 7F 7C EE 42 48 49 01
write:24 03 07 CF 00 78 73 96
24 03 F0
36totalsize 240
44 E6 C1 9A 42 93 4C CD 44 B7 64 CD 00 00 00 00 43 98 A0 00 00 00 00 00 00 00 00 00 00 00 00 00 00 00 00 00 00 00 00 00 44 E3 4E 66 41 9A CC CD 44 C4 8E 66 00 00 00 00 43 62 59 9A 40 40 00 00 3E E6 66 66 3F 19 99 9A 00 00 00 00 3F F9 99 9A 44 FE DE 66 42 D6 CC CD 44 C8 0B 33 00 00 00 00 43 A5 99 9A 00 00 00 00 00 00 00 00 00 00 00 00 00 00 00 00 00 00 00 00 44 FD F8 00 42 43 00 00 44 D9 B0 00 00 00 00 00 43 71 80 00 40 A3 33 33 3E 99 99 9A 3F D3 33 33 00 00 00 00 40 40 00 00 44 FE E3 33 42 4A 33 33 44 CD C3 33 00 00 00 00 43 AB 26 66 00 00 00 00 00 00 00 00 00 00 00 00 00 00 00 00 00 00 00 00 45 00 B3 33 41 23 33 33 44 E2 4B 33 00 00 00 00 43 6E 80 00 40 A8 00 00 3F 66 66 66 40 06 66 66 00 00 00 00 40 10 BC 5D
write:24 03 01 0F 00 08 72 C6
24 03 10
3600 09 16 EC 00 00 00 00 00 08 EC 34 00 00 8B 60
43 6D 0B 02
237.043
43 6D 79 9A
237.475
43 6C EE 14
236.93
43 CD 6B C7
410.842
43 CD 60 A4
410.755
43 CD 34 5A
410.409
3F A8 F5 C3
1.32
40 9C 7A E1
4.89
00 00 00 00
0
43 52 00 00
210
44 3B 80 00
750
00 00 00 00
0
44 77 80 00
990
42 B4 00 00
90
42 B4 00 00
90
42 B4 00 00
90
42 70 00 00
60
43 96 00 00
300
44 92 40 00
1170
42 B4 00 00
90
44 77 80 00
990
3F 2B 02 0C
0.668
3F 26 A7 F0
0.651
3E 9A 9F BE
0.302
3F 7F 7C EE
0.998
42 48 49 01
50.071293
44 E6 C1 9A
1846.05
42 93 4C CD
73.65
44 B7 64 CD
1467.15
00 00 00 00
0
43 98 A0 00
305.25
00 00 00 00
0
00 00 00 00
0
00 00 00 00
0
00 00 00 00
0
00 00 00 00
0
44 E3 4E 66
1818.45
41 9A CC CD
19.35
44 C4 8E 66
1572.45
00 00 00 00
0
43 62 59 9A
226.35
40 40 00 00
3
3E E6 66 66
0.45
3F 19 99 9A
0.6
00 00 00 00
0
3F F9 99 9A
1.95
44 FE DE 66
2038.95
42 D6 CC CD
107.4
44 C8 0B 33
1600.35
00 00 00 00
0
43 A5 99 9A
331.2
00 00 00 00
0
00 00 00 00
0
00 00 00 00
0
00 00 00 00
0
00 00 00 00
0
44 FD F8 00
2031.75
42 43 00 00
48.75
44 D9 B0 00
1741.5
00 00 00 00
0
43 71 80 00
241.5
40 A3 33 33
5.1
3E 99 99 9A
0.3
3F D3 33 33
1.65
00 00 00 00
0
40 40 00 00
3
44 FE E3 33
2039.1
42 4A 33 33
50.55
44 CD C3 33
1646.1
00 00 00 00
0
43 AB 26 66
342.3
00 00 00 00
0
00 00 00 00
0
00 00 00 00
0
00 00 00 00
0
00 00 00 00
0
45 00 B3 33
2059.2
41 23 33 33
10.2
44 E2 4B 33
1810.35
00 00 00 00
0
43 6E 80 00
238.5
40 A8 00 00
5.25
3F 66 66 66
0.9
40 06 66 66
2.1
00 00 00 00
0
40 10 BC 5D
2.2614968
00 09 16 EC
595692
00 00 00 00
0
00 08 EC 34
584756
00 00 8B 60
35680
237.043237.475236.93410.842410.755410.4091.324.8902107500990909090603001170909900.6680.6510.3020.99850.0712931846.0573.651467.150305.25000001818.4519.351572.450226.3530.450.601.952038.95107.41600.350331.2000002031.7548.751741.50241.55.10.31.65032039.150.551646.10342.3000002059.210.21810.350238.55.250.92.102.26149683620171127205054595.6920584.75635.68insert into tbl_power_info_v2(P_A_DIANYA,P_B_DIANYA,P_C_DIANYA,P_UAB_XIANDIANYA,P_UBC_XIANDIANYA,P_UCA_XIANDIANYA,P_A_DIANLIU,P_B_DIANLIU,P_C_DIANLIU,P_A_YGGL,P_B_YGGL,P_C_YGGL,P_HXYGGL,P_A_WGGL,P_B_WGGL,P_C_WGGL,P_HXWGGL,P_A_SZGL,P_B_SZGL,P_C_SZGL,P_HXSZGL,P_A_GLYS,P_B_GLYS,P_C_GLYS,P_HXGLYS,P_DWPL,P_BY_KwhZ,P_BY_KwhJ,P_BY_KwhF,P_BY_KwhP,P_BY_KwhG,P_BY_HKwhZ,P_BY_HKwhJ,P_BY_HKwhF,P_BY_HKwhP,P_BY_HKwhG, P_BY_KvarhZ,P_BY_KvarhJ,P_BY_KvarhF,P_BY_KvarhP,P_BY_KvarhG, P_BY_HKvarhZ,P_BY_HKvarhJ,P_BY_HKvarhF,P_BY_HKvarhP,P_BY_HKvarhG, P_SY_KwhZ,P_SY_KwhJ,P_SY_KwhF,P_SY_KwhP,P_SY_KwhG, P_SY_HKwhZ,P_SY_HKwhJ,P_SY_HKwhF,P_SY_HKwhP,P_SY_HKwhG, P_SY_KvarhZ,P_SY_KvarhJ,P_SY_KvarhF,P_SY_KvarhP,P_SY_KvarhG, P_SY_HKvarhZ,P_SY_HKvarhJ,P_SY_HKvarhF,P_SY_HKvarhP,P_SY_HKvarhG, P_SSY_KwhZ,P_SSY_KwhJ,P_SSY_KwhF,P_SSY_KwhP,P_SSY_KwhG, P_SSY_HKwhZ,P_SSY_HKwhJ,P_SSY_HKwhF,P_SSY_HKwhP,P_SSY_HKwhG, P_SSY_KvarhZ,P_SSY_KvarhJ,P_SSY_KvarhF,P_SSY_KvarhP,P_SSY_KvarhG, P_SSY_HKvarhZ,P_SSY_HKvarhJ,P_SSY_HKvarhF,P_SSY_HKvarhP,P_SSY_HKvarhG,P_CODE,P_TIME,P_ZXYGDN,P_FXYGDN,P_ZXWGDN,P_FXWGDN)values(237.043,237.475,236.93,410.842,410.755,410.409,1.32,4.89,0,210,750,0,990,90,90,90,60,300,1170,90,990,0.668,0.651,0.302,0.998,50.071293,1846.05,73.65,1467.15,0,305.25,0,0,0,0,0,1818.45,19.35,1572.45,0,226.35,3,0.45,0.6,0,1.95,2038.95,107.4,1600.35,0,331.2,0,0,0,0,0,2031.75,48.75,1741.5,0,241.5,5.1,0.3,1.65,0,3,2039.1,50.55,1646.1,0,342.3,0,0,0,0,0,2059.2,10.2,1810.35,0,238.5,5.25,0.9,2.1,0,2.2614968,36,20171127205054,595.692,0,584.756,35.68)
写入成功读取完毕一个
write:25 03 00 38 00 34 C3 34
25 03 68
3743 6D 77 CF 43 6D 87 2B 43 6D 2C CD 43 CD A3 33 43 CD 81 EC 43 CD 76 E9 40 C5 C2 8F 40 BD 1E B8 00 00 00 00 44 68 80 00 44 4A 80 00 00 00 00 00 44 DD 40 00 44 8E 80 00 44 8E 80 00 00 00 00 00 45 0E 80 00 44 B7 C0 00 44 B0 40 00 42 70 00 00 45 34 00 00 3F 20 41 89 3F 13 74 BC 3F 2C 8B 44 3F 1C 28 F6 42 47 07 0D
write:25 03 07 CF 00 78 72 47
25 03 F0
37totalsize 240
45 7E B5 9A 44 04 30 00 45 2F 57 33 00 00 00 00 44 39 40 00 00 00 00 00 00 00 00 00 00 00 00 00 00 00 00 00 00 00 00 00 44 C8 E8 00 43 82 0C CD 44 8B F3 33 00 00 00 00 43 63 66 66 40 36 66 66 3E 99 99 9A 3E E6 66 66 00 00 00 00 3F F9 99 9A 45 5E 62 66 43 A5 E6 66 45 25 D8 00 00 00 00 00 44 0F 2C CD 00 00 00 00 00 00 00 00 00 00 00 00 00 00 00 00 00 00 00 00 45 0E 46 66 43 77 F3 33 44 D2 51 9A 00 00 00 00 43 AC E0 00 40 10 00 00 3E 99 99 9A 3F 19 99 9A 00 00 00 00 3F 99 99 9A 45 22 37 33 43 83 EC CD 44 F1 46 66 00 00 00 00 43 C8 A0 00 00 00 00 00 00 00 00 00 00 00 00 00 00 00 00 00 00 00 00 00 44 DC 50 00 43 48 19 9A 44 A5 5B 33 00 00 00 00 43 6F 66 66 40 E1 99 9A 40 66 66 66 40 10 00 00 00 00 00 00 3F 99 82 FB
write:25 03 01 0F 00 08 73 17
25 03 10
3700 06 BB BE 00 00 00 00 00 03 C0 3F 00 00 1A AB
43 6D 77 CF
237.468
43 6D 87 2B
237.528
43 6D 2C CD
237.175
43 CD A3 33
411.275
43 CD 81 EC
411.015
43 CD 76 E9
410.929
40 C5 C2 8F
6.18
40 BD 1E B8
5.91
00 00 00 00
0
44 68 80 00
930
44 4A 80 00
810
00 00 00 00
0
44 DD 40 00
1770
44 8E 80 00
1140
44 8E 80 00
1140
00 00 00 00
0
45 0E 80 00
2280
44 B7 C0 00
1470
44 B0 40 00
1410
42 70 00 00
60
45 34 00 00
2880
3F 20 41 89
0.626
3F 13 74 BC
0.576
3F 2C 8B 44
0.674
3F 1C 28 F6
0.61
42 47 07 0D
49.756886
45 7E B5 9A
4075.35
44 04 30 00
528.75
45 2F 57 33
2805.45
00 00 00 00
0
44 39 40 00
741
00 00 00 00
0
00 00 00 00
0
00 00 00 00
0
00 00 00 00
0
00 00 00 00
0
44 C8 E8 00
1607.25
43 82 0C CD
260.1
44 8B F3 33
1119.6
00 00 00 00
0
43 63 66 66
227.4
40 36 66 66
2.85
3E 99 99 9A
0.3
3E E6 66 66
0.45
00 00 00 00
0
3F F9 99 9A
1.95
45 5E 62 66
3558.15
43 A5 E6 66
331.8
45 25 D8 00
2653.5
00 00 00 00
0
44 0F 2C CD
572.7
00 00 00 00
0
00 00 00 00
0
00 00 00 00
0
00 00 00 00
0
00 00 00 00
0
45 0E 46 66
2276.4
43 77 F3 33
247.95
44 D2 51 9A
1682.55
00 00 00 00
0
43 AC E0 00
345.75
40 10 00 00
2.25
3E 99 99 9A
0.3
3F 19 99 9A
0.6
00 00 00 00
0
3F 99 99 9A
1.2
45 22 37 33
2595.45
43 83 EC CD
263.85
44 F1 46 66
1930.2
00 00 00 00
0
43 C8 A0 00
401.25
00 00 00 00
0
00 00 00 00
0
00 00 00 00
0
00 00 00 00
0
00 00 00 00
0
44 DC 50 00
1762.5
43 48 19 9A
200.1
44 A5 5B 33
1322.85
00 00 00 00
0
43 6F 66 66
239.4
40 E1 99 9A
7.05
40 66 66 66
3.6
40 10 00 00
2.25
00 00 00 00
0
3F 99 82 FB
1.1993097
00 06 BB BE
441278
00 00 00 00
0
00 03 C0 3F
245823
00 00 1A AB
6827
237.468237.528237.175411.275411.015410.9296.185.910930810017701140114002280147014106028800.6260.5760.6740.6149.7568864075.35528.752805.450741000001607.25260.11119.60227.42.850.30.4501.953558.15331.82653.50572.7000002276.4247.951682.550345.752.250.30.601.22595.45263.851930.20401.25000001762.5200.11322.850239.47.053.62.2501.19930973720171127205154441.2780245.8236.827insert into tbl_power_info_v2(P_A_DIANYA,P_B_DIANYA,P_C_DIANYA,P_UAB_XIANDIANYA,P_UBC_XIANDIANYA,P_UCA_XIANDIANYA,P_A_DIANLIU,P_B_DIANLIU,P_C_DIANLIU,P_A_YGGL,P_B_YGGL,P_C_YGGL,P_HXYGGL,P_A_WGGL,P_B_WGGL,P_C_WGGL,P_HXWGGL,P_A_SZGL,P_B_SZGL,P_C_SZGL,P_HXSZGL,P_A_GLYS,P_B_GLYS,P_C_GLYS,P_HXGLYS,P_DWPL,P_BY_KwhZ,P_BY_KwhJ,P_BY_KwhF,P_BY_KwhP,P_BY_KwhG,P_BY_HKwhZ,P_BY_HKwhJ,P_BY_HKwhF,P_BY_HKwhP,P_BY_HKwhG, P_BY_KvarhZ,P_BY_KvarhJ,P_BY_KvarhF,P_BY_KvarhP,P_BY_KvarhG, P_BY_HKvarhZ,P_BY_HKvarhJ,P_BY_HKvarhF,P_BY_HKvarhP,P_BY_HKvarhG, P_SY_KwhZ,P_SY_KwhJ,P_SY_KwhF,P_SY_KwhP,P_SY_KwhG, P_SY_HKwhZ,P_SY_HKwhJ,P_SY_HKwhF,P_SY_HKwhP,P_SY_HKwhG, P_SY_KvarhZ,P_SY_KvarhJ,P_SY_KvarhF,P_SY_KvarhP,P_SY_KvarhG, P_SY_HKvarhZ,P_SY_HKvarhJ,P_SY_HKvarhF,P_SY_HKvarhP,P_SY_HKvarhG, P_SSY_KwhZ,P_SSY_KwhJ,P_SSY_KwhF,P_SSY_KwhP,P_SSY_KwhG, P_SSY_HKwhZ,P_SSY_HKwhJ,P_SSY_HKwhF,P_SSY_HKwhP,P_SSY_HKwhG, P_SSY_KvarhZ,P_SSY_KvarhJ,P_SSY_KvarhF,P_SSY_KvarhP,P_SSY_KvarhG, P_SSY_HKvarhZ,P_SSY_HKvarhJ,P_SSY_HKvarhF,P_SSY_HKvarhP,P_SSY_HKvarhG,P_CODE,P_TIME,P_ZXYGDN,P_FXYGDN,P_ZXWGDN,P_FXWGDN)values(237.468,237.528,237.175,411.275,411.015,410.929,6.18,5.91,0,930,810,0,1770,1140,1140,0,2280,1470,1410,60,2880,0.626,0.576,0.674,0.61,49.756886,4075.35,528.75,2805.45,0,741,0,0,0,0,0,1607.25,260.1,1119.6,0,227.4,2.85,0.3,0.45,0,1.95,3558.15,331.8,2653.5,0,572.7,0,0,0,0,0,2276.4,247.95,1682.55,0,345.75,2.25,0.3,0.6,0,1.2,2595.45,263.85,1930.2,0,401.25,0,0,0,0,0,1762.5,200.1,1322.85,0,239.4,7.05,3.6,2.25,0,1.1993097,37,20171127205154,441.278,0,245.823,6.827)
写入成功读取完毕一个
write:26 03 00 38 00 34 C3 07
26 03 68
3843 6D 0A 7F 43 6D 60 C5 43 6C A3 D7 43 CD 60 A4 43 CD 34 5A 43 CD 13 12 00 00 00 00 00 00 00 00 3F 8E 14 7B 00 00 00 00 00 00 00 00 42 70 00 00 43 16 00 00 00 00 00 00 00 00 00 00 43 52 00 00 43 87 00 00 00 00 00 00 42 70 00 00 43 87 00 00 43 96 00 00 00 00 00 00 3F 3B A5 E3 3E 8E 56 04 3E E7 EF 9E 42 48 54 14
write:26 03 07 CF 00 78 72 74
26 03 F0
38totalsize 240
45 58 B6 66 42 29 CC CD 45 20 B4 CD 00 00 00 00 44 55 69 9A 40 81 99 9A 00 00 00 00 40 53 33 33 00 00 00 00 3F 40 00 00 45 49 3E 66 40 40 00 00 45 1A 2C 00 00 00 00 00 44 3B 80 00 42 A4 B3 33 41 AA 66 66 41 94 CC CD 00 00 00 00 42 28 99 9A 44 90 73 33 42 5B 00 00 44 55 13 33 00 00 00 00 43 78 66 66 3F AC CC CD 00 00 00 00 3F 86 66 66 00 00 00 00 3E 19 99 9A 44 89 53 33 42 2F CC CD 44 50 FC CD 00 00 00 00 43 5A 8C CD 41 C6 00 00 40 C9 99 9A 40 A8 00 00 00 00 00 00 41 50 CC CD 42 AF 33 33 40 19 99 9A 42 77 CC CD 00 00 00 00 41 B8 CC CD 00 00 00 00 00 00 00 00 00 00 00 00 00 00 00 00 00 00 00 00 42 1D 33 33 3F C0 00 00 41 E7 99 9A 00 00 00 00 41 0B 33 33 41 01 99 9A 3E 99 99 9A 40 B6 66 66 00 00 00 00 3F F9 B0 6D
write:26 03 01 0F 00 08 73 24
write:27 03 00 38 00 34 C2 D6
write:27 03 07 CF 00 78 73 A5
received messag ?->? 
 120.55.13.109:54260 172.16.246.153:6004
write:21 03 00 38 00 34 C2 B0
6C 00 0B
heart:6C 00 0B 00 00 00 00 00 00 00 00 00

err2222: EOF
write:27 03 01 0F 00 08 72 F5
write:21 03 07 CF 00 78 73 C3
write err: write tcp 172.16.246.153:6004->120.55.13.109:54260: use of closed network connection
write:28 03 00 38 00 34 C2 29
write:28 03 07 CF 00 78 73 5A
write:28 03 01 0F 00 08 72 0A
write:29 03 00 38 00 34 C3 F8
write:29 03 07 CF 00 78 72 8B
write:29 03 01 0F 00 08 73 DB
write:2A 03 00 38 00 34 C3 CB
write:2A 03 07 CF 00 78 72 B8
write:2A 03 01 0F 00 08 73 E8
write:2B 03 00 38 00 34 C2 1A
write:2B 03 07 CF 00 78 73 69
write:2B 03 01 0F 00 08 72 39
write:2C 03 00 38 00 34 C3 AD
write:2C 03 07 CF 00 78 72 DE
write:2C 03 01 0F 00 08 73 8E
write:2D 03 00 38 00 34 C2 7C
write:2D 03 07 CF 00 78 73 0F
write:2D 03 01 0F 00 08 72 5F
write:2E 03 00 38 00 34 C2 4F
write:2E 03 07 CF 00 78 73 3C
write:2E 03 01 0F 00 08 72 6C
write:2F 03 00 38 00 34 C3 9E
write:2F 03 07 CF 00 78 72 ED
write:2F 03 01 0F 00 08 73 BD
write:30 03 00 38 00 34 C1 F1
write:30 03 07 CF 00 78 70 82
write:30 03 01 0F 00 08 71 D2
write:31 03 00 38 00 34 C0 20
write:31 03 07 CF 00 78 71 53
write:31 03 01 0F 00 08 70 03
write:32 03 00 38 00 34 C0 13
write:32 03 07 CF 00 78 71 60
write:32 03 01 0F 00 08 70 30
write:21 03 00 38 00 34 C2 B0
write:21 03 07 CF 00 78 73 C3
write:21 03 01 0F 00 08 72 93
write:22 03 00 38 00 34 C2 83
write:22 03 07 CF 00 78 73 F0
write:22 03 01 0F 00 08 72 A0
write:23 03 00 38 00 34 C3 52
write:23 03 07 CF 00 78 72 21
write:23 03 01 0F 00 08 73 71
write:24 03 00 38 00 34 C2 E5
write:24 03 07 CF 00 78 73 96
write:24 03 01 0F 00 08 72 C6
write:25 03 00 38 00 34 C3 34
received messag ?->? 
 124.160.213.120:10240 172.16.246.153:6004
write:21 03 00 38 00 34 C2 B0
34 30 32
heart:34 30 32 37 32 32 35 36 30 34 38 32
write:25 03 07 CF 00 78 72 47
write:21 03 07 CF 00 78 73 C3
write:25 03 01 0F 00 08 73 17
write:21 03 01 0F 00 08 72 93
write:26 03 00 38 00 34 C3 07
write:22 03 00 38 00 34 C2 83
22 03 68
3443 6D B4 39 43 6E 60 42 43 6D B8 D5 43 CE 1D 2F 43 CE 1D 2F 43 CD DA A0 42 BB 9E B8 42 C6 6B 85 42 C4 80 00 46 6F 10 00 46 7F F0 00 46 80 34 00 47 3B BC 00 46 74 B0 00 46 80 AC 00 46 7B B8 00 47 3C 70 00 46 AE 24 00 46 B8 B0 00 46 B6 94 00 47 85 02 00 3F 2F 9D B2 3F 31 68 73 3F 33 B6 46 3F 34 BC 6A 42 48 96 57
write:26 03 07 CF 00 78 72 74
write:22 03 07 CF 00 78 73 F0
22 03 F0
34totalsize 240
46 92 2D B3 45 95 47 33 46 35 47 9A 00 00 00 00 45 11 BE 66 00 00 00 00 00 00 00 00 00 00 00 00 00 00 00 00 00 00 00 00 46 58 64 CD 45 5C 14 00 46 05 B0 00 00 00 00 00 44 DD 79 9A 40 E6 66 66 00 00 00 00 3F 66 66 66 00 00 00 00 40 C9 99 9A 46 A2 7B E6 45 AB C7 33 46 39 CA 9A 00 00 00 00 45 55 24 00 00 00 00 00 00 00 00 00 00 00 00 00 00 00 00 00 00 00 00 00 46 67 37 33 45 6B CC CD 46 06 3E 33 00 00 00 00 45 18 14 CD 41 28 00 00 3E E6 66 66 3F F9 99 9A 00 00 00 00 40 FE 66 66 46 28 7C CD 44 CD 5E 66 45 D8 06 00 00 00 00 00 45 0B 35 9A 00 00 00 00 00 00 00 00 00 00 00 00 00 00 00 00 00 00 00 00 46 14 0F 33 44 A5 86 66 45 BE D0 66 00 00 00 00 44 FF AC CD 40 53 33 33 00 00 00 00 3E 19 99 9A 00 00 00 00 40 40 02 8B
write:26 03 01 0F 00 08 73 24
write:22 03 01 0F 00 08 72 A0
write:27 03 00 38 00 34 C2 D6
write:23 03 00 38 00 34 C3 52
22 03 10
3400 1D DE 54 00 00 00 00 00 17 49 38 00 00 DA CD
43 6D B4 39
237.704
43 6E 60 42
238.376
43 6D B8 D5
237.722
43 CE 1D 2F
412.228
43 CE 1D 2F
412.228
43 CD DA A0
411.708
42 BB 9E B8
93.81
42 C6 6B 85
99.21
42 C4 80 00
98.25
46 6F 10 00
15300
46 7F F0 00
16380
46 80 34 00
16410
47 3B BC 00
48060
46 74 B0 00
15660
46 80 AC 00
16470
46 7B B8 00
16110
47 3C 70 00
48240
46 AE 24 00
22290
46 B8 B0 00
23640
46 B6 94 00
23370
47 85 02 00
68100
3F 2F 9D B2
0.686
3F 31 68 73
0.693
3F 33 B6 46
0.702
3F 34 BC 6A
0.706
42 48 96 57
50.146816
46 92 2D B3
18710.85
45 95 47 33
4776.9
46 35 47 9A
11601.9
00 00 00 00
0
45 11 BE 66
2331.9
00 00 00 00
0
00 00 00 00
0
00 00 00 00
0
00 00 00 00
0
00 00 00 00
0
46 58 64 CD
13849.2
45 5C 14 00
3521.25
46 05 B0 00
8556
00 00 00 00
0
44 DD 79 9A
1771.8
40 E6 66 66
7.2
00 00 00 00
0
3F 66 66 66
0.9
00 00 00 00
0
40 C9 99 9A
6.3
46 A2 7B E6
20797.95
45 AB C7 33
5496.9
