nohup: ignoring input
Listening on :6003
received messag ?->? 
 124.160.216.164:19943 172.16.246.153:6003
write:0E 03 00 38 00 34 C5 2F
34 30 36
heart:34 30 36 36 32 33 30 31 30 34 33 35 2C 72 75 69
write:0E 03 07 CF 00 78 74 5C
write:0E 03 01 0F 00 08 75 0C
write:0F 03 00 38 00 34 C4 FE
write:0F 03 07 CF 00 78 75 8D
write:0F 03 01 0F 00 08 74 DD
34 30 36
heart:34 30 36 36 32 33 30 31 30 34 33 35 2C 72 75 69
write:10 03 00 38 00 34 C6 91
write:10 03 07 CF 00 78 77 E2
write:10 03 01 0F 00 08 76 B2
write:11 03 00 38 00 34 C7 40
34 30 36
heart:34 30 36 36 32 33 30 31 30 34 33 35 2C 72 75 69
write:11 03 07 CF 00 78 76 33
write:11 03 01 0F 00 08 77 63
write:12 03 00 38 00 34 C7 73
12 03 68
1843 6A 32 F2 43 6A 4E 56 43 69 C6 66 43 CA D2 B0 43 CA A6 66 43 CA 90 21 43 3A F5 C3 43 36 28 F6 43 49 99 9A 47 1A 38 00 47 16 78 00 00 00 00 00 00 00 00 00 00 00 00 00 00 00 00 00 00 00 00 00 00 00 00 00 00 00 00 00 00 00 00 00 00 00 00 00 00 00 00 00 00 00 00 00 00 00 00 00 00 00 00 00 00 00 00 00 00 00 00 00
00 47 2B
heart:00 47 2B 18 00 47 E8 08 00 46 64 C0 00 46 52 00 00 46 4C 60 00 47 20 C8 00 47 12 B8 00 47 21 B8 00 47 36 58 00 47 EC 04 00 3F 5D F3 B6 3F 66 66 66 3F 6F DF 3B 3F 70 A3 D7 42 47 DC CB
write:12 03 07 CF 00 78 76 00
12 03 F0
18totalsize 240
47 98 9F 1A 46 3E 05 9A 47 0F 2F 33 00 00 00 00 46 E5 1B 33 00 00 00 00 00 00 00 00 00 00 00 00 00 00 00 00 00 00 00 00 46 8E 7E CD 45 29 29 9A 46 14 B7 33 00 00 00 00 45 BB F3 33 00 00 00 00 00 00 00 00 00 00 00 00 00 00 00 00 00 00 00 00 47 A9 B7 80 46 5C 9F 33 47 22 D6 CD 00 00 00 00 46 F2 DF 9A 00 00 00 00 00 00 00 00 00 00 00 00 00 00 00 00 00 00 00 00 46 B2 70 66 45 65 B9 9A 46 3A EB 33 00 00 00 00 45 E1 09 9A 00 00 00 00 00 00 00 00 00 00 00 00 00 00 00 00 00 00 00 00 47 82 8D CD 46 41 63 33 46 D4 77 33 00 00 00 00 46 D5 0E 66 00 00 00 00 00 00 00 00 00 00 00 00 00 00 00 00 00 00 00 00 46 95 B4 66 45 65 46 66 45 FB B3 33 00 00 00 00 45 E8 7B 33 00 00 00 00 00 00 00 00 00 00 00 00 00 00 00 00 00 00 4A 86
write:12 03 01 0F 00 08 77 50
12 03 10
1800 41 6E 8B 00 00 00 00 00 14 12 FA 00 00 68 64
43 6A 32 F2
234.199
43 6A 4E 56
234.306
43 69 C6 66
233.775
43 CA D2 B0
405.646
43 CA A6 66
405.3
43 CA 90 21
405.126
43 3A F5 C3
186.96
43 36 28 F6
182.16
43 49 99 9A
201.6
47 1A 38 00
39480
47 16 78 00
38520
00 00 00 00
0
00 00 00 00
0
00 00 00 00
0
00 00 00 00
0
00 00 00 00
0
00 00 00 00
0
00 00 00 00
0
00 00 00 00
0
00 00 00 00
0
00 00 00 00
0
00 00 00 00
0
00 00 00 00
0
00 00 00 00
0
00 00 00 00
0
00 00 00 00
0
47 98 9F 1A
78142.2
46 3E 05 9A
12161.4
47 0F 2F 33
36655.2
00 00 00 00
0
46 E5 1B 33
29325.6
00 00 00 00
0
00 00 00 00
0
00 00 00 00
0
00 00 00 00
0
00 00 00 00
0
46 8E 7E CD
18239.4
45 29 29 9A
2706.6
46 14 B7 33
9517.8
00 00 00 00
0
45 BB F3 33
6014.4
00 00 00 00
0
00 00 00 00
0
00 00 00 00
0
00 00 00 00
0
00 00 00 00
0
47 A9 B7 80
86895
46 5C 9F 33
14119.8
47 22 D6 CD
41686.8
00 00 00 00
0
46 F2 DF 9A
31087.8
00 00 00 00
0
00 00 00 00
0
00 00 00 00
0
00 00 00 00
0
00 00 00 00
0
46 B2 70 66
22840.2
45 65 B9 9A
3675.6
46 3A EB 33
11962.8
00 00 00 00
0
45 E1 09 9A
7201.2
00 00 00 00
0
00 00 00 00
0
00 00 00 00
0
00 00 00 00
0
00 00 00 00
0
47 82 8D CD
66843.6
46 41 63 33
12376.8
46 D4 77 33
27195.6
00 00 00 00
0
46 D5 0E 66
27271.2
00 00 00 00
0
00 00 00 00
0
00 00 00 00
0
00 00 00 00
0
00 00 00 00
0
46 95 B4 66
19162.2
45 65 46 66
3668.4
45 FB B3 33
8054.4
00 00 00 00
0
45 E8 7B 33
7439.4
00 00 00 00
0
00 00 00 00
0
00 00 00 00
0
00 00 00 00
0
00 00 4A 86
2.6734e-41
00 41 6E 8B
4288139
00 00 00 00
0
00 14 12 FA
1315578
00 00 68 64
26724
234.199234.306233.775405.646405.3405.126186.96182.16201.6394803852000000000000000078142.212161.436655.2029325.60000018239.42706.69517.806014.4000008689514119.841686.8031087.80000022840.23675.611962.807201.20000066843.612376.827195.6027271.20000019162.23668.48054.407439.400002.6734e-4118201711271423154288.13901315.57826.724insert into tbl_power_info_v2(P_A_DIANYA,P_B_DIANYA,P_C_DIANYA,P_UAB_XIANDIANYA,P_UBC_XIANDIANYA,P_UCA_XIANDIANYA,P_A_DIANLIU,P_B_DIANLIU,P_C_DIANLIU,P_A_YGGL,P_B_YGGL,P_C_YGGL,P_HXYGGL,P_A_WGGL,P_B_WGGL,P_C_WGGL,P_HXWGGL,P_A_SZGL,P_B_SZGL,P_C_SZGL,P_HXSZGL,P_A_GLYS,P_B_GLYS,P_C_GLYS,P_HXGLYS,P_DWPL,P_BY_KwhZ,P_BY_KwhJ,P_BY_KwhF,P_BY_KwhP,P_BY_KwhG,P_BY_HKwhZ,P_BY_HKwhJ,P_BY_HKwhF,P_BY_HKwhP,P_BY_HKwhG, P_BY_KvarhZ,P_BY_KvarhJ,P_BY_KvarhF,P_BY_KvarhP,P_BY_KvarhG, P_BY_HKvarhZ,P_BY_HKvarhJ,P_BY_HKvarhF,P_BY_HKvarhP,P_BY_HKvarhG, P_SY_KwhZ,P_SY_KwhJ,P_SY_KwhF,P_SY_KwhP,P_SY_KwhG, P_SY_HKwhZ,P_SY_HKwhJ,P_SY_HKwhF,P_SY_HKwhP,P_SY_HKwhG, P_SY_KvarhZ,P_SY_KvarhJ,P_SY_KvarhF,P_SY_KvarhP,P_SY_KvarhG, P_SY_HKvarhZ,P_SY_HKvarhJ,P_SY_HKvarhF,P_SY_HKvarhP,P_SY_HKvarhG, P_SSY_KwhZ,P_SSY_KwhJ,P_SSY_KwhF,P_SSY_KwhP,P_SSY_KwhG, P_SSY_HKwhZ,P_SSY_HKwhJ,P_SSY_HKwhF,P_SSY_HKwhP,P_SSY_HKwhG, P_SSY_KvarhZ,P_SSY_KvarhJ,P_SSY_KvarhF,P_SSY_KvarhP,P_SSY_KvarhG, P_SSY_HKvarhZ,P_SSY_HKvarhJ,P_SSY_HKvarhF,P_SSY_HKvarhP,P_SSY_HKvarhG,P_CODE,P_TIME,P_ZXYGDN,P_FXYGDN,P_ZXWGDN,P_FXWGDN)values(234.199,234.306,233.775,405.646,405.3,405.126,186.96,182.16,201.6,39480,38520,0,0,0,0,0,0,0,0,0,0,0,0,0,0,0,78142.2,12161.4,36655.2,0,29325.6,0,0,0,0,0,18239.4,2706.6,9517.8,0,6014.4,0,0,0,0,0,86895,14119.8,41686.8,0,31087.8,0,0,0,0,0,22840.2,3675.6,11962.8,0,7201.2,0,0,0,0,0,66843.6,12376.8,27195.6,0,27271.2,0,0,0,0,0,19162.2,3668.4,8054.4,0,7439.4,0,0,0,0,2.6734e-41,18,20171127142315,4288.139,0,1315.578,26.724)
写入成功读取完毕一个
write:13 03 00 38 00 34 C6 A2
13 03 68
1943 6A 89 79 43 6A 55 C3 43 69 DE FA 43 CA FE FA 43 CA B1 68 43 CA C7 8D 41 19 99 9A 41 27 AE 14 41 3C 28 F6 44 FA 00 00 45 0C 00 00 45 20 00 00 45 D7 00 00 00 00 00 00 00 00 00 00 43 20 00 00 43 20 00 00 45 0C 00 00 45 1B 00 00 45 2A 00 00 45 D7 00 00 3F 64 9B A6 3F 6B 85 1F 3F 6F DF 3B 3F 80 00 00 42 48 C7 C4
write:13 03 07 CF 00 78 77 D1
13 03 F0
19totalsize 240
44 AC 66 66 42 DC CC CD 44 57 4C CD 00 00 00 00 43 CB 99 9A 00 00 00 00 00 00 00 00 00 00 00 00 00 00 00 00 00 00 00 00 43 17 99 9A 3E CC CC CD 43 06 00 00 00 00 00 00 41 83 33 33 43 DE CC CD 42 9B 33 33 43 2C CC CD 00 00 00 00 43 42 CC CD 44 5A CC CD 42 BC 00 00 43 F7 66 66 00 00 00 00 43 8F 00 00 00 00 00 00 00 00 00 00 00 00 00 00 00 00 00 00 00 00 00 00 40 80 00 00 00 00 00 00 40 4C CC CD 00 00 00 00 3F 4C CC CD 44 1A 99 9A 42 C4 00 00 43 85 66 66 00 00 00 00 43 7D 33 33 44 DC A6 66 42 DB 33 33 44 8E CC CD 00 00 00 00 44 00 4C CD 00 00 00 00 00 00 00 00 00 00 00 00 00 00 00 00 00 00 00 00 42 5E 66 66 3E CC CC CD 42 21 99 9A 00 00 00 00 41 60 00 00 43 FE 00 00 42 B6 66 66 43 3F 99 9A 00 00 00 00 43 60 10 D8
write:13 03 01 0F 00 08 76 81
13 03 10
1900 02 98 45 00 00 00 00 00 00 35 A9 00 00 E7 DF
43 6A 89 79
234.537
43 6A 55 C3
234.335
43 69 DE FA
233.871
43 CA FE FA
405.992
43 CA B1 68
405.386
43 CA C7 8D
405.559
41 19 99 9A
9.6
41 27 AE 14
10.48
41 3C 28 F6
11.76
44 FA 00 00
2000
45 0C 00 00
2240
45 20 00 00
2560
45 D7 00 00
6880
00 00 00 00
0
00 00 00 00
0
43 20 00 00
160
43 20 00 00
160
45 0C 00 00
2240
45 1B 00 00
2480
45 2A 00 00
2720
45 D7 00 00
6880
3F 64 9B A6
0.893
3F 6B 85 1F
0.92
3F 6F DF 3B
0.937
3F 80 00 00
1
42 48 C7 C4
50.195084
44 AC 66 66
1379.2
42 DC CC CD
110.4
44 57 4C CD
861.2
00 00 00 00
0
43 CB 99 9A
407.2
00 00 00 00
0
00 00 00 00
0
00 00 00 00
0
00 00 00 00
0
00 00 00 00
0
43 17 99 9A
151.6
3E CC CC CD
0.4
43 06 00 00
134
00 00 00 00
0
41 83 33 33
16.4
43 DE CC CD
445.6
42 9B 33 33
77.6
43 2C CC CD
172.8
00 00 00 00
0
43 42 CC CD
194.8
44 5A CC CD
875.2
42 BC 00 00
94
43 F7 66 66
494.8
00 00 00 00
0
43 8F 00 00
286
00 00 00 00
0
00 00 00 00
0
00 00 00 00
0
00 00 00 00
0
00 00 00 00
0
40 80 00 00
4
00 00 00 00
0
40 4C CC CD
3.2
00 00 00 00
0
3F 4C CC CD
0.8
44 1A 99 9A
618.4
42 C4 00 00
98
43 85 66 66
266.8
00 00 00 00
0
43 7D 33 33
253.2
44 DC A6 66
1765.2
42 DB 33 33
109.6
44 8E CC CD
1142.4
00 00 00 00
0
44 00 4C CD
513.2
00 00 00 00
0
00 00 00 00
0
00 00 00 00
0
00 00 00 00
0
00 00 00 00
0
42 5E 66 66
55.6
3E CC CC CD
0.4
42 21 99 9A
40.4
00 00 00 00
0
41 60 00 00
14
43 FE 00 00
508
42 B6 66 66
91.2
43 3F 99 9A
191.6
00 00 00 00
0
43 60 10 D8
224.0658
00 02 98 45
170053
00 00 00 00
0
00 00 35 A9
13737
00 00 E7 DF
59359
234.537234.335233.871405.992405.386405.5599.610.4811.7620002240256068800016016022402480272068800.8930.920.937150.1950841379.2110.4861.20407.200000151.60.4134016.4445.677.6172.80194.8875.294494.8028600000403.200.8618.498266.80253.21765.2109.61142.40513.20000055.60.440.401450891.2191.60224.06581920171127142415170.053013.73759.359insert into tbl_power_info_v2(P_A_DIANYA,P_B_DIANYA,P_C_DIANYA,P_UAB_XIANDIANYA,P_UBC_XIANDIANYA,P_UCA_XIANDIANYA,P_A_DIANLIU,P_B_DIANLIU,P_C_DIANLIU,P_A_YGGL,P_B_YGGL,P_C_YGGL,P_HXYGGL,P_A_WGGL,P_B_WGGL,P_C_WGGL,P_HXWGGL,P_A_SZGL,P_B_SZGL,P_C_SZGL,P_HXSZGL,P_A_GLYS,P_B_GLYS,P_C_GLYS,P_HXGLYS,P_DWPL,P_BY_KwhZ,P_BY_KwhJ,P_BY_KwhF,P_BY_KwhP,P_BY_KwhG,P_BY_HKwhZ,P_BY_HKwhJ,P_BY_HKwhF,P_BY_HKwhP,P_BY_HKwhG, P_BY_KvarhZ,P_BY_KvarhJ,P_BY_KvarhF,P_BY_KvarhP,P_BY_KvarhG, P_BY_HKvarhZ,P_BY_HKvarhJ,P_BY_HKvarhF,P_BY_HKvarhP,P_BY_HKvarhG, P_SY_KwhZ,P_SY_KwhJ,P_SY_KwhF,P_SY_KwhP,P_SY_KwhG, P_SY_HKwhZ,P_SY_HKwhJ,P_SY_HKwhF,P_SY_HKwhP,P_SY_HKwhG, P_SY_KvarhZ,P_SY_KvarhJ,P_SY_KvarhF,P_SY_KvarhP,P_SY_KvarhG, P_SY_HKvarhZ,P_SY_HKvarhJ,P_SY_HKvarhF,P_SY_HKvarhP,P_SY_HKvarhG, P_SSY_KwhZ,P_SSY_KwhJ,P_SSY_KwhF,P_SSY_KwhP,P_SSY_KwhG, P_SSY_HKwhZ,P_SSY_HKwhJ,P_SSY_HKwhF,P_SSY_HKwhP,P_SSY_HKwhG, P_SSY_KvarhZ,P_SSY_KvarhJ,P_SSY_KvarhF,P_SSY_KvarhP,P_SSY_KvarhG, P_SSY_HKvarhZ,P_SSY_HKvarhJ,P_SSY_HKvarhF,P_SSY_HKvarhP,P_SSY_HKvarhG,P_CODE,P_TIME,P_ZXYGDN,P_FXYGDN,P_ZXWGDN,P_FXWGDN)values(234.537,234.335,233.871,405.992,405.386,405.559,9.6,10.48,11.76,2000,2240,2560,6880,0,0,160,160,2240,2480,2720,6880,0.893,0.92,0.937,1,50.195084,1379.2,110.4,861.2,0,407.2,0,0,0,0,0,151.6,0.4,134,0,16.4,445.6,77.6,172.8,0,194.8,875.2,94,494.8,0,286,0,0,0,0,0,4,0,3.2,0,0.8,618.4,98,266.8,0,253.2,1765.2,109.6,1142.4,0,513.2,0,0,0,0,0,55.6,0.4,40.4,0,14,508,91.2,191.6,0,224.0658,19,20171127142415,170.053,0,13.737,59.359)
写入成功读取完毕一个
write:14 03 00 38 00 34 C7 15
14 03 68
2043 6A 5A E1 43 6A 11 AA 43 69 8F 5C 43 CA C7 8D 43 CA 6E D9 43 CA 90 21 00 00 00 00 00 00 00 00 00 00 00 00 00 00 00 00 00 00 00 00 00 00 00 00 00 00 00 00 00 00 00 00 00 00 00 00 00 00 00 00 00 00 00 00 00 00 00 00 00 00 00 00 00 00 00 00 42 A0 00 00 00 00 00 00 00 00 00 00 00 00 00 00 3F 21 CA C1 42 47 5E 0B
write:14 03 07 CF 00 78 76 66
14 03 F0
20totalsize 240
44 AB C6 66 43 D6 33 33 43 9C 99 9A 00 00 00 00 44 1E 19 9A 00 00 00 00 00 00 00 00 00 00 00 00 00 00 00 00 00 00 00 00 40 0C CC CD 00 00 00 00 40 0C CC CD 00 00 00 00 00 00 00 00 43 9F 4C CD 42 CC 66 66 42 87 99 9A 00 00 00 00 43 14 66 66 44 AC 73 33 43 E0 33 33 43 9A 66 66 00 00 00 00 44 1B 8C CD 00 00 00 00 00 00 00 00 00 00 00 00 00 00 00 00 00 00 00 00 40 99 99 9A 00 00 00 00 40 93 33 33 00 00 00 00 00 00 00 00 43 9B 80 00 42 D2 66 66 42 76 66 66 00 00 00 00 43 10 00 00 44 A4 D9 9A 43 ED 99 9A 43 78 66 66 00 00 00 00 44 14 C0 00 00 00 00 00 00 00 00 00 00 00 00 00 00 00 00 00 00 00 00 00 3F 4C CC CD 00 00 00 00 3F 4C CC CD 00 00 00 00 00 00 00 00 43 8C 66 66 42 D1 33 33 42 3B 33 33 00 00 00 00 43 01 E0 0E
write:14 03 01 0F 00 08 77 36
14 03 10
2000 04 23 8C 00 00 00 00 00 00 13 51 00 00 A4 AE
43 6A 5A E1
234.355
43 6A 11 AA
234.069
43 69 8F 5C
233.56
43 CA C7 8D
405.559
43 CA 6E D9
404.866
43 CA 90 21
405.126
00 00 00 00
0
00 00 00 00
0
00 00 00 00
0
00 00 00 00
0
00 00 00 00
0
00 00 00 00
0
00 00 00 00
0
00 00 00 00
0
00 00 00 00
0
00 00 00 00
0
00 00 00 00
0
00 00 00 00
0
00 00 00 00
0
00 00 00 00
0
42 A0 00 00
80
00 00 00 00
0
00 00 00 00
0
00 00 00 00
0
3F 21 CA C1
0.632
42 47 5E 0B
49.84184
44 AB C6 66
1374.2
43 D6 33 33
428.4
43 9C 99 9A
313.2
00 00 00 00
0
44 1E 19 9A
632.4
00 00 00 00
0
00 00 00 00
0
00 00 00 00
0
00 00 00 00
0
00 00 00 00
0
40 0C CC CD
2.2
00 00 00 00
0
40 0C CC CD
2.2
00 00 00 00
0
00 00 00 00
0
43 9F 4C CD
318.6
42 CC 66 66
102.2
42 87 99 9A
67.8
00 00 00 00
0
43 14 66 66
148.4
44 AC 73 33
1379.6
43 E0 33 33
448.4
43 9A 66 66
308.8
00 00 00 00
0
44 1B 8C CD
622.2
00 00 00 00
0
00 00 00 00
0
00 00 00 00
0
00 00 00 00
0
00 00 00 00
0
40 99 99 9A
4.8
00 00 00 00
0
40 93 33 33
4.6
00 00 00 00
0
00 00 00 00
0
43 9B 80 00
311
42 D2 66 66
105.2
42 76 66 66
61.6
00 00 00 00
0
43 10 00 00
144
44 A4 D9 9A
1318.8
43 ED 99 9A
475.2
43 78 66 66
248.4
00 00 00 00
0
44 14 C0 00
595
00 00 00 00
0
00 00 00 00
0
00 00 00 00
0
00 00 00 00
0
00 00 00 00
0
3F 4C CC CD
0.8
00 00 00 00
0
3F 4C CC CD
0.8
00 00 00 00
0
00 00 00 00
0
43 8C 66 66
280.8
42 D1 33 33
104.6
42 3B 33 33
46.8
00 00 00 00
0
43 01 E0 0E
129.87521
00 04 23 8C
271244
00 00 00 00
0
00 00 13 51
4945
00 00 A4 AE
42158
234.355234.069233.56405.559404.866405.12600000000000000800000.63249.841841374.2428.4313.20632.4000002.202.200318.6102.267.80148.41379.6448.4308.80622.2000004.804.600311105.261.601441318.8475.2248.40595000000.800.800280.8104.646.80129.875212020171127142515271.24404.94542.158insert into tbl_power_info_v2(P_A_DIANYA,P_B_DIANYA,P_C_DIANYA,P_UAB_XIANDIANYA,P_UBC_XIANDIANYA,P_UCA_XIANDIANYA,P_A_DIANLIU,P_B_DIANLIU,P_C_DIANLIU,P_A_YGGL,P_B_YGGL,P_C_YGGL,P_HXYGGL,P_A_WGGL,P_B_WGGL,P_C_WGGL,P_HXWGGL,P_A_SZGL,P_B_SZGL,P_C_SZGL,P_HXSZGL,P_A_GLYS,P_B_GLYS,P_C_GLYS,P_HXGLYS,P_DWPL,P_BY_KwhZ,P_BY_KwhJ,P_BY_KwhF,P_BY_KwhP,P_BY_KwhG,P_BY_HKwhZ,P_BY_HKwhJ,P_BY_HKwhF,P_BY_HKwhP,P_BY_HKwhG, P_BY_KvarhZ,P_BY_KvarhJ,P_BY_KvarhF,P_BY_KvarhP,P_BY_KvarhG, P_BY_HKvarhZ,P_BY_HKvarhJ,P_BY_HKvarhF,P_BY_HKvarhP,P_BY_HKvarhG, P_SY_KwhZ,P_SY_KwhJ,P_SY_KwhF,P_SY_KwhP,P_SY_KwhG, P_SY_HKwhZ,P_SY_HKwhJ,P_SY_HKwhF,P_SY_HKwhP,P_SY_HKwhG, P_SY_KvarhZ,P_SY_KvarhJ,P_SY_KvarhF,P_SY_KvarhP,P_SY_KvarhG, P_SY_HKvarhZ,P_SY_HKvarhJ,P_SY_HKvarhF,P_SY_HKvarhP,P_SY_HKvarhG, P_SSY_KwhZ,P_SSY_KwhJ,P_SSY_KwhF,P_SSY_KwhP,P_SSY_KwhG, P_SSY_HKwhZ,P_SSY_HKwhJ,P_SSY_HKwhF,P_SSY_HKwhP,P_SSY_HKwhG, P_SSY_KvarhZ,P_SSY_KvarhJ,P_SSY_KvarhF,P_SSY_KvarhP,P_SSY_KvarhG, P_SSY_HKvarhZ,P_SSY_HKvarhJ,P_SSY_HKvarhF,P_SSY_HKvarhP,P_SSY_HKvarhG,P_CODE,P_TIME,P_ZXYGDN,P_FXYGDN,P_ZXWGDN,P_FXWGDN)values(234.355,234.069,233.56,405.559,404.866,405.126,0,0,0,0,0,0,0,0,0,0,0,0,0,0,80,0,0,0,0.632,49.84184,1374.2,428.4,313.2,0,632.4,0,0,0,0,0,2.2,0,2.2,0,0,318.6,102.2,67.8,0,148.4,1379.6,448.4,308.8,0,622.2,0,0,0,0,0,4.8,0,4.6,0,0,311,105.2,61.6,0,144,1318.8,475.2,248.4,0,595,0,0,0,0,0,0.8,0,0.8,0,0,280.8,104.6,46.8,0,129.87521,20,20171127142515,271.244,0,4.945,42.158)
写入成功读取完毕一个
write:15 03 00 38 00 34 C6 C4
15 03 68
2143 6A 72 B0 43 6A 58 52 43 6A 0A 3D 43 CA F3 F8 43 CA C7 8D 43 CA D2 B0 00 00 00 00 00 00 00 00 00 00 00 00 00 00 00 00 00 00 00 00 00 00 00 00 00 00 00 00 00 00 00 00 00 00 00 00 00 00 00 00 00 00 00 00 00 00 00 00 00 00 00 00 00 00 00 00 00 00 00 00 00 00 00 00 00 00 00 00 00 00 00 00 00 00 00 00 00 00 00 00
00 00 00
heart:00 00 00 00 00 00 00 00 00 00 00 00 00 00 00 00 00 00 00 00 00 00 00 00 00 00 00 00 00 00 00 00 00 00 00 00 00 00 00 00 00 00 42 48 DE 89
write:15 03 07 CF 00 78 77 B7
15 03 F0
21totalsize 240
40 CC CC CD 00 00 00 00 40 A6 66 66 00 00 00 00 3F 99 99 9A 00 00 00 00 00 00 00 00 00 00 00 00 00 00 00 00 00 00 00 00 3E CC CC CD 00 00 00 00 3E CC CC CD 00 00 00 00 00 00 00 00 00 00 00 00 00 00 00 00 00 00 00 00 00 00 00 00 00 00 00 00 40 8C CC CD 00 00 00 00 40 66 66 66 00 00 00 00 3F 4C CC CD 00 00 00 00 00 00 00 00 00 00 00 00 00 00 00 00 00 00 00 00 00 00 00 00 00 00 00 00 00 00 00 00 00 00 00 00 00 00 00 00 00 00 00 00 00 00 00 00 00 00 00 00 00 00 00 00 00 00 00 00 42 1E 66 66 00 00 00 00 41 F3 33 33 00 00 00 00 41 13 33 33 00 00 00 00 00 00 00 00 00 00 00 00 00 00 00 00 00 00 00 00 42 D8 00 00 00 00 00 00 42 A3 33 33 00 00 00 00 41 D0 00 00 00 00 00 00 00 00 00 00 00 00 00 00 00 00 00 00 00 00 7F 8C
write:15 03 01 0F 00 08 76 E7
15 03 10
2100 00 18 95 00 00 00 00 00 00 1D 3D 00 00 8A E4
43 6A 72 B0
234.448
43 6A 58 52
234.345
43 6A 0A 3D
234.04
43 CA F3 F8
405.906
43 CA C7 8D
405.559
43 CA D2 B0
405.646
00 00 00 00
0
00 00 00 00
0
00 00 00 00
0
00 00 00 00
0
00 00 00 00
0
00 00 00 00
0
00 00 00 00
0
00 00 00 00
0
00 00 00 00
0
00 00 00 00
0
00 00 00 00
0
00 00 00 00
0
00 00 00 00
0
00 00 00 00
0
00 00 00 00
0
00 00 00 00
0
00 00 00 00
0
00 00 00 00
0
00 00 00 00
0
00 00 00 00
0
40 CC CC CD
6.4
00 00 00 00
0
40 A6 66 66
5.2
00 00 00 00
0
3F 99 99 9A
1.2
00 00 00 00
0
00 00 00 00
0
00 00 00 00
0
00 00 00 00
0
00 00 00 00
0
3E CC CC CD
0.4
00 00 00 00
0
3E CC CC CD
0.4
00 00 00 00
0
00 00 00 00
0
00 00 00 00
0
00 00 00 00
0
00 00 00 00
0
00 00 00 00
0
00 00 00 00
0
40 8C CC CD
4.4
00 00 00 00
0
40 66 66 66
3.6
00 00 00 00
0
3F 4C CC CD
0.8
00 00 00 00
0
00 00 00 00
0
00 00 00 00
0
00 00 00 00
0
00 00 00 00
0
00 00 00 00
0
00 00 00 00
0
00 00 00 00
0
00 00 00 00
0
00 00 00 00
0
00 00 00 00
0
00 00 00 00
0
00 00 00 00
0
00 00 00 00
0
00 00 00 00
0
42 1E 66 66
39.6
00 00 00 00
0
41 F3 33 33
30.4
00 00 00 00
0
41 13 33 33
9.2
00 00 00 00
0
00 00 00 00
0
00 00 00 00
0
00 00 00 00
0
00 00 00 00
0
42 D8 00 00
108
00 00 00 00
0
42 A3 33 33
81.6
00 00 00 00
0
41 D0 00 00
26
00 00 00 00
0
00 00 00 00
0
00 00 00 00
0
00 00 00 00
0
00 00 7F 8C
4.5755e-41
00 00 18 95
6293
00 00 00 00
0
00 00 1D 3D
7485
00 00 8A E4
35556
234.448234.345234.04405.906405.559405.646000000000000000000006.405.201.2000000.400.400000004.403.600.800000000000000039.6030.409.200000108081.602600004.5755e-4121201711271426156.29307.48535.556insert into tbl_power_info_v2(P_A_DIANYA,P_B_DIANYA,P_C_DIANYA,P_UAB_XIANDIANYA,P_UBC_XIANDIANYA,P_UCA_XIANDIANYA,P_A_DIANLIU,P_B_DIANLIU,P_C_DIANLIU,P_A_YGGL,P_B_YGGL,P_C_YGGL,P_HXYGGL,P_A_WGGL,P_B_WGGL,P_C_WGGL,P_HXWGGL,P_A_SZGL,P_B_SZGL,P_C_SZGL,P_HXSZGL,P_A_GLYS,P_B_GLYS,P_C_GLYS,P_HXGLYS,P_DWPL,P_BY_KwhZ,P_BY_KwhJ,P_BY_KwhF,P_BY_KwhP,P_BY_KwhG,P_BY_HKwhZ,P_BY_HKwhJ,P_BY_HKwhF,P_BY_HKwhP,P_BY_HKwhG, P_BY_KvarhZ,P_BY_KvarhJ,P_BY_KvarhF,P_BY_KvarhP,P_BY_KvarhG, P_BY_HKvarhZ,P_BY_HKvarhJ,P_BY_HKvarhF,P_BY_HKvarhP,P_BY_HKvarhG, P_SY_KwhZ,P_SY_KwhJ,P_SY_KwhF,P_SY_KwhP,P_SY_KwhG, P_SY_HKwhZ,P_SY_HKwhJ,P_SY_HKwhF,P_SY_HKwhP,P_SY_HKwhG, P_SY_KvarhZ,P_SY_KvarhJ,P_SY_KvarhF,P_SY_KvarhP,P_SY_KvarhG, P_SY_HKvarhZ,P_SY_HKvarhJ,P_SY_HKvarhF,P_SY_HKvarhP,P_SY_HKvarhG, P_SSY_KwhZ,P_SSY_KwhJ,P_SSY_KwhF,P_SSY_KwhP,P_SSY_KwhG, P_SSY_HKwhZ,P_SSY_HKwhJ,P_SSY_HKwhF,P_SSY_HKwhP,P_SSY_HKwhG, P_SSY_KvarhZ,P_SSY_KvarhJ,P_SSY_KvarhF,P_SSY_KvarhP,P_SSY_KvarhG, P_SSY_HKvarhZ,P_SSY_HKvarhJ,P_SSY_HKvarhF,P_SSY_HKvarhP,P_SSY_HKvarhG,P_CODE,P_TIME,P_ZXYGDN,P_FXYGDN,P_ZXWGDN,P_FXWGDN)values(234.448,234.345,234.04,405.906,405.559,405.646,0,0,0,0,0,0,0,0,0,0,0,0,0,0,0,0,0,0,0,0,6.4,0,5.2,0,1.2,0,0,0,0,0,0.4,0,0.4,0,0,0,0,0,0,0,4.4,0,3.6,0,0.8,0,0,0,0,0,0,0,0,0,0,0,0,0,0,0,39.6,0,30.4,0,9.2,0,0,0,0,0,108,0,81.6,0,26,0,0,0,0,4.5755e-41,21,20171127142615,6.293,0,7.485,35.556)
写入成功读取完毕一个
write:16 03 00 38 00 34 C6 F7
write:15 03 01 0F 00 08 76 E7
15 03 10
2100 00 18 95 00 00 00 00 00 00 1D 3D 00 00 8A E4
write:16 03 00 38 00 34 C6 F7
write:16 03 07 CF 00 78 77 84
write:16 03 01 0F 00 08 76 D4
write:17 03 00 38 00 34 C7 26
17 03 68
2343 69 F9 58 43 69 F2 B0 43 69 6D 91 43 CA 90 21 43 CA 58 B4 43 CA 58 B4 3F FA E1 48 40 33 33 33 40 70 A3 D7 43 8C 00 00 44 02 00 00 44 52 00 00 44 CD 00 00 42 A0 00 00 00 00 00 00 42 A0 00 00 42 F0 00 00 43 DC 00 00 44 20 00 00 44 5C 00 00 44 CD 00 00 3F 21 47 AE 3F 4F 5C 29 3F 6F 5C 29 3F 7F 3B 64 42 47 42 86
write:17 03 07 CF 00 78 76 55
17 03 F0
23totalsize 240
44 AD 39 9A 43 71 99 9A 44 61 00 00 00 00 00 00 43 74 00 00 00 00 00 00 00 00 00 00 00 00 00 00 00 00 00 00 00 00 00 00 42 1F 33 33 40 80 00 00 41 F4 CC CD 00 00 00 00 40 A0 00 00 42 6D 99 9A 41 4C CC CD 41 BC CC CD 00 00 00 00 41 B8 00 00 44 AC 0C CD 43 8E E6 66 44 54 80 00 00 00 00 00 43 70 33 33 00 00 00 00 00 00 00 00 00 00 00 00 00 00 00 00 00 00 00 00 41 16 66 66 3E CC CC CD 40 D9 99 9A 00 00 00 00 3F E6 66 66 42 D5 33 33 41 BB 33 33 42 46 66 66 00 00 00 00 42 05 99 9A 44 EF 33 33 43 86 66 66 44 9D 8C CD 00 00 00 00 43 C0 19 9A 00 00 00 00 00 00 00 00 00 00 00 00 00 00 00 00 00 00 00 00 41 66 66 66 3F 19 99 9A 41 20 00 00 00 00 00 00 40 73 33 33 42 8D 99 9A 41 56 66 66 41 F6 66 66 00 00 00 00 41 D3 10 DB
write:17 03 01 0F 00 08 77 05
17 03 10
2300 03 F6 2D 00 00 00 00 00 00 E8 1C 00 00 82 D2
43 69 F9 58
233.974
43 69 F2 B0
233.948
43 69 6D 91
233.428
43 CA 90 21
405.126
43 CA 58 B4
404.693
43 CA 58 B4
404.693
3F FA E1 48
1.96
40 33 33 33
2.8
40 70 A3 D7
3.76
43 8C 00 00
280
44 02 00 00
520
44 52 00 00
840
44 CD 00 00
1640
42 A0 00 00
80
00 00 00 00
0
42 A0 00 00
80
42 F0 00 00
120
43 DC 00 00
440
44 20 00 00
640
44 5C 00 00
880
44 CD 00 00
1640
3F 21 47 AE
0.63
3F 4F 5C 29
0.81
3F 6F 5C 29
0.935
3F 7F 3B 64
0.997
42 47 42 86
49.814964
44 AD 39 9A
1385.8
43 71 99 9A
241.6
44 61 00 00
900
00 00 00 00
0
43 74 00 00
244
00 00 00 00
0
00 00 00 00
0
00 00 00 00
0
00 00 00 00
0
00 00 00 00
0
42 1F 33 33
39.8
40 80 00 00
4
41 F4 CC CD
30.6
00 00 00 00
0
40 A0 00 00
5
42 6D 99 9A
59.4
41 4C CC CD
12.8
41 BC CC CD
23.6
00 00 00 00
0
41 B8 00 00
23
44 AC 0C CD
1376.4
43 8E E6 66
285.8
44 54 80 00
850
00 00 00 00
0
43 70 33 33
240.2
00 00 00 00
0
00 00 00 00
0
00 00 00 00
0
00 00 00 00
0
00 00 00 00
0
41 16 66 66
9.4
3E CC CC CD
0.4
40 D9 99 9A
6.8
00 00 00 00
0
3F E6 66 66
1.8
42 D5 33 33
106.6
41 BB 33 33
23.4
42 46 66 66
49.6
00 00 00 00
0
42 05 99 9A
33.4
44 EF 33 33
1913.6
43 86 66 66
268.8
44 9D 8C CD
1260.4
00 00 00 00
0
43 C0 19 9A
384.2
00 00 00 00
0
00 00 00 00
0
00 00 00 00
0
00 00 00 00
0
00 00 00 00
0
41 66 66 66
14.4
3F 19 99 9A
0.6
41 20 00 00
10
00 00 00 00
0
40 73 33 33
3.8
42 8D 99 9A
70.8
41 56 66 66
13.4
41 F6 66 66
30.8
00 00 00 00
0
41 D3 10 DB
26.38323
00 03 F6 2D
259629
00 00 00 00
0
00 00 E8 1C
59420
00 00 82 D2
33490
233.974233.948233.428405.126404.693404.6931.962.83.7628052084016408008012044064088016400.630.810.9350.99749.8149641385.8241.690002440000039.8430.60559.412.823.60231376.4285.88500240.2000009.40.46.801.8106.623.449.6033.41913.6268.81260.40384.20000014.40.61003.870.813.430.8026.383232320171127142855259.629059.4233.49insert into tbl_power_info_v2(P_A_DIANYA,P_B_DIANYA,P_C_DIANYA,P_UAB_XIANDIANYA,P_UBC_XIANDIANYA,P_UCA_XIANDIANYA,P_A_DIANLIU,P_B_DIANLIU,P_C_DIANLIU,P_A_YGGL,P_B_YGGL,P_C_YGGL,P_HXYGGL,P_A_WGGL,P_B_WGGL,P_C_WGGL,P_HXWGGL,P_A_SZGL,P_B_SZGL,P_C_SZGL,P_HXSZGL,P_A_GLYS,P_B_GLYS,P_C_GLYS,P_HXGLYS,P_DWPL,P_BY_KwhZ,P_BY_KwhJ,P_BY_KwhF,P_BY_KwhP,P_BY_KwhG,P_BY_HKwhZ,P_BY_HKwhJ,P_BY_HKwhF,P_BY_HKwhP,P_BY_HKwhG, P_BY_KvarhZ,P_BY_KvarhJ,P_BY_KvarhF,P_BY_KvarhP,P_BY_KvarhG, P_BY_HKvarhZ,P_BY_HKvarhJ,P_BY_HKvarhF,P_BY_HKvarhP,P_BY_HKvarhG, P_SY_KwhZ,P_SY_KwhJ,P_SY_KwhF,P_SY_KwhP,P_SY_KwhG, P_SY_HKwhZ,P_SY_HKwhJ,P_SY_HKwhF,P_SY_HKwhP,P_SY_HKwhG, P_SY_KvarhZ,P_SY_KvarhJ,P_SY_KvarhF,P_SY_KvarhP,P_SY_KvarhG, P_SY_HKvarhZ,P_SY_HKvarhJ,P_SY_HKvarhF,P_SY_HKvarhP,P_SY_HKvarhG, P_SSY_KwhZ,P_SSY_KwhJ,P_SSY_KwhF,P_SSY_KwhP,P_SSY_KwhG, P_SSY_HKwhZ,P_SSY_HKwhJ,P_SSY_HKwhF,P_SSY_HKwhP,P_SSY_HKwhG, P_SSY_KvarhZ,P_SSY_KvarhJ,P_SSY_KvarhF,P_SSY_KvarhP,P_SSY_KvarhG, P_SSY_HKvarhZ,P_SSY_HKvarhJ,P_SSY_HKvarhF,P_SSY_HKvarhP,P_SSY_HKvarhG,P_CODE,P_TIME,P_ZXYGDN,P_FXYGDN,P_ZXWGDN,P_FXWGDN)values(233.974,233.948,233.428,405.126,404.693,404.693,1.96,2.8,3.76,280,520,840,1640,80,0,80,120,440,640,880,1640,0.63,0.81,0.935,0.997,49.814964,1385.8,241.6,900,0,244,0,0,0,0,0,39.8,4,30.6,0,5,59.4,12.8,23.6,0,23,1376.4,285.8,850,0,240.2,0,0,0,0,0,9.4,0.4,6.8,0,1.8,106.6,23.4,49.6,0,33.4,1913.6,268.8,1260.4,0,384.2,0,0,0,0,0,14.4,0.6,10,0,3.8,70.8,13.4,30.8,0,26.38323,23,20171127142855,259.629,0,59.42,33.49)
写入成功读取完毕一个
write:18 03 00 38 00 34 C7 D9
18 03 68
2443 6A 68 B4 43 6A 6E D9 43 69 D0 21 43 CA FE FA 43 CA BC 8B 43 CA BC 8B 40 51 EB 85 3F B8 51 EC 40 14 7A E1 44 02 00 00 43 70 00 00 44 02 00 00 44 A0 00 00 42 F0 00 00 00 00 00 00 00 00 00 00 42 F0 00 00 44 3E 00 00 43 A0 00 00 44 0C 00 00 44 A5 00 00 3F 31 26 E9 3F 41 CA C1 3F 74 39 58 3F 7E F9 DB 42 48 9A 4D
write:18 03 07 CF 00 78 76 AA
18 03 F0
24totalsize 240
44 74 26 66 43 65 99 9A 44 05 A6 66 00 00 00 00 43 54 33 33 00 00 00 00 00 00 00 00 00 00 00 00 00 00 00 00 00 00 00 00 43 4F 99 9A 42 08 CC CD 42 FA 00 00 00 00 00 00 42 40 CC CD 41 D8 00 00 40 F3 33 33 41 76 66 66 00 00 00 00 40 73 33 33 44 19 99 9A 43 00 00 00 43 A7 CC CD 00 00 00 00 43 16 99 9A 00 00 00 00 00 00 00 00 00 00 00 00 00 00 00 00 00 00 00 00 42 45 99 9A 3F 80 00 00 42 09 99 9A 00 00 00 00 41 60 00 00 42 0A 66 66 41 00 00 00 41 AC CC CD 00 00 00 00 40 99 99 9A 44 3F E6 66 43 0C 33 33 43 D9 E6 66 00 00 00 00 43 3F 66 66 00 00 00 00 00 00 00 00 00 00 00 00 00 00 00 00 00 00 00 00 43 A3 99 9A 41 A8 00 00 43 6C 99 9A 00 00 00 00 42 8A CC CD 42 1B 33 33 41 23 33 33 41 A6 66 66 00 00 00 00 40 F9 34 58
write:18 03 01 0F 00 08 77 FA
18 03 10
2400 02 0A 26 00 00 00 00 00 00 C8 E0 00 00 6A 83
43 6A 68 B4
234.409
43 6A 6E D9
234.433
43 69 D0 21
233.813
43 CA FE FA
405.992
43 CA BC 8B
405.473
43 CA BC 8B
405.473
40 51 EB 85
3.28
3F B8 51 EC
1.44
40 14 7A E1
2.32
44 02 00 00
520
43 70 00 00
240
44 02 00 00
520
44 A0 00 00
1280
42 F0 00 00
120
00 00 00 00
0
00 00 00 00
0
42 F0 00 00
120
44 3E 00 00
760
43 A0 00 00
320
44 0C 00 00
560
44 A5 00 00
1320
3F 31 26 E9
0.692
3F 41 CA C1
0.757
3F 74 39 58
0.954
3F 7E F9 DB
0.996
42 48 9A 4D
50.150684
44 74 26 66
976.6
43 65 99 9A
229.6
44 05 A6 66
534.6
00 00 00 00
0
43 54 33 33
212.2
00 00 00 00
0
00 00 00 00
0
00 00 00 00
0
00 00 00 00
0
00 00 00 00
0
43 4F 99 9A
207.6
42 08 CC CD
34.2
42 FA 00 00
125
00 00 00 00
0
42 40 CC CD
48.2
41 D8 00 00
27
40 F3 33 33
7.6
41 76 66 66
15.4
00 00 00 00
0
40 73 33 33
3.8
44 19 99 9A
614.4
43 00 00 00
128
43 A7 CC CD
335.6
00 00 00 00
0
43 16 99 9A
150.6
00 00 00 00
0
00 00 00 00
0
00 00 00 00
0
00 00 00 00
0
00 00 00 00
0
42 45 99 9A
49.4
3F 80 00 00
1
42 09 99 9A
34.4
00 00 00 00
0
41 60 00 00
14
42 0A 66 66
34.6
41 00 00 00
8
41 AC CC CD
21.6
00 00 00 00
0
40 99 99 9A
4.8
44 3F E6 66
767.6
43 0C 33 33
140.2
43 D9 E6 66
435.8
00 00 00 00
0
43 3F 66 66
191.4
00 00 00 00
0
00 00 00 00
0
00 00 00 00
0
00 00 00 00
0
00 00 00 00
0
43 A3 99 9A
327.2
41 A8 00 00
21
43 6C 99 9A
236.6
00 00 00 00
0
42 8A CC CD
69.4
42 1B 33 33
38.8
41 23 33 33
10.2
41 A6 66 66
20.8
00 00 00 00
0
40 F9 34 58
7.7876396
00 02 0A 26
133670
00 00 00 00
0
00 00 C8 E0
51424
00 00 6A 83
27267
234.409234.433233.813405.992405.473405.4733.281.442.3252024052012801200012076032056013200.6920.7570.9540.99650.150684976.6229.6534.60212.200000207.634.2125048.2277.615.403.8614.4128335.60150.60000049.4134.401434.6821.604.8767.6140.2435.80191.400000327.221236.6069.438.810.220.807.78763962420171127142954133.67051.42427.267insert into tbl_power_info_v2(P_A_DIANYA,P_B_DIANYA,P_C_DIANYA,P_UAB_XIANDIANYA,P_UBC_XIANDIANYA,P_UCA_XIANDIANYA,P_A_DIANLIU,P_B_DIANLIU,P_C_DIANLIU,P_A_YGGL,P_B_YGGL,P_C_YGGL,P_HXYGGL,P_A_WGGL,P_B_WGGL,P_C_WGGL,P_HXWGGL,P_A_SZGL,P_B_SZGL,P_C_SZGL,P_HXSZGL,P_A_GLYS,P_B_GLYS,P_C_GLYS,P_HXGLYS,P_DWPL,P_BY_KwhZ,P_BY_KwhJ,P_BY_KwhF,P_BY_KwhP,P_BY_KwhG,P_BY_HKwhZ,P_BY_HKwhJ,P_BY_HKwhF,P_BY_HKwhP,P_BY_HKwhG, P_BY_KvarhZ,P_BY_KvarhJ,P_BY_KvarhF,P_BY_KvarhP,P_BY_KvarhG, P_BY_HKvarhZ,P_BY_HKvarhJ,P_BY_HKvarhF,P_BY_HKvarhP,P_BY_HKvarhG, P_SY_KwhZ,P_SY_KwhJ,P_SY_KwhF,P_SY_KwhP,P_SY_KwhG, P_SY_HKwhZ,P_SY_HKwhJ,P_SY_HKwhF,P_SY_HKwhP,P_SY_HKwhG, P_SY_KvarhZ,P_SY_KvarhJ,P_SY_KvarhF,P_SY_KvarhP,P_SY_KvarhG, P_SY_HKvarhZ,P_SY_HKvarhJ,P_SY_HKvarhF,P_SY_HKvarhP,P_SY_HKvarhG, P_SSY_KwhZ,P_SSY_KwhJ,P_SSY_KwhF,P_SSY_KwhP,P_SSY_KwhG, P_SSY_HKwhZ,P_SSY_HKwhJ,P_SSY_HKwhF,P_SSY_HKwhP,P_SSY_HKwhG, P_SSY_KvarhZ,P_SSY_KvarhJ,P_SSY_KvarhF,P_SSY_KvarhP,P_SSY_KvarhG, P_SSY_HKvarhZ,P_SSY_HKvarhJ,P_SSY_HKvarhF,P_SSY_HKvarhP,P_SSY_HKvarhG,P_CODE,P_TIME,P_ZXYGDN,P_FXYGDN,P_ZXWGDN,P_FXWGDN)values(234.409,234.433,233.813,405.992,405.473,405.473,3.28,1.44,2.32,520,240,520,1280,120,0,0,120,760,320,560,1320,0.692,0.757,0.954,0.996,50.150684,976.6,229.6,534.6,0,212.2,0,0,0,0,0,207.6,34.2,125,0,48.2,27,7.6,15.4,0,3.8,614.4,128,335.6,0,150.6,0,0,0,0,0,49.4,1,34.4,0,14,34.6,8,21.6,0,4.8,767.6,140.2,435.8,0,191.4,0,0,0,0,0,327.2,21,236.6,0,69.4,38.8,10.2,20.8,0,7.7876396,24,20171127142954,133.67,0,51.424,27.267)
写入成功读取完毕一个
write:19 03 00 38 00 34 C6 08
19 03 68
2543 6A 8D 0E 43 6A 77 0A 43 69 FC EE 43 CB 0A 1D 43 CA C7 8D 43 CA D2 B0 00 00 00 00 3F BD 70 A4 3F 80 00 00 42 F0 00 00 43 48 00 00 43 48 00 00 44 02 00 00 00 00 00 00 42 A0 00 00 00 00 00 00 42 F0 00 00 42 F0 00 00 43 B4 00 00 43 70 00 00 44 02 00 00 3F 4F 1A A0 3F 16 04 19 3F 42 D0 E5 3F 7A E1 48 42 48 4A 98
write:19 03 07 CF 00 78 77 7B
19 03 F0
25totalsize 240
43 C8 80 00 42 37 33 33 43 63 00 00 00 00 00 00 43 00 00 00 00 00 00 00 00 00 00 00 00 00 00 00 00 00 00 00 00 00 00 00 41 7C CC CD 00 00 00 00 41 66 66 66 00 00 00 00 3F B3 33 33 42 26 66 66 40 F3 33 33 41 83 33 33 00 00 00 00 41 8B 33 33 43 B7 B3 33 42 3F 33 33 43 3E 00 00 00 00 00 00 43 01 66 66 00 00 00 00 00 00 00 00 00 00 00 00 00 00 00 00 00 00 00 00 41 10 00 00 00 00 00 00 40 C6 66 66 00 00 00 00 40 26 66 66 42 63 33 33 41 29 99 9A 41 BC CC CD 00 00 00 00 41 B3 33 33 43 A0 E6 66 42 0F 33 33 43 2B CC CD 00 00 00 00 42 E4 00 00 00 00 00 00 00 00 00 00 00 00 00 00 00 00 00 00 00 00 00 00 3E CC CC CD 00 00 00 00 3E 4C CC CD 00 00 00 00 00 00 00 00 42 21 99 9A 40 B9 99 9A 41 A3 33 33 00 00 00 00 41 60 03 36
write:19 03 01 0F 00 08 76 2B
19 03 10
2500 00 F6 B1 00 00 00 00 00 00 06 AA 00 00 FB 64
43 6A 8D 0E
234.551
43 6A 77 0A
234.465
43 69 FC EE
233.988
43 CB 0A 1D
406.079
43 CA C7 8D
405.559
43 CA D2 B0
405.646
00 00 00 00
0
3F BD 70 A4
1.48
3F 80 00 00
1
42 F0 00 00
120
43 48 00 00
200
43 48 00 00
200
44 02 00 00
520
00 00 00 00
0
42 A0 00 00
80
00 00 00 00
0
42 F0 00 00
120
42 F0 00 00
120
43 B4 00 00
360
43 70 00 00
240
44 02 00 00
520
3F 4F 1A A0
0.809
3F 16 04 19
0.586
3F 42 D0 E5
0.761
3F 7A E1 48
0.98
42 48 4A 98
50.072845
43 C8 80 00
401
42 37 33 33
45.8
43 63 00 00
227
00 00 00 00
0
43 00 00 00
128
00 00 00 00
0
00 00 00 00
0
00 00 00 00
0
00 00 00 00
0
00 00 00 00
0
41 7C CC CD
15.8
00 00 00 00
0
41 66 66 66
14.4
00 00 00 00
0
3F B3 33 33
1.4
42 26 66 66
41.6
40 F3 33 33
7.6
41 83 33 33
16.4
00 00 00 00
0
41 8B 33 33
17.4
43 B7 B3 33
367.4
42 3F 33 33
47.8
43 3E 00 00
190
00 00 00 00
0
43 01 66 66
129.4
00 00 00 00
0
00 00 00 00
0
00 00 00 00
0
00 00 00 00
0
00 00 00 00
0
41 10 00 00
9
00 00 00 00
0
40 C6 66 66
6.2
00 00 00 00
0
40 26 66 66
2.6
42 63 33 33
56.8
41 29 99 9A
10.6
41 BC CC CD
23.6
00 00 00 00
0
41 B3 33 33
22.4
43 A0 E6 66
321.8
42 0F 33 33
35.8
43 2B CC CD
171.8
00 00 00 00
0
42 E4 00 00
114
00 00 00 00
0
00 00 00 00
0
00 00 00 00
0
00 00 00 00
0
00 00 00 00
0
3E CC CC CD
0.4
00 00 00 00
0
3E 4C CC CD
0.2
00 00 00 00
0
00 00 00 00
0
42 21 99 9A
40.4
40 B9 99 9A
5.8
41 A3 33 33
20.4
00 00 00 00
0
41 60 03 36
14.000784
00 00 F6 B1
63153
00 00 00 00
0
00 00 06 AA
1706
00 00 FB 64
64356
234.551234.465233.988406.079405.559405.64601.48112020020052008001201203602405200.8090.5860.7610.9850.07284540145.822701280000015.8014.401.441.67.616.4017.4367.447.81900129.400000906.202.656.810.623.6022.4321.835.8171.80114000000.400.20040.45.820.4014.000784252017112714310963.15301.70664.356insert into tbl_power_info_v2(P_A_DIANYA,P_B_DIANYA,P_C_DIANYA,P_UAB_XIANDIANYA,P_UBC_XIANDIANYA,P_UCA_XIANDIANYA,P_A_DIANLIU,P_B_DIANLIU,P_C_DIANLIU,P_A_YGGL,P_B_YGGL,P_C_YGGL,P_HXYGGL,P_A_WGGL,P_B_WGGL,P_C_WGGL,P_HXWGGL,P_A_SZGL,P_B_SZGL,P_C_SZGL,P_HXSZGL,P_A_GLYS,P_B_GLYS,P_C_GLYS,P_HXGLYS,P_DWPL,P_BY_KwhZ,P_BY_KwhJ,P_BY_KwhF,P_BY_KwhP,P_BY_KwhG,P_BY_HKwhZ,P_BY_HKwhJ,P_BY_HKwhF,P_BY_HKwhP,P_BY_HKwhG, P_BY_KvarhZ,P_BY_KvarhJ,P_BY_KvarhF,P_BY_KvarhP,P_BY_KvarhG, P_BY_HKvarhZ,P_BY_HKvarhJ,P_BY_HKvarhF,P_BY_HKvarhP,P_BY_HKvarhG, P_SY_KwhZ,P_SY_KwhJ,P_SY_KwhF,P_SY_KwhP,P_SY_KwhG, P_SY_HKwhZ,P_SY_HKwhJ,P_SY_HKwhF,P_SY_HKwhP,P_SY_HKwhG, P_SY_KvarhZ,P_SY_KvarhJ,P_SY_KvarhF,P_SY_KvarhP,P_SY_KvarhG, P_SY_HKvarhZ,P_SY_HKvarhJ,P_SY_HKvarhF,P_SY_HKvarhP,P_SY_HKvarhG, P_SSY_KwhZ,P_SSY_KwhJ,P_SSY_KwhF,P_SSY_KwhP,P_SSY_KwhG, P_SSY_HKwhZ,P_SSY_HKwhJ,P_SSY_HKwhF,P_SSY_HKwhP,P_SSY_HKwhG, P_SSY_KvarhZ,P_SSY_KvarhJ,P_SSY_KvarhF,P_SSY_KvarhP,P_SSY_KvarhG, P_SSY_HKvarhZ,P_SSY_HKvarhJ,P_SSY_HKvarhF,P_SSY_HKvarhP,P_SSY_HKvarhG,P_CODE,P_TIME,P_ZXYGDN,P_FXYGDN,P_ZXWGDN,P_FXWGDN)values(234.551,234.465,233.988,406.079,405.559,405.646,0,1.48,1,120,200,200,520,0,80,0,120,120,360,240,520,0.809,0.586,0.761,0.98,50.072845,401,45.8,227,0,128,0,0,0,0,0,15.8,0,14.4,0,1.4,41.6,7.6,16.4,0,17.4,367.4,47.8,190,0,129.4,0,0,0,0,0,9,0,6.2,0,2.6,56.8,10.6,23.6,0,22.4,321.8,35.8,171.8,0,114,0,0,0,0,0,0.4,0,0.2,0,0,40.4,5.8,20.4,0,14.000784,25,20171127143109,63.153,0,1.706,64.356)
写入成功读取完毕一个
write:0E 03 00 38 00 34 C5 2F
write:0E 03 07 CF 00 78 74 5C
write:0E 03 01 0F 00 08 75 0C
write:0F 03 00 38 00 34 C4 FE
write:0F 03 07 CF 00 78 75 8D
34 30 36
heart:34 30 36 36 32 33 30 31 30 34 33 35 2C 72 75 69
write:0F 03 01 0F 00 08 74 DD
write:10 03 00 38 00 34 C6 91
write:10 03 07 CF 00 78 77 E2
write:10 03 01 0F 00 08 76 B2
34 30 36
heart:34 30 36 36 32 33 30 31 30 34 33 35 2C 72 75 69
write:11 03 00 38 00 34 C7 40
write:11 03 07 CF 00 78 76 33
write:11 03 01 0F 00 08 77 63
write:12 03 00 38 00 34 C7 73
12 03 68
1843 6A 6E 98 43 6A 4A C1 43 69 E4 DD 43 CA E8 D5 43 CA A6 46 43 CA BC 8B 43 79 5C 29 43 83 57 0A 43 82 70 A4 47 57 A0 00 47 64 48 00 47 64 C0 00 48 28 2A 00 46 6C 40 00 46 6A 60 00 46 52 00 00 47 29 B0 00 47 64 48 00 47 70 78 00 47 6E 98 00 48 2D 8E 00 3F 71 A9 FC 3F 73 33 33 3F 75 C2 8F 3F 78 51 EC 42 48 49 1A
write:12 03 07 CF 00 78 76 00
12 03 F0
18totalsize 240
47 98 AF 9A 46 3E 05 9A 47 0F 4F 9A 00 00 00 00 46 E5 1B 33 00 00 00 00 00 00 00 00 00 00 00 00 00 00 00 00 00 00 00 00 46 8E 8F 9A 45 29 29 9A 46 14 D8 CD 00 00 00 00 45 BB F3 33 00 00 00 00 00 00 00 00 00 00 00 00 00 00 00 00 00 00 00 00 47 A9 B7 80 46 5C 9F 33 47 22 D6 CD 00 00 00 00 46 F2 DF 9A 00 00 00 00 00 00 00 00 00 00 00 00 00 00 00 00 00 00 00 00 46 B2 70 66 45 65 B9 9A 46 3A EB 33 00 00 00 00 45 E1 09 9A 00 00 00 00 00 00 00 00 00 00 00 00 00 00 00 00 00 00 00 00 47 82 8D CD 46 41 63 33 46 D4 77 33 00 00 00 00 46 D5 0E 66 00 00 00 00 00 00 00 00 00 00 00 00 00 00 00 00 00 00 00 00 46 95 B4 66 45 65 46 66 45 FB B3 33 00 00 00 00 45 E8 7B 33 00 00 00 00 00 00 00 00 00 00 00 00 00 00 00 00 00 00 0A 17
write:12 03 01 0F 00 08 77 50
12 03 10
1800 41 6F A0 00 00 00 00 00 14 13 42 00 00 9A 9A
43 6A 6E 98
234.432
43 6A 4A C1
234.292
43 69 E4 DD
233.894
43 CA E8 D5
405.819
43 CA A6 46
405.299
43 CA BC 8B
405.473
43 79 5C 29
249.36
43 83 57 0A
262.68
43 82 70 A4
260.88
47 57 A0 00
55200
47 64 48 00
58440
47 64 C0 00
58560
48 28 2A 00
172200
46 6C 40 00
15120
46 6A 60 00
15000
46 52 00 00
13440
47 29 B0 00
43440
47 64 48 00
58440
47 70 78 00
61560
47 6E 98 00
61080
48 2D 8E 00
177720
3F 71 A9 FC
0.944
3F 73 33 33
0.95
3F 75 C2 8F
0.96
3F 78 51 EC
0.97
42 48 49 1A
50.07139
47 98 AF 9A
78175.2
46 3E 05 9A
12161.4
47 0F 4F 9A
36687.6
00 00 00 00
0
46 E5 1B 33
29325.6
00 00 00 00
0
00 00 00 00
0
00 00 00 00
0
00 00 00 00
0
00 00 00 00
0
46 8E 8F 9A
18247.8
45 29 29 9A
2706.6
46 14 D8 CD
9526.2
00 00 00 00
0
45 BB F3 33
6014.4
00 00 00 00
0
00 00 00 00
0
00 00 00 00
0
00 00 00 00
0
00 00 00 00
0
47 A9 B7 80
86895
46 5C 9F 33
14119.8
47 22 D6 CD
41686.8
00 00 00 00
0
46 F2 DF 9A
31087.8
00 00 00 00
0
00 00 00 00
0
00 00 00 00
0
00 00 00 00
0
00 00 00 00
0
46 B2 70 66
22840.2
45 65 B9 9A
3675.6
46 3A EB 33
11962.8
00 00 00 00
0
45 E1 09 9A
7201.2
00 00 00 00
0
00 00 00 00
0
00 00 00 00
0
00 00 00 00
0
00 00 00 00
0
47 82 8D CD
66843.6
46 41 63 33
12376.8
46 D4 77 33
27195.6
00 00 00 00
0
46 D5 0E 66
27271.2
00 00 00 00
0
00 00 00 00
0
00 00 00 00
0
00 00 00 00
0
00 00 00 00
0
46 95 B4 66
19162.2
45 65 46 66
3668.4
45 FB B3 33
8054.4
00 00 00 00
0
45 E8 7B 33
7439.4
00 00 00 00
0
00 00 00 00
0
00 00 00 00
0
00 00 00 00
0
00 00 0A 17
3.62e-42
00 41 6F A0
4288416
00 00 00 00
0
00 14 13 42
1315650
00 00 9A 9A
39578
234.432234.292233.894405.819405.299405.473249.36262.68260.88552005844058560172200151201500013440434405844061560610801777200.9440.950.960.9750.0713978175.212161.436687.6029325.60000018247.82706.69526.206014.4000008689514119.841686.8031087.80000022840.23675.611962.807201.20000066843.612376.827195.6027271.20000019162.23668.48054.407439.400003.62e-4218201711271436124288.41601315.6539.578insert into tbl_power_info_v2(P_A_DIANYA,P_B_DIANYA,P_C_DIANYA,P_UAB_XIANDIANYA,P_UBC_XIANDIANYA,P_UCA_XIANDIANYA,P_A_DIANLIU,P_B_DIANLIU,P_C_DIANLIU,P_A_YGGL,P_B_YGGL,P_C_YGGL,P_HXYGGL,P_A_WGGL,P_B_WGGL,P_C_WGGL,P_HXWGGL,P_A_SZGL,P_B_SZGL,P_C_SZGL,P_HXSZGL,P_A_GLYS,P_B_GLYS,P_C_GLYS,P_HXGLYS,P_DWPL,P_BY_KwhZ,P_BY_KwhJ,P_BY_KwhF,P_BY_KwhP,P_BY_KwhG,P_BY_HKwhZ,P_BY_HKwhJ,P_BY_HKwhF,P_BY_HKwhP,P_BY_HKwhG, P_BY_KvarhZ,P_BY_KvarhJ,P_BY_KvarhF,P_BY_KvarhP,P_BY_KvarhG, P_BY_HKvarhZ,P_BY_HKvarhJ,P_BY_HKvarhF,P_BY_HKvarhP,P_BY_HKvarhG, P_SY_KwhZ,P_SY_KwhJ,P_SY_KwhF,P_SY_KwhP,P_SY_KwhG, P_SY_HKwhZ,P_SY_HKwhJ,P_SY_HKwhF,P_SY_HKwhP,P_SY_HKwhG, P_SY_KvarhZ,P_SY_KvarhJ,P_SY_KvarhF,P_SY_KvarhP,P_SY_KvarhG, P_SY_HKvarhZ,P_SY_HKvarhJ,P_SY_HKvarhF,P_SY_HKvarhP,P_SY_HKvarhG, P_SSY_KwhZ,P_SSY_KwhJ,P_SSY_KwhF,P_SSY_KwhP,P_SSY_KwhG, P_SSY_HKwhZ,P_SSY_HKwhJ,P_SSY_HKwhF,P_SSY_HKwhP,P_SSY_HKwhG, P_SSY_KvarhZ,P_SSY_KvarhJ,P_SSY_KvarhF,P_SSY_KvarhP,P_SSY_KvarhG, P_SSY_HKvarhZ,P_SSY_HKvarhJ,P_SSY_HKvarhF,P_SSY_HKvarhP,P_SSY_HKvarhG,P_CODE,P_TIME,P_ZXYGDN,P_FXYGDN,P_ZXWGDN,P_FXWGDN)values(234.432,234.292,233.894,405.819,405.299,405.473,249.36,262.68,260.88,55200,58440,58560,172200,15120,15000,13440,43440,58440,61560,61080,177720,0.944,0.95,0.96,0.97,50.07139,78175.2,12161.4,36687.6,0,29325.6,0,0,0,0,0,18247.8,2706.6,9526.2,0,6014.4,0,0,0,0,0,86895,14119.8,41686.8,0,31087.8,0,0,0,0,0,22840.2,3675.6,11962.8,0,7201.2,0,0,0,0,0,66843.6,12376.8,27195.6,0,27271.2,0,0,0,0,0,19162.2,3668.4,8054.4,0,7439.4,0,0,0,0,3.62e-42,18,20171127143612,4288.416,0,1315.65,39.578)
写入成功读取完毕一个
write:13 03 00 38 00 34 C6 A2
13 03 68
1943 6B 70 E5 43 6B 2F 9E 43 6A C1 06 43 CB BB 85 43 CB 6D D3 43 CB 8F 1B 41 A9 99 9A 41 AD 70 A4 41 B3 D7 0A 45 8E 80 00 45 91 00 00 45 98 80 00 46 5C 00 00 43 C8 00 00 00 00 00 00 00 00 00 00 43 C8 00 00 45 9B 00 00 45 A0 00 00 45 A5 00 00 46 5C 00 00 3F 68 72 B0 3F 6A 7E FA 3F 6D 0E 56 3F 80 00 00 42 48 6B A8
write:13 03 07 CF 00 78 77 D1
13 03 F0
19totalsize 240
44 AC A6 66 42 DC CC CD 44 57 CC CD 00 00 00 00 43 CB 99 9A 00 00 00 00 00 00 00 00 00 00 00 00 00 00 00 00 00 00 00 00 43 17 99 9A 3E CC CC CD 43 06 00 00 00 00 00 00 41 83 33 33 43 DE CC CD 42 9B 33 33 43 2C CC CD 00 00 00 00 43 42 CC CD 44 5A CC CD 42 BC 00 00 43 F7 66 66 00 00 00 00 43 8F 00 00 00 00 00 00 00 00 00 00 00 00 00 00 00 00 00 00 00 00 00 00 40 80 00 00 00 00 00 00 40 4C CC CD 00 00 00 00 3F 4C CC CD 44 1A 99 9A 42 C4 00 00 43 85 66 66 00 00 00 00 43 7D 33 33 44 DC A6 66 42 DB 33 33 44 8E CC CD 00 00 00 00 44 00 4C CD 00 00 00 00 00 00 00 00 00 00 00 00 00 00 00 00 00 00 00 00 42 5E 66 66 3E CC CC CD 42 21 99 9A 00 00 00 00 41 60 00 00 43 FE 00 00 42 B6 66 66 43 3F 99 9A 00 00 00 00 43 60 49 97
write:13 03 01 0F 00 08 76 81
13 03 10
1900 02 98 60 00 00 00 00 00 00 35 A9 00 00 5D D3
43 6B 70 E5
235.441
43 6B 2F 9E
235.186
43 6A C1 06
234.754
43 CB BB 85
407.465
43 CB 6D D3
406.858
43 CB 8F 1B
407.118
41 A9 99 9A
21.2
41 AD 70 A4
21.68
41 B3 D7 0A
22.48
45 8E 80 00
4560
45 91 00 00
4640
45 98 80 00
4880
46 5C 00 00
14080
43 C8 00 00
400
00 00 00 00
0
00 00 00 00
0
43 C8 00 00
400
45 9B 00 00
4960
45 A0 00 00
5120
45 A5 00 00
5280
46 5C 00 00
14080
3F 68 72 B0
0.908
3F 6A 7E FA
0.916
3F 6D 0E 56
0.926
3F 80 00 00
1
42 48 6B A8
50.105133
44 AC A6 66
1381.2
42 DC CC CD
110.4
44 57 CC CD
863.2
00 00 00 00
0
43 CB 99 9A
407.2
00 00 00 00
0
00 00 00 00
0
00 00 00 00
0
00 00 00 00
0
00 00 00 00
0
43 17 99 9A
151.6
3E CC CC CD
0.4
43 06 00 00
134
00 00 00 00
0
41 83 33 33
16.4
43 DE CC CD
445.6
42 9B 33 33
77.6
43 2C CC CD
172.8
00 00 00 00
0
43 42 CC CD
194.8
44 5A CC CD
875.2
42 BC 00 00
94
43 F7 66 66
494.8
00 00 00 00
0
43 8F 00 00
286
00 00 00 00
0
00 00 00 00
0
00 00 00 00
0
00 00 00 00
0
00 00 00 00
0
40 80 00 00
4
00 00 00 00
0
40 4C CC CD
3.2
00 00 00 00
0
3F 4C CC CD
0.8
44 1A 99 9A
618.4
42 C4 00 00
98
43 85 66 66
266.8
00 00 00 00
0
43 7D 33 33
253.2
44 DC A6 66
1765.2
42 DB 33 33
109.6
44 8E CC CD
1142.4
00 00 00 00
0
44 00 4C CD
513.2
00 00 00 00
0
00 00 00 00
0
00 00 00 00
0
00 00 00 00
0
00 00 00 00
0
42 5E 66 66
55.6
3E CC CC CD
0.4
42 21 99 9A
40.4
00 00 00 00
0
41 60 00 00
14
43 FE 00 00
508
42 B6 66 66
91.2
43 3F 99 9A
191.6
00 00 00 00
0
43 60 49 97
224.28746
00 02 98 60
170080
00 00 00 00
0
00 00 35 A9
13737
00 00 5D D3
24019
235.441235.186234.754407.465406.858407.11821.221.6822.484560464048801408040000400496051205280140800.9080.9160.926150.1051331381.2110.4863.20407.200000151.60.4134016.4445.677.6172.80194.8875.294494.8028600000403.200.8618.498266.80253.21765.2109.61142.40513.20000055.60.440.401450891.2191.60224.287461920171127143704170.08013.73724.019insert into tbl_power_info_v2(P_A_DIANYA,P_B_DIANYA,P_C_DIANYA,P_UAB_XIANDIANYA,P_UBC_XIANDIANYA,P_UCA_XIANDIANYA,P_A_DIANLIU,P_B_DIANLIU,P_C_DIANLIU,P_A_YGGL,P_B_YGGL,P_C_YGGL,P_HXYGGL,P_A_WGGL,P_B_WGGL,P_C_WGGL,P_HXWGGL,P_A_SZGL,P_B_SZGL,P_C_SZGL,P_HXSZGL,P_A_GLYS,P_B_GLYS,P_C_GLYS,P_HXGLYS,P_DWPL,P_BY_KwhZ,P_BY_KwhJ,P_BY_KwhF,P_BY_KwhP,P_BY_KwhG,P_BY_HKwhZ,P_BY_HKwhJ,P_BY_HKwhF,P_BY_HKwhP,P_BY_HKwhG, P_BY_KvarhZ,P_BY_KvarhJ,P_BY_KvarhF,P_BY_KvarhP,P_BY_KvarhG, P_BY_HKvarhZ,P_BY_HKvarhJ,P_BY_HKvarhF,P_BY_HKvarhP,P_BY_HKvarhG, P_SY_KwhZ,P_SY_KwhJ,P_SY_KwhF,P_SY_KwhP,P_SY_KwhG, P_SY_HKwhZ,P_SY_HKwhJ,P_SY_HKwhF,P_SY_HKwhP,P_SY_HKwhG, P_SY_KvarhZ,P_SY_KvarhJ,P_SY_KvarhF,P_SY_KvarhP,P_SY_KvarhG, P_SY_HKvarhZ,P_SY_HKvarhJ,P_SY_HKvarhF,P_SY_HKvarhP,P_SY_HKvarhG, P_SSY_KwhZ,P_SSY_KwhJ,P_SSY_KwhF,P_SSY_KwhP,P_SSY_KwhG, P_SSY_HKwhZ,P_SSY_HKwhJ,P_SSY_HKwhF,P_SSY_HKwhP,P_SSY_HKwhG, P_SSY_KvarhZ,P_SSY_KvarhJ,P_SSY_KvarhF,P_SSY_KvarhP,P_SSY_KvarhG, P_SSY_HKvarhZ,P_SSY_HKvarhJ,P_SSY_HKvarhF,P_SSY_HKvarhP,P_SSY_HKvarhG,P_CODE,P_TIME,P_ZXYGDN,P_FXYGDN,P_ZXWGDN,P_FXWGDN)values(235.441,235.186,234.754,407.465,406.858,407.118,21.2,21.68,22.48,4560,4640,4880,14080,400,0,0,400,4960,5120,5280,14080,0.908,0.916,0.926,1,50.105133,1381.2,110.4,863.2,0,407.2,0,0,0,0,0,151.6,0.4,134,0,16.4,445.6,77.6,172.8,0,194.8,875.2,94,494.8,0,286,0,0,0,0,0,4,0,3.2,0,0.8,618.4,98,266.8,0,253.2,1765.2,109.6,1142.4,0,513.2,0,0,0,0,0,55.6,0.4,40.4,0,14,508,91.2,191.6,0,224.28746,19,20171127143704,170.08,0,13.737,24.019)
写入成功读取完毕一个
write:14 03 00 38 00 34 C7 15
14 03 68
2043 6A 73 B6 43 6A 4C CD 43 6A 0E 98 43 CA F3 F8 43 CA C7 8D 43 CA D2 B0 00 00 00 00 00 00 00 00 00 00 00 00 00 00 00 00 00 00 00 00 00 00 00 00 00 00 00 00 00 00 00 00 00 00 00 00 00 00 00 00 00 00 00 00 00 00 00 00 00 00 00 00 00 00 00 00 42 A0 00 00 00 00 00 00 00 00 00 00 00 00 00 00 3F 24 9B A6 42 48 9E 39
write:14 03 07 CF 00 78 76 66
14 03 F0
20totalsize 240
44 AB C6 66 43 D6 33 33 43 9C 99 9A 00 00 00 00 44 1E 19 9A 00 00 00 00 00 00 00 00 00 00 00 00 00 00 00 00 00 00 00 00 40 0C CC CD 00 00 00 00 40 0C CC CD 00 00 00 00 00 00 00 00 43 9F 4C CD 42 CC 66 66 42 87 99 9A 00 00 00 00 43 14 66 66 44 AC 73 33 43 E0 33 33 43 9A 66 66 00 00 00 00 44 1B 8C CD 00 00 00 00 00 00 00 00 00 00 00 00 00 00 00 00 00 00 00 00 40 99 99 9A 00 00 00 00 40 93 33 33 00 00 00 00 00 00 00 00 43 9B 80 00 42 D2 66 66 42 76 66 66 00 00 00 00 43 10 00 00 44 A4 D9 9A 43 ED 99 9A 43 78 66 66 00 00 00 00 44 14 C0 00 00 00 00 00 00 00 00 00 00 00 00 00 00 00 00 00 00 00 00 00 3F 4C CC CD 00 00 00 00 3F 4C CC CD 00 00 00 00 00 00 00 00 43 8C 66 66 42 D1 33 33 42 3B 33 33 00 00 00 00 43 01 E0 0E
write:14 03 01 0F 00 08 77 36
14 03 10
2000 04 23 8C 00 00 00 00 00 00 13 51 00 00 A4 AE
43 6A 73 B6
234.452
43 6A 4C CD
234.3
43 6A 0E 98
234.057
43 CA F3 F8
405.906
43 CA C7 8D
405.559
43 CA D2 B0
405.646
00 00 00 00
0
00 00 00 00
0
00 00 00 00
0
00 00 00 00
0
00 00 00 00
0
00 00 00 00
0
00 00 00 00
0
00 00 00 00
0
00 00 00 00
0
00 00 00 00
0
00 00 00 00
0
00 00 00 00
0
00 00 00 00
0
00 00 00 00
0
42 A0 00 00
80
00 00 00 00
0
00 00 00 00
0
00 00 00 00
0
3F 24 9B A6
0.643
42 48 9E 39
50.154514
44 AB C6 66
1374.2
43 D6 33 33
428.4
43 9C 99 9A
313.2
00 00 00 00
0
44 1E 19 9A
632.4
00 00 00 00
0
00 00 00 00
0
00 00 00 00
0
00 00 00 00
0
00 00 00 00
0
40 0C CC CD
2.2
00 00 00 00
0
40 0C CC CD
2.2
00 00 00 00
0
00 00 00 00
0
43 9F 4C CD
318.6
42 CC 66 66
102.2
42 87 99 9A
67.8
00 00 00 00
0
43 14 66 66
148.4
44 AC 73 33
1379.6
43 E0 33 33
448.4
43 9A 66 66
308.8
00 00 00 00
0
44 1B 8C CD
622.2
00 00 00 00
0
00 00 00 00
0
00 00 00 00
0
00 00 00 00
0
00 00 00 00
0
40 99 99 9A
4.8
00 00 00 00
0
40 93 33 33
4.6
00 00 00 00
0
00 00 00 00
0
43 9B 80 00
311
42 D2 66 66
105.2
42 76 66 66
61.6
00 00 00 00
0
43 10 00 00
144
44 A4 D9 9A
1318.8
43 ED 99 9A
475.2
43 78 66 66
248.4
00 00 00 00
0
44 14 C0 00
595
00 00 00 00
0
00 00 00 00
0
00 00 00 00
0
00 00 00 00
0
00 00 00 00
0
3F 4C CC CD
0.8
00 00 00 00
0
3F 4C CC CD
0.8
00 00 00 00
0
00 00 00 00
0
43 8C 66 66
280.8
42 D1 33 33
104.6
42 3B 33 33
46.8
00 00 00 00
0
43 01 E0 0E
129.87521
00 04 23 8C
271244
00 00 00 00
0
00 00 13 51
4945
00 00 A4 AE
42158
234.452234.3234.057405.906405.559405.64600000000000000800000.64350.1545141374.2428.4313.20632.4000002.202.200318.6102.267.80148.41379.6448.4308.80622.2000004.804.600311105.261.601441318.8475.2248.40595000000.800.800280.8104.646.80129.875212020171127143802271.24404.94542.158insert into tbl_power_info_v2(P_A_DIANYA,P_B_DIANYA,P_C_DIANYA,P_UAB_XIANDIANYA,P_UBC_XIANDIANYA,P_UCA_XIANDIANYA,P_A_DIANLIU,P_B_DIANLIU,P_C_DIANLIU,P_A_YGGL,P_B_YGGL,P_C_YGGL,P_HXYGGL,P_A_WGGL,P_B_WGGL,P_C_WGGL,P_HXWGGL,P_A_SZGL,P_B_SZGL,P_C_SZGL,P_HXSZGL,P_A_GLYS,P_B_GLYS,P_C_GLYS,P_HXGLYS,P_DWPL,P_BY_KwhZ,P_BY_KwhJ,P_BY_KwhF,P_BY_KwhP,P_BY_KwhG,P_BY_HKwhZ,P_BY_HKwhJ,P_BY_HKwhF,P_BY_HKwhP,P_BY_HKwhG, P_BY_KvarhZ,P_BY_KvarhJ,P_BY_KvarhF,P_BY_KvarhP,P_BY_KvarhG, P_BY_HKvarhZ,P_BY_HKvarhJ,P_BY_HKvarhF,P_BY_HKvarhP,P_BY_HKvarhG, P_SY_KwhZ,P_SY_KwhJ,P_SY_KwhF,P_SY_KwhP,P_SY_KwhG, P_SY_HKwhZ,P_SY_HKwhJ,P_SY_HKwhF,P_SY_HKwhP,P_SY_HKwhG, P_SY_KvarhZ,P_SY_KvarhJ,P_SY_KvarhF,P_SY_KvarhP,P_SY_KvarhG, P_SY_HKvarhZ,P_SY_HKvarhJ,P_SY_HKvarhF,P_SY_HKvarhP,P_SY_HKvarhG, P_SSY_KwhZ,P_SSY_KwhJ,P_SSY_KwhF,P_SSY_KwhP,P_SSY_KwhG, P_SSY_HKwhZ,P_SSY_HKwhJ,P_SSY_HKwhF,P_SSY_HKwhP,P_SSY_HKwhG, P_SSY_KvarhZ,P_SSY_KvarhJ,P_SSY_KvarhF,P_SSY_KvarhP,P_SSY_KvarhG, P_SSY_HKvarhZ,P_SSY_HKvarhJ,P_SSY_HKvarhF,P_SSY_HKvarhP,P_SSY_HKvarhG,P_CODE,P_TIME,P_ZXYGDN,P_FXYGDN,P_ZXWGDN,P_FXWGDN)values(234.452,234.3,234.057,405.906,405.559,405.646,0,0,0,0,0,0,0,0,0,0,0,0,0,0,80,0,0,0,0.643,50.154514,1374.2,428.4,313.2,0,632.4,0,0,0,0,0,2.2,0,2.2,0,0,318.6,102.2,67.8,0,148.4,1379.6,448.4,308.8,0,622.2,0,0,0,0,0,4.8,0,4.6,0,0,311,105.2,61.6,0,144,1318.8,475.2,248.4,0,595,0,0,0,0,0,0.8,0,0.8,0,0,280.8,104.6,46.8,0,129.87521,20,20171127143802,271.244,0,4.945,42.158)
写入成功读取完毕一个
write:15 03 00 38 00 34 C6 C4
15 03 68
2143 6A C0 C5 43 6A 74 7B 43 6A 37 8D 43 CB 20 42 43 CA E8 D5 43 CB 0A 1D 00 00 00 00 00 00 00 00 00 00 00 00 00 00 00 00 00 00 00 00 00 00 00 00 00 00 00 00 00 00 00 00 00 00 00 00 00 00 00 00 00 00 00 00 00 00 00 00 00 00 00 00 00 00 00 00 00 00 00 00 00 00 00 00 00 00 00 00 00 00 00 00 00 00 00 00 42 48 D1 E6
write:15 03 07 CF 00 78 77 B7
15 03 F0
21totalsize 240
40 CC CC CD 00 00 00 00 40 A6 66 66 00 00 00 00 3F 99 99 9A 00 00 00 00 00 00 00 00 00 00 00 00 00 00 00 00 00 00 00 00 3E CC CC CD 00 00 00 00 3E CC CC CD 00 00 00 00 00 00 00 00 00 00 00 00 00 00 00 00 00 00 00 00 00 00 00 00 00 00 00 00 40 8C CC CD 00 00 00 00 40 66 66 66 00 00 00 00 3F 4C CC CD 00 00 00 00 00 00 00 00 00 00 00 00 00 00 00 00 00 00 00 00 00 00 00 00 00 00 00 00 00 00 00 00 00 00 00 00 00 00 00 00 00 00 00 00 00 00 00 00 00 00 00 00 00 00 00 00 00 00 00 00 42 1E 66 66 00 00 00 00 41 F3 33 33 00 00 00 00 41 13 33 33 00 00 00 00 00 00 00 00 00 00 00 00 00 00 00 00 00 00 00 00 42 D8 00 00 00 00 00 00 42 A3 33 33 00 00 00 00 41 D0 00 00 00 00 00 00 00 00 00 00 00 00 00 00 00 00 00 00 00 00 7F 8C
write:15 03 01 0F 00 08 76 E7
15 03 10
2100 00 18 95 00 00 00 00 00 00 1D 3D 00 00 8A E4
43 6A C0 C5
234.753
43 6A 74 7B
234.455
43 6A 37 8D
234.217
43 CB 20 42
406.252
43 CA E8 D5
405.819
43 CB 0A 1D
406.079
00 00 00 00
0
00 00 00 00
0
00 00 00 00
0
00 00 00 00
0
00 00 00 00
0
00 00 00 00
0
00 00 00 00
0
00 00 00 00
0
00 00 00 00
0
00 00 00 00
0
00 00 00 00
0
00 00 00 00
0
00 00 00 00
0
00 00 00 00
0
00 00 00 00
0
00 00 00 00
0
00 00 00 00
0
00 00 00 00
0
00 00 00 00
0
42 48 D1 E6
50.20498
40 CC CC CD
6.4
00 00 00 00
0
40 A6 66 66
5.2
00 00 00 00
0
3F 99 99 9A
1.2
00 00 00 00
0
00 00 00 00
0
00 00 00 00
0
00 00 00 00
0
00 00 00 00
0
3E CC CC CD
0.4
00 00 00 00
0
3E CC CC CD
0.4
00 00 00 00
0
00 00 00 00
0
00 00 00 00
0
00 00 00 00
0
00 00 00 00
0
00 00 00 00
0
00 00 00 00
0
40 8C CC CD
4.4
00 00 00 00
0
40 66 66 66
3.6
00 00 00 00
0
3F 4C CC CD
0.8
00 00 00 00
0
00 00 00 00
0
00 00 00 00
0
00 00 00 00
0
00 00 00 00
0
00 00 00 00
0
00 00 00 00
0
00 00 00 00
0
00 00 00 00
0
00 00 00 00
0
00 00 00 00
0
00 00 00 00
0
00 00 00 00
0
00 00 00 00
0
00 00 00 00
0
42 1E 66 66
39.6
00 00 00 00
0
41 F3 33 33
30.4
00 00 00 00
0
41 13 33 33
9.2
00 00 00 00
0
00 00 00 00
0
00 00 00 00
0
00 00 00 00
0
00 00 00 00
0
42 D8 00 00
108
00 00 00 00
0
42 A3 33 33
81.6
00 00 00 00
0
41 D0 00 00
26
00 00 00 00
0
00 00 00 00
0
00 00 00 00
0
00 00 00 00
0
00 00 7F 8C
4.5755e-41
00 00 18 95
6293
00 00 00 00
0
00 00 1D 3D
7485
00 00 8A E4
35556
234.753234.455234.217406.252405.819406.079000000000000000000050.204986.405.201.2000000.400.400000004.403.600.800000000000000039.6030.409.200000108081.602600004.5755e-4121201711271439026.29307.48535.556insert into tbl_power_info_v2(P_A_DIANYA,P_B_DIANYA,P_C_DIANYA,P_UAB_XIANDIANYA,P_UBC_XIANDIANYA,P_UCA_XIANDIANYA,P_A_DIANLIU,P_B_DIANLIU,P_C_DIANLIU,P_A_YGGL,P_B_YGGL,P_C_YGGL,P_HXYGGL,P_A_WGGL,P_B_WGGL,P_C_WGGL,P_HXWGGL,P_A_SZGL,P_B_SZGL,P_C_SZGL,P_HXSZGL,P_A_GLYS,P_B_GLYS,P_C_GLYS,P_HXGLYS,P_DWPL,P_BY_KwhZ,P_BY_KwhJ,P_BY_KwhF,P_BY_KwhP,P_BY_KwhG,P_BY_HKwhZ,P_BY_HKwhJ,P_BY_HKwhF,P_BY_HKwhP,P_BY_HKwhG, P_BY_KvarhZ,P_BY_KvarhJ,P_BY_KvarhF,P_BY_KvarhP,P_BY_KvarhG, P_BY_HKvarhZ,P_BY_HKvarhJ,P_BY_HKvarhF,P_BY_HKvarhP,P_BY_HKvarhG, P_SY_KwhZ,P_SY_KwhJ,P_SY_KwhF,P_SY_KwhP,P_SY_KwhG, P_SY_HKwhZ,P_SY_HKwhJ,P_SY_HKwhF,P_SY_HKwhP,P_SY_HKwhG, P_SY_KvarhZ,P_SY_KvarhJ,P_SY_KvarhF,P_SY_KvarhP,P_SY_KvarhG, P_SY_HKvarhZ,P_SY_HKvarhJ,P_SY_HKvarhF,P_SY_HKvarhP,P_SY_HKvarhG, P_SSY_KwhZ,P_SSY_KwhJ,P_SSY_KwhF,P_SSY_KwhP,P_SSY_KwhG, P_SSY_HKwhZ,P_SSY_HKwhJ,P_SSY_HKwhF,P_SSY_HKwhP,P_SSY_HKwhG, P_SSY_KvarhZ,P_SSY_KvarhJ,P_SSY_KvarhF,P_SSY_KvarhP,P_SSY_KvarhG, P_SSY_HKvarhZ,P_SSY_HKvarhJ,P_SSY_HKvarhF,P_SSY_HKvarhP,P_SSY_HKvarhG,P_CODE,P_TIME,P_ZXYGDN,P_FXYGDN,P_ZXWGDN,P_FXWGDN)values(234.753,234.455,234.217,406.252,405.819,406.079,0,0,0,0,0,0,0,0,0,0,0,0,0,0,0,0,0,0,0,50.20498,6.4,0,5.2,0,1.2,0,0,0,0,0,0.4,0,0.4,0,0,0,0,0,0,0,4.4,0,3.6,0,0.8,0,0,0,0,0,0,0,0,0,0,0,0,0,0,0,39.6,0,30.4,0,9.2,0,0,0,0,0,108,0,81.6,0,26,0,0,0,0,4.5755e-41,21,20171127143902,6.293,0,7.485,35.556)
写入成功读取完毕一个
write:16 03 00 38 00 34 C6 F7
write:15 03 01 0F 00 08 76 E7
15 03 10
2100 00 18 95 00 00 00 00 00 00 1D 3D 00 00 8A E4
write:16 03 00 38 00 34 C6 F7
write:16 03 07 CF 00 78 77 84
write:16 03 01 0F 00 08 76 D4
write:17 03 00 38 00 34 C7 26
17 03 68
2343 6A 72 B0 43 6A 60 00 43 6A 4E 98 43 CA F3 F8 43 CA E8 D5 43 CA F3 F8 41 2E 14 7B 40 9D 70 A4 40 70 00 00 00 00 00 00 00 00 00 00 00 00 00 00 00 00 00 00 00 00 00 00 00 00 00 00 00 00 00 00 00 00 00 00 00 00 00 00 00 00 00 00 00 00 00 00 00 00 00 00 00 00 00 00 00 00 00 00 00 00 00 00 00 00 00 00 00 00 00 00
A3 D7 45
heart:A3 D7 45 1D 80 00 44 87 00 00 44 52 00 00 45 8A C0 00 42 A0 00 00 42 A0 00 00 00 00 00 00 43 48 00 00 45 20 00 00 44 91 00 00 44 5C 00 00 45 8A C0 00 3F 7E 76 C9 3F 6F 9D B2 3F 6F 5C 29 3F 7F BE 77 42 48 5E 2E
write:17 03 07 CF 00 78 76 55
17 03 F0
23totalsize 240
44 AD 4C CD 43 71 99 9A 44 61 26 66 00 00 00 00 43 74 00 00 00 00 00 00 00 00 00 00 00 00 00 00 00 00 00 00 00 00 00 00 42 1F 33 33 40 80 00 00 41 F4 CC CD 00 00 00 00 40 A0 00 00 42 6D 99 9A 41 4C CC CD 41 BC CC CD 00 00 00 00 41 B8 00 00 44 AC 0C CD 43 8E E6 66 44 54 80 00 00 00 00 00 43 70 33 33 00 00 00 00 00 00 00 00 00 00 00 00 00 00 00 00 00 00 00 00 41 16 66 66 3E CC CC CD 40 D9 99 9A 00 00 00 00 3F E6 66 66 42 D5 33 33 41 BB 33 33 42 46 66 66 00 00 00 00 42 05 99 9A 44 EF 33 33 43 86 66 66 44 9D 8C CD 00 00 00 00 43 C0 19 9A 00 00 00 00 00 00 00 00 00 00 00 00 00 00 00 00 00 00 00 00 41 66 66 66 3F 19 99 9A 41 20 00 00 00 00 00 00 40 73 33 33 42 8D 99 9A 41 56 66 66 41 F6 66 66 00 00 00 00 41 D3 52 F7
write:17 03 01 0F 00 08 77 05
17 03 10
2300 03 F6 3B 00 00 00 00 00 00 E8 1C 00 00 C8 9A
43 6A 72 B0
234.448
43 6A 60 00
234.375
43 6A 4E 98
234.307
43 CA F3 F8
405.906
43 CA E8 D5
405.819
43 CA F3 F8
405.906
41 2E 14 7B
10.88
40 9D 70 A4
4.92
40 70 00 00
3.75
00 00 00 00
0
00 00 00 00
0
00 00 00 00
0
00 00 00 00
0
00 00 00 00
0
00 00 00 00
0
00 00 00 00
0
00 00 00 00
0
00 00 00 00
0
00 00 00 00
0
00 00 00 00
0
00 00 00 00
0
00 00 00 00
0
00 00 00 00
0
00 00 00 00
0
00 00 00 00
0
00 00 00 00
0
44 AD 4C CD
1386.4
43 71 99 9A
241.6
44 61 26 66
900.6
00 00 00 00
0
43 74 00 00
244
00 00 00 00
0
00 00 00 00
0
00 00 00 00
0
00 00 00 00
0
00 00 00 00
0
42 1F 33 33
39.8
40 80 00 00
4
41 F4 CC CD
30.6
00 00 00 00
0
40 A0 00 00
5
42 6D 99 9A
59.4
41 4C CC CD
12.8
41 BC CC CD
23.6
00 00 00 00
0
41 B8 00 00
23
44 AC 0C CD
1376.4
43 8E E6 66
285.8
44 54 80 00
850
00 00 00 00
0
43 70 33 33
240.2
00 00 00 00
0
00 00 00 00
0
00 00 00 00
0
00 00 00 00
0
00 00 00 00
0
41 16 66 66
9.4
3E CC CC CD
0.4
40 D9 99 9A
6.8
00 00 00 00
0
3F E6 66 66
1.8
42 D5 33 33
106.6
41 BB 33 33
23.4
42 46 66 66
49.6
00 00 00 00
0
42 05 99 9A
33.4
44 EF 33 33
1913.6
43 86 66 66
268.8
44 9D 8C CD
1260.4
00 00 00 00
0
43 C0 19 9A
384.2
00 00 00 00
0
00 00 00 00
0
00 00 00 00
0
00 00 00 00
0
00 00 00 00
0
41 66 66 66
14.4
3F 19 99 9A
0.6
41 20 00 00
10
00 00 00 00
0
40 73 33 33
3.8
42 8D 99 9A
70.8
41 56 66 66
13.4
41 F6 66 66
30.8
00 00 00 00
0
41 D3 52 F7
26.41551
00 03 F6 3B
259643
00 00 00 00
0
00 00 E8 1C
59420
00 00 C8 9A
51354
234.448234.375234.307405.906405.819405.90610.884.923.75000000000000000001386.4241.6900.602440000039.8430.60559.412.823.60231376.4285.88500240.2000009.40.46.801.8106.623.449.6033.41913.6268.81260.40384.20000014.40.61003.870.813.430.8026.415512320171127144141259.643059.4251.354insert into tbl_power_info_v2(P_A_DIANYA,P_B_DIANYA,P_C_DIANYA,P_UAB_XIANDIANYA,P_UBC_XIANDIANYA,P_UCA_XIANDIANYA,P_A_DIANLIU,P_B_DIANLIU,P_C_DIANLIU,P_A_YGGL,P_B_YGGL,P_C_YGGL,P_HXYGGL,P_A_WGGL,P_B_WGGL,P_C_WGGL,P_HXWGGL,P_A_SZGL,P_B_SZGL,P_C_SZGL,P_HXSZGL,P_A_GLYS,P_B_GLYS,P_C_GLYS,P_HXGLYS,P_DWPL,P_BY_KwhZ,P_BY_KwhJ,P_BY_KwhF,P_BY_KwhP,P_BY_KwhG,P_BY_HKwhZ,P_BY_HKwhJ,P_BY_HKwhF,P_BY_HKwhP,P_BY_HKwhG, P_BY_KvarhZ,P_BY_KvarhJ,P_BY_KvarhF,P_BY_KvarhP,P_BY_KvarhG, P_BY_HKvarhZ,P_BY_HKvarhJ,P_BY_HKvarhF,P_BY_HKvarhP,P_BY_HKvarhG, P_SY_KwhZ,P_SY_KwhJ,P_SY_KwhF,P_SY_KwhP,P_SY_KwhG, P_SY_HKwhZ,P_SY_HKwhJ,P_SY_HKwhF,P_SY_HKwhP,P_SY_HKwhG, P_SY_KvarhZ,P_SY_KvarhJ,P_SY_KvarhF,P_SY_KvarhP,P_SY_KvarhG, P_SY_HKvarhZ,P_SY_HKvarhJ,P_SY_HKvarhF,P_SY_HKvarhP,P_SY_HKvarhG, P_SSY_KwhZ,P_SSY_KwhJ,P_SSY_KwhF,P_SSY_KwhP,P_SSY_KwhG, P_SSY_HKwhZ,P_SSY_HKwhJ,P_SSY_HKwhF,P_SSY_HKwhP,P_SSY_HKwhG, P_SSY_KvarhZ,P_SSY_KvarhJ,P_SSY_KvarhF,P_SSY_KvarhP,P_SSY_KvarhG, P_SSY_HKvarhZ,P_SSY_HKvarhJ,P_SSY_HKvarhF,P_SSY_HKvarhP,P_SSY_HKvarhG,P_CODE,P_TIME,P_ZXYGDN,P_FXYGDN,P_ZXWGDN,P_FXWGDN)values(234.448,234.375,234.307,405.906,405.819,405.906,10.88,4.92,3.75,0,0,0,0,0,0,0,0,0,0,0,0,0,0,0,0,0,1386.4,241.6,900.6,0,244,0,0,0,0,0,39.8,4,30.6,0,5,59.4,12.8,23.6,0,23,1376.4,285.8,850,0,240.2,0,0,0,0,0,9.4,0.4,6.8,0,1.8,106.6,23.4,49.6,0,33.4,1913.6,268.8,1260.4,0,384.2,0,0,0,0,0,14.4,0.6,10,0,3.8,70.8,13.4,30.8,0,26.41551,23,20171127144141,259.643,0,59.42,51.354)
写入成功读取完毕一个
write:18 03 00 38 00 34 C7 D9
18 03 68
2443 69 8D 91 43 69 A8 73 43 69 B6 C9 43 CA 42 8F 43 CA 58 B4 43 CA 4D B2 40 98 51 EC 3F C7 AE 14 40 8A 3D 71 44 70 00 00 43 8C 00 00 44 7A 00 00 45 0C 00 00 43 20 00 00 00 00 00 00 42 A0 00 00 00 00 00 00 44 8C 00 00 43 B4 00 00 44 7A 00 00 45 0C 00 00 3F 5E B8 52 3F 4B 43 96 3F 79 DB 23 3F 80 00 00 42 47 C3 A8
write:18 03 07 CF 00 78 76 AA
18 03 F0
24totalsize 240
44 74 33 33 43 65 99 9A 44 05 C0 00 00 00 00 00 43 54 33 33 00 00 00 00 00 00 00 00 00 00 00 00 00 00 00 00 00 00 00 00 43 4F CC CD 42 08 CC CD 42 FA 66 66 00 00 00 00 42 40 CC CD 41 D8 00 00 40 F3 33 33 41 76 66 66 00 00 00 00 40 73 33 33 44 19 99 9A 43 00 00 00 43 A7 CC CD 00 00 00 00 43 16 99 9A 00 00 00 00 00 00 00 00 00 00 00 00 00 00 00 00 00 00 00 00 42 45 99 9A 3F 80 00 00 42 09 99 9A 00 00 00 00 41 60 00 00 42 0A 66 66 41 00 00 00 41 AC CC CD 00 00 00 00 40 99 99 9A 44 3F E6 66 43 0C 33 33 43 D9 E6 66 00 00 00 00 43 3F 66 66 00 00 00 00 00 00 00 00 00 00 00 00 00 00 00 00 00 00 00 00 43 A3 99 9A 41 A8 00 00 43 6C 99 9A 00 00 00 00 42 8A CC CD 42 1B 33 33 41 23 33 33 41 A6 66 66 00 00 00 00 40 F9 93 82
write:18 03 01 0F 00 08 77 FA
18 03 10
2400 02 0A 2F 00 00 00 00 00 00 C8 E2 00 00 E5 DF
43 69 8D 91
233.553
43 69 A8 73
233.658
43 69 B6 C9
233.714
43 CA 42 8F
404.52
43 CA 58 B4
404.693
43 CA 4D B2
404.607
40 98 51 EC
4.76
3F C7 AE 14
1.56
40 8A 3D 71
4.32
44 70 00 00
960
43 8C 00 00
280
44 7A 00 00
1000
45 0C 00 00
2240
43 20 00 00
160
00 00 00 00
0
42 A0 00 00
80
00 00 00 00
0
44 8C 00 00
1120
43 B4 00 00
360
44 7A 00 00
1000
45 0C 00 00
2240
3F 5E B8 52
0.87
3F 4B 43 96
0.794
3F 79 DB 23
0.976
3F 80 00 00
1
42 47 C3 A8
49.94107
44 74 33 33
976.8
43 65 99 9A
229.6
44 05 C0 00
535
00 00 00 00
0
43 54 33 33
212.2
00 00 00 00
0
00 00 00 00
0
00 00 00 00
0
00 00 00 00
0
00 00 00 00
0
43 4F CC CD
207.8
42 08 CC CD
34.2
42 FA 66 66
125.2
00 00 00 00
0
42 40 CC CD
48.2
41 D8 00 00
27
40 F3 33 33
7.6
41 76 66 66
15.4
00 00 00 00
0
40 73 33 33
3.8
44 19 99 9A
614.4
43 00 00 00
128
43 A7 CC CD
335.6
00 00 00 00
0
43 16 99 9A
150.6
00 00 00 00
0
00 00 00 00
0
00 00 00 00
0
00 00 00 00
0
00 00 00 00
0
42 45 99 9A
49.4
3F 80 00 00
1
42 09 99 9A
34.4
00 00 00 00
0
41 60 00 00
14
42 0A 66 66
34.6
41 00 00 00
8
41 AC CC CD
21.6
00 00 00 00
0
40 99 99 9A
4.8
44 3F E6 66
767.6
43 0C 33 33
140.2
43 D9 E6 66
435.8
00 00 00 00
0
43 3F 66 66
191.4
00 00 00 00
0
00 00 00 00
0
00 00 00 00
0
00 00 00 00
0
00 00 00 00
0
43 A3 99 9A
327.2
41 A8 00 00
21
43 6C 99 9A
236.6
00 00 00 00
0
42 8A CC CD
69.4
42 1B 33 33
38.8
41 23 33 33
10.2
41 A6 66 66
20.8
00 00 00 00
0
40 F9 93 82
7.7992563
00 02 0A 2F
133679
00 00 00 00
0
00 00 C8 E2
51426
00 00 E5 DF
58847
233.553233.658233.714404.52404.693404.6074.761.564.329602801000224016008001120360100022400.870.7940.976149.94107976.8229.65350212.200000207.834.2125.2048.2277.615.403.8614.4128335.60150.60000049.4134.401434.6821.604.8767.6140.2435.80191.400000327.221236.6069.438.810.220.807.79925632420171127144240133.679051.42658.847insert into tbl_power_info_v2(P_A_DIANYA,P_B_DIANYA,P_C_DIANYA,P_UAB_XIANDIANYA,P_UBC_XIANDIANYA,P_UCA_XIANDIANYA,P_A_DIANLIU,P_B_DIANLIU,P_C_DIANLIU,P_A_YGGL,P_B_YGGL,P_C_YGGL,P_HXYGGL,P_A_WGGL,P_B_WGGL,P_C_WGGL,P_HXWGGL,P_A_SZGL,P_B_SZGL,P_C_SZGL,P_HXSZGL,P_A_GLYS,P_B_GLYS,P_C_GLYS,P_HXGLYS,P_DWPL,P_BY_KwhZ,P_BY_KwhJ,P_BY_KwhF,P_BY_KwhP,P_BY_KwhG,P_BY_HKwhZ,P_BY_HKwhJ,P_BY_HKwhF,P_BY_HKwhP,P_BY_HKwhG, P_BY_KvarhZ,P_BY_KvarhJ,P_BY_KvarhF,P_BY_KvarhP,P_BY_KvarhG, P_BY_HKvarhZ,P_BY_HKvarhJ,P_BY_HKvarhF,P_BY_HKvarhP,P_BY_HKvarhG, P_SY_KwhZ,P_SY_KwhJ,P_SY_KwhF,P_SY_KwhP,P_SY_KwhG, P_SY_HKwhZ,P_SY_HKwhJ,P_SY_HKwhF,P_SY_HKwhP,P_SY_HKwhG, P_SY_KvarhZ,P_SY_KvarhJ,P_SY_KvarhF,P_SY_KvarhP,P_SY_KvarhG, P_SY_HKvarhZ,P_SY_HKvarhJ,P_SY_HKvarhF,P_SY_HKvarhP,P_SY_HKvarhG, P_SSY_KwhZ,P_SSY_KwhJ,P_SSY_KwhF,P_SSY_KwhP,P_SSY_KwhG, P_SSY_HKwhZ,P_SSY_HKwhJ,P_SSY_HKwhF,P_SSY_HKwhP,P_SSY_HKwhG, P_SSY_KvarhZ,P_SSY_KvarhJ,P_SSY_KvarhF,P_SSY_KvarhP,P_SSY_KvarhG, P_SSY_HKvarhZ,P_SSY_HKvarhJ,P_SSY_HKvarhF,P_SSY_HKvarhP,P_SSY_HKvarhG,P_CODE,P_TIME,P_ZXYGDN,P_FXYGDN,P_ZXWGDN,P_FXWGDN)values(233.553,233.658,233.714,404.52,404.693,404.607,4.76,1.56,4.32,960,280,1000,2240,160,0,80,0,1120,360,1000,2240,0.87,0.794,0.976,1,49.94107,976.8,229.6,535,0,212.2,0,0,0,0,0,207.8,34.2,125.2,0,48.2,27,7.6,15.4,0,3.8,614.4,128,335.6,0,150.6,0,0,0,0,0,49.4,1,34.4,0,14,34.6,8,21.6,0,4.8,767.6,140.2,435.8,0,191.4,0,0,0,0,0,327.2,21,236.6,0,69.4,38.8,10.2,20.8,0,7.7992563,24,20171127144240,133.679,0,51.426,58.847)
写入成功读取完毕一个
write:19 03 00 38 00 34 C6 08
19 03 68
2543 69 8B 85 43 69 8B 02 43 69 90 A4 43 CA 37 6D 43 CA 37 6D 43 CA 37 6D 00 00 00 00 3F C2 8F 5C 3F 6B 85 1F 42 A0 00 00 43 48 00 00 43 20 00 00 43 DC 00 00 00 00 00 00 42 A0 00 00 00 00 00 00 42 F0 00 00 42 F0 00 00 43 B4 00 00 43 48 00 00 43 F0 00 00 3F 5A 1C AC 3F 11 26 E9 3F 3F BE 77 3F 79 58 10 42 48 97 37
write:19 03 07 CF 00 78 77 7B
19 03 F0
25totalsize 240
43 C8 99 9A 42 37 33 33 43 63 33 33 00 00 00 00 43 00 00 00 00 00 00 00 00 00 00 00 00 00 00 00 00 00 00 00 00 00 00 00 41 7C CC CD 00 00 00 00 41 66 66 66 00 00 00 00 3F B3 33 33 42 26 66 66 40 F3 33 33 41 83 33 33 00 00 00 00 41 8B 33 33 43 B7 B3 33 42 3F 33 33 43 3E 00 00 00 00 00 00 43 01 66 66 00 00 00 00 00 00 00 00 00 00 00 00 00 00 00 00 00 00 00 00 41 10 00 00 00 00 00 00 40 C6 66 66 00 00 00 00 40 26 66 66 42 63 33 33 41 29 99 9A 41 BC CC CD 00 00 00 00 41 B3 33 33 43 A0 E6 66 42 0F 33 33 43 2B CC CD 00 00 00 00 42 E4 00 00 00 00 00 00 00 00 00 00 00 00 00 00 00 00 00 00 00 00 00 00 3E CC CC CD 00 00 00 00 3E 4C CC CD 00 00 00 00 00 00 00 00 42 21 99 9A 40 B9 99 9A 41 A3 33 33 00 00 00 00 41 60 95 94
write:19 03 01 0F 00 08 76 2B
19 03 10
2500 00 F6 B3 00 00 00 00 00 00 06 AA 00 00 F0 DC
43 69 8B 85
233.545
43 69 8B 02
233.543
43 69 90 A4
233.565
43 CA 37 6D
404.433
43 CA 37 6D
404.433
43 CA 37 6D
404.433
00 00 00 00
0
3F C2 8F 5C
1.52
3F 6B 85 1F
0.92
42 A0 00 00
80
43 48 00 00
200
43 20 00 00
160
43 DC 00 00
440
00 00 00 00
0
42 A0 00 00
80
00 00 00 00
0
42 F0 00 00
120
42 F0 00 00
120
43 B4 00 00
360
43 48 00 00
200
43 F0 00 00
480
3F 5A 1C AC
0.852
3F 11 26 E9
0.567
3F 3F BE 77
0.749
3F 79 58 10
0.974
42 48 97 37
50.14767
43 C8 99 9A
401.2
42 37 33 33
45.8
43 63 33 33
227.2
00 00 00 00
0
43 00 00 00
128
00 00 00 00
0
00 00 00 00
0
00 00 00 00
0
00 00 00 00
0
00 00 00 00
0
41 7C CC CD
15.8
00 00 00 00
0
41 66 66 66
14.4
00 00 00 00
0
3F B3 33 33
1.4
42 26 66 66
41.6
40 F3 33 33
7.6
41 83 33 33
16.4
00 00 00 00
0
41 8B 33 33
17.4
43 B7 B3 33
367.4
42 3F 33 33
47.8
43 3E 00 00
190
00 00 00 00
0
43 01 66 66
129.4
00 00 00 00
0
00 00 00 00
0
00 00 00 00
0
00 00 00 00
0
00 00 00 00
0
41 10 00 00
9
00 00 00 00
0
40 C6 66 66
6.2
00 00 00 00
0
40 26 66 66
2.6
42 63 33 33
56.8
41 29 99 9A
10.6
41 BC CC CD
23.6
00 00 00 00
0
41 B3 33 33
22.4
43 A0 E6 66
321.8
42 0F 33 33
35.8
43 2B CC CD
171.8
00 00 00 00
0
42 E4 00 00
114
00 00 00 00
0
00 00 00 00
0
00 00 00 00
0
00 00 00 00
0
00 00 00 00
0
3E CC CC CD
0.4
00 00 00 00
0
3E 4C CC CD
0.2
00 00 00 00
0
00 00 00 00
0
42 21 99 9A
40.4
40 B9 99 9A
5.8
41 A3 33 33
20.4
00 00 00 00
0
41 60 95 94
14.036518
00 00 F6 B3
63155
00 00 00 00
0
00 00 06 AA
1706
00 00 F0 DC
61660
233.545233.543233.565404.433404.433404.43301.520.928020016044008001201203602004800.8520.5670.7490.97450.14767401.245.8227.201280000015.8014.401.441.67.616.4017.4367.447.81900129.400000906.202.656.810.623.6022.4321.835.8171.80114000000.400.20040.45.820.4014.036518252017112714434163.15501.70661.66insert into tbl_power_info_v2(P_A_DIANYA,P_B_DIANYA,P_C_DIANYA,P_UAB_XIANDIANYA,P_UBC_XIANDIANYA,P_UCA_XIANDIANYA,P_A_DIANLIU,P_B_DIANLIU,P_C_DIANLIU,P_A_YGGL,P_B_YGGL,P_C_YGGL,P_HXYGGL,P_A_WGGL,P_B_WGGL,P_C_WGGL,P_HXWGGL,P_A_SZGL,P_B_SZGL,P_C_SZGL,P_HXSZGL,P_A_GLYS,P_B_GLYS,P_C_GLYS,P_HXGLYS,P_DWPL,P_BY_KwhZ,P_BY_KwhJ,P_BY_KwhF,P_BY_KwhP,P_BY_KwhG,P_BY_HKwhZ,P_BY_HKwhJ,P_BY_HKwhF,P_BY_HKwhP,P_BY_HKwhG, P_BY_KvarhZ,P_BY_KvarhJ,P_BY_KvarhF,P_BY_KvarhP,P_BY_KvarhG, P_BY_HKvarhZ,P_BY_HKvarhJ,P_BY_HKvarhF,P_BY_HKvarhP,P_BY_HKvarhG, P_SY_KwhZ,P_SY_KwhJ,P_SY_KwhF,P_SY_KwhP,P_SY_KwhG, P_SY_HKwhZ,P_SY_HKwhJ,P_SY_HKwhF,P_SY_HKwhP,P_SY_HKwhG, P_SY_KvarhZ,P_SY_KvarhJ,P_SY_KvarhF,P_SY_KvarhP,P_SY_KvarhG, P_SY_HKvarhZ,P_SY_HKvarhJ,P_SY_HKvarhF,P_SY_HKvarhP,P_SY_HKvarhG, P_SSY_KwhZ,P_SSY_KwhJ,P_SSY_KwhF,P_SSY_KwhP,P_SSY_KwhG, P_SSY_HKwhZ,P_SSY_HKwhJ,P_SSY_HKwhF,P_SSY_HKwhP,P_SSY_HKwhG, P_SSY_KvarhZ,P_SSY_KvarhJ,P_SSY_KvarhF,P_SSY_KvarhP,P_SSY_KvarhG, P_SSY_HKvarhZ,P_SSY_HKvarhJ,P_SSY_HKvarhF,P_SSY_HKvarhP,P_SSY_HKvarhG,P_CODE,P_TIME,P_ZXYGDN,P_FXYGDN,P_ZXWGDN,P_FXWGDN)values(233.545,233.543,233.565,404.433,404.433,404.433,0,1.52,0.92,80,200,160,440,0,80,0,120,120,360,200,480,0.852,0.567,0.749,0.974,50.14767,401.2,45.8,227.2,0,128,0,0,0,0,0,15.8,0,14.4,0,1.4,41.6,7.6,16.4,0,17.4,367.4,47.8,190,0,129.4,0,0,0,0,0,9,0,6.2,0,2.6,56.8,10.6,23.6,0,22.4,321.8,35.8,171.8,0,114,0,0,0,0,0,0.4,0,0.2,0,0,40.4,5.8,20.4,0,14.036518,25,20171127144341,63.155,0,1.706,61.66)
写入成功读取完毕一个
write:0E 03 00 38 00 34 C5 2F
write:0E 03 07 CF 00 78 74 5C
write:0E 03 01 0F 00 08 75 0C
write:0F 03 00 38 00 34 C4 FE
34 30 36
heart:34 30 36 36 32 33 30 31 30 34 33 35 2C 72 75 69
write:0F 03 07 CF 00 78 75 8D
write:0F 03 01 0F 00 08 74 DD
write:10 03 00 38 00 34 C6 91
write:10 03 07 CF 00 78 77 E2
write:10 03 01 0F 00 08 76 B2
34 30 36
heart:34 30 36 36 32 33 30 31 30 34 33 35 2C 72 75 69
write:11 03 00 38 00 34 C7 40
write:11 03 07 CF 00 78 76 33
write:11 03 01 0F 00 08 77 63
write:12 03 00 38 00 34 C7 73
12 03 68
1843 6A 28 31 43 6A 00 00 43 69 CF 5C 43 CA B1 68 43 CA 90 21 43 CA 9B 44 43 5E B8 52 43 77 33 33 43 49 5C 29 47 3D D8 00 47 55 48 00 47 2C 80 00 48 0F E8 00 46 6C 40 00 46 64 C0 00 46 41 20 00 47 24 88 00 47 4B E8 00 47 61 F0 00 47 37 C0 00 48 15 C4 00 3F 6E D9 17 3F 71 EB 85 3F 6F DF 3B 3F 76 04 19 42 48 A3 9A
write:12 03 07 CF 00 78 76 00
12 03 F0
18totalsize 240
47 98 BE 9A 46 3E 05 9A 47 0F 6D 9A 00 00 00 00 46 E5 1B 33 00 00 00 00 00 00 00 00 00 00 00 00 00 00 00 00 00 00 00 00 46 8E A0 66 45 29 29 9A 46 14 FA 66 00 00 00 00 45 BB F3 33 00 00 00 00 00 00 00 00 00 00 00 00 00 00 00 00 00 00 00 00 47 A9 B7 80 46 5C 9F 33 47 22 D6 CD 00 00 00 00 46 F2 DF 9A 00 00 00 00 00 00 00 00 00 00 00 00 00 00 00 00 00 00 00 00 46 B2 70 66 45 65 B9 9A 46 3A EB 33 00 00 00 00 45 E1 09 9A 00 00 00 00 00 00 00 00 00 00 00 00 00 00 00 00 00 00 00 00 47 82 8D CD 46 41 63 33 46 D4 77 33 00 00 00 00 46 D5 0E 66 00 00 00 00 00 00 00 00 00 00 00 00 00 00 00 00 00 00 00 00 46 95 B4 66 45 65 46 66 45 FB B3 33 00 00 00 00 45 E8 7B 33 00 00 00 00 00 00 00 00 00 00 00 00 00 00 00 00 00 00 95 2E
write:12 03 01 0F 00 08 77 50
12 03 10
1800 41 70 96 00 00 00 00 00 14 13 87 00 00 BE C4
43 6A 28 31
234.157
43 6A 00 00
234
43 69 CF 5C
233.81
43 CA B1 68
405.386
43 CA 90 21
405.126
43 CA 9B 44
405.213
43 5E B8 52
222.72
43 77 33 33
247.2
43 49 5C 29
201.36
47 3D D8 00
48600
47 55 48 00
54600
47 2C 80 00
44160
48 0F E8 00
147360
46 6C 40 00
15120
46 64 C0 00
14640
46 41 20 00
12360
47 24 88 00
42120
47 4B E8 00
52200
47 61 F0 00
57840
47 37 C0 00
47040
48 15 C4 00
153360
3F 6E D9 17
0.933
3F 71 EB 85
0.945
3F 6F DF 3B
0.937
3F 76 04 19
0.961
42 48 A3 9A
50.159767
47 98 BE 9A
78205.2
46 3E 05 9A
12161.4
47 0F 6D 9A
36717.6
00 00 00 00
0
46 E5 1B 33
29325.6
00 00 00 00
0
00 00 00 00
0
00 00 00 00
0
00 00 00 00
0
00 00 00 00
0
46 8E A0 66
18256.2
45 29 29 9A
2706.6
46 14 FA 66
9534.6
00 00 00 00
0
45 BB F3 33
6014.4
00 00 00 00
0
00 00 00 00
0
00 00 00 00
0
00 00 00 00
0
00 00 00 00
0
47 A9 B7 80
86895
46 5C 9F 33
14119.8
47 22 D6 CD
41686.8
00 00 00 00
0
46 F2 DF 9A
31087.8
00 00 00 00
0
00 00 00 00
0
00 00 00 00
0
00 00 00 00
0
00 00 00 00
0
46 B2 70 66
22840.2
45 65 B9 9A
3675.6
46 3A EB 33
11962.8
00 00 00 00
0
45 E1 09 9A
7201.2
00 00 00 00
0
00 00 00 00
0
00 00 00 00
0
00 00 00 00
0
00 00 00 00
0
47 82 8D CD
66843.6
46 41 63 33
12376.8
46 D4 77 33
27195.6
00 00 00 00
0
46 D5 0E 66
27271.2
00 00 00 00
0
00 00 00 00
0
00 00 00 00
0
00 00 00 00
0
00 00 00 00
0
46 95 B4 66
19162.2
45 65 46 66
3668.4
45 FB B3 33
8054.4
00 00 00 00
0
45 E8 7B 33
7439.4
00 00 00 00
0
00 00 00 00
0
00 00 00 00
0
00 00 00 00
0
00 00 95 2E
5.3516e-41
00 41 70 96
4288662
00 00 00 00
0
00 14 13 87
1315719
00 00 BE C4
48836
234.157234233.81405.386405.126405.213222.72247.2201.36486005460044160147360151201464012360421205220057840470401533600.9330.9450.9370.96150.15976778205.212161.436717.6029325.60000018256.22706.69534.606014.4000008689514119.841686.8031087.80000022840.23675.611962.807201.20000066843.612376.827195.6027271.20000019162.23668.48054.407439.400005.3516e-4118201711271448464288.66201315.71948.836insert into tbl_power_info_v2(P_A_DIANYA,P_B_DIANYA,P_C_DIANYA,P_UAB_XIANDIANYA,P_UBC_XIANDIANYA,P_UCA_XIANDIANYA,P_A_DIANLIU,P_B_DIANLIU,P_C_DIANLIU,P_A_YGGL,P_B_YGGL,P_C_YGGL,P_HXYGGL,P_A_WGGL,P_B_WGGL,P_C_WGGL,P_HXWGGL,P_A_SZGL,P_B_SZGL,P_C_SZGL,P_HXSZGL,P_A_GLYS,P_B_GLYS,P_C_GLYS,P_HXGLYS,P_DWPL,P_BY_KwhZ,P_BY_KwhJ,P_BY_KwhF,P_BY_KwhP,P_BY_KwhG,P_BY_HKwhZ,P_BY_HKwhJ,P_BY_HKwhF,P_BY_HKwhP,P_BY_HKwhG, P_BY_KvarhZ,P_BY_KvarhJ,P_BY_KvarhF,P_BY_KvarhP,P_BY_KvarhG, P_BY_HKvarhZ,P_BY_HKvarhJ,P_BY_HKvarhF,P_BY_HKvarhP,P_BY_HKvarhG, P_SY_KwhZ,P_SY_KwhJ,P_SY_KwhF,P_SY_KwhP,P_SY_KwhG, P_SY_HKwhZ,P_SY_HKwhJ,P_SY_HKwhF,P_SY_HKwhP,P_SY_HKwhG, P_SY_KvarhZ,P_SY_KvarhJ,P_SY_KvarhF,P_SY_KvarhP,P_SY_KvarhG, P_SY_HKvarhZ,P_SY_HKvarhJ,P_SY_HKvarhF,P_SY_HKvarhP,P_SY_HKvarhG, P_SSY_KwhZ,P_SSY_KwhJ,P_SSY_KwhF,P_SSY_KwhP,P_SSY_KwhG, P_SSY_HKwhZ,P_SSY_HKwhJ,P_SSY_HKwhF,P_SSY_HKwhP,P_SSY_HKwhG, P_SSY_KvarhZ,P_SSY_KvarhJ,P_SSY_KvarhF,P_SSY_KvarhP,P_SSY_KvarhG, P_SSY_HKvarhZ,P_SSY_HKvarhJ,P_SSY_HKvarhF,P_SSY_HKvarhP,P_SSY_HKvarhG,P_CODE,P_TIME,P_ZXYGDN,P_FXYGDN,P_ZXWGDN,P_FXWGDN)values(234.157,234,233.81,405.386,405.126,405.213,222.72,247.2,201.36,48600,54600,44160,147360,15120,14640,12360,42120,52200,57840,47040,153360,0.933,0.945,0.937,0.961,50.159767,78205.2,12161.4,36717.6,0,29325.6,0,0,0,0,0,18256.2,2706.6,9534.6,0,6014.4,0,0,0,0,0,86895,14119.8,41686.8,0,31087.8,0,0,0,0,0,22840.2,3675.6,11962.8,0,7201.2,0,0,0,0,0,66843.6,12376.8,27195.6,0,27271.2,0,0,0,0,0,19162.2,3668.4,8054.4,0,7439.4,0,0,0,0,5.3516e-41,18,20171127144846,4288.662,0,1315.719,48.836)
写入成功读取完毕一个
write:13 03 00 38 00 34 C6 A2
13 03 68
1943 6A 94 FE 43 6A 61 89 43 6A 33 B6 43 CA FE FA 43 CA DD B2 43 CA F3 F8 41 B2 8F 5C 41 BB 85 1F 41 C8 51 EC 45 96 00 00 45 A0 00 00 45 AC 80 00 46 71 40 00 43 A0 00 00 43 20 00 00 00 00 00 00 43 C8 00 00 45 A2 80 00 45 AC 80 00 45 B6 80 00 46 71 40 00 3F 6B 02 0C 3F 6E 14 7B 3F 71 A9 FC 3F 80 00 00 42 48 89 F4
write:13 03 07 CF 00 78 77 D1
13 03 F0
19totalsize 240
44 AC E6 66 42 DC CC CD 44 58 4C CD 00 00 00 00 43 CB 99 9A 00 00 00 00 00 00 00 00 00 00 00 00 00 00 00 00 00 00 00 00 43 17 99 9A 3E CC CC CD 43 06 00 00 00 00 00 00 41 83 33 33 43 DE CC CD 42 9B 33 33 43 2C CC CD 00 00 00 00 43 42 CC CD 44 5A CC CD 42 BC 00 00 43 F7 66 66 00 00 00 00 43 8F 00 00 00 00 00 00 00 00 00 00 00 00 00 00 00 00 00 00 00 00 00 00 40 80 00 00 00 00 00 00 40 4C CC CD 00 00 00 00 3F 4C CC CD 44 1A 99 9A 42 C4 00 00 43 85 66 66 00 00 00 00 43 7D 33 33 44 DC A6 66 42 DB 33 33 44 8E CC CD 00 00 00 00 44 00 4C CD 00 00 00 00 00 00 00 00 00 00 00 00 00 00 00 00 00 00 00 00 42 5E 66 66 3E CC CC CD 42 21 99 9A 00 00 00 00 41 60 00 00 43 FE 00 00 42 B6 66 66 43 3F 99 9A 00 00 00 00 43 60 BB 30
write:13 03 01 0F 00 08 76 81
13 03 10
1900 02 98 77 00 00 00 00 00 00 35 A9 00 00 13 67
43 6A 94 FE
234.582
43 6A 61 89
234.381
43 6A 33 B6
234.202
43 CA FE FA
405.992
43 CA DD B2
405.732
43 CA F3 F8
405.906
41 B2 8F 5C
22.32
41 BB 85 1F
23.44
41 C8 51 EC
25.04
45 96 00 00
4800
45 A0 00 00
5120
45 AC 80 00
5520
46 71 40 00
15440
43 A0 00 00
320
43 20 00 00
160
00 00 00 00
0
43 C8 00 00
400
45 A2 80 00
5200
45 AC 80 00
5520
45 B6 80 00
5840
46 71 40 00
15440
3F 6B 02 0C
0.918
3F 6E 14 7B
0.93
3F 71 A9 FC
0.944
3F 80 00 00
1
42 48 89 F4
50.13472
44 AC E6 66
1383.2
42 DC CC CD
110.4
44 58 4C CD
865.2
00 00 00 00
0
43 CB 99 9A
407.2
00 00 00 00
0
00 00 00 00
0
00 00 00 00
0
00 00 00 00
0
00 00 00 00
0
43 17 99 9A
151.6
3E CC CC CD
0.4
43 06 00 00
134
00 00 00 00
0
41 83 33 33
16.4
43 DE CC CD
445.6
42 9B 33 33
77.6
43 2C CC CD
172.8
00 00 00 00
0
43 42 CC CD
194.8
44 5A CC CD
875.2
42 BC 00 00
94
43 F7 66 66
494.8
00 00 00 00
0
43 8F 00 00
286
00 00 00 00
0
00 00 00 00
0
00 00 00 00
0
00 00 00 00
0
00 00 00 00
0
40 80 00 00
4
00 00 00 00
0
40 4C CC CD
3.2
00 00 00 00
0
3F 4C CC CD
0.8
44 1A 99 9A
618.4
42 C4 00 00
98
43 85 66 66
266.8
00 00 00 00
0
43 7D 33 33
253.2
44 DC A6 66
1765.2
42 DB 33 33
109.6
44 8E CC CD
1142.4
00 00 00 00
0
44 00 4C CD
513.2
00 00 00 00
0
00 00 00 00
0
00 00 00 00
0
00 00 00 00
0
00 00 00 00
0
42 5E 66 66
55.6
3E CC CC CD
0.4
42 21 99 9A
40.4
00 00 00 00
0
41 60 00 00
14
43 FE 00 00
508
42 B6 66 66
91.2
43 3F 99 9A
191.6
00 00 00 00
0
43 60 BB 30
224.7312
00 02 98 77
170103
00 00 00 00
0
00 00 35 A9
13737
00 00 13 67
4967
234.582234.381234.202405.992405.732405.90622.3223.4425.04480051205520154403201600400520055205840154400.9180.930.944150.134721383.2110.4865.20407.200000151.60.4134016.4445.677.6172.80194.8875.294494.8028600000403.200.8618.498266.80253.21765.2109.61142.40513.20000055.60.440.401450891.2191.60224.73121920171127144945170.103013.7374.967insert into tbl_power_info_v2(P_A_DIANYA,P_B_DIANYA,P_C_DIANYA,P_UAB_XIANDIANYA,P_UBC_XIANDIANYA,P_UCA_XIANDIANYA,P_A_DIANLIU,P_B_DIANLIU,P_C_DIANLIU,P_A_YGGL,P_B_YGGL,P_C_YGGL,P_HXYGGL,P_A_WGGL,P_B_WGGL,P_C_WGGL,P_HXWGGL,P_A_SZGL,P_B_SZGL,P_C_SZGL,P_HXSZGL,P_A_GLYS,P_B_GLYS,P_C_GLYS,P_HXGLYS,P_DWPL,P_BY_KwhZ,P_BY_KwhJ,P_BY_KwhF,P_BY_KwhP,P_BY_KwhG,P_BY_HKwhZ,P_BY_HKwhJ,P_BY_HKwhF,P_BY_HKwhP,P_BY_HKwhG, P_BY_KvarhZ,P_BY_KvarhJ,P_BY_KvarhF,P_BY_KvarhP,P_BY_KvarhG, P_BY_HKvarhZ,P_BY_HKvarhJ,P_BY_HKvarhF,P_BY_HKvarhP,P_BY_HKvarhG, P_SY_KwhZ,P_SY_KwhJ,P_SY_KwhF,P_SY_KwhP,P_SY_KwhG, P_SY_HKwhZ,P_SY_HKwhJ,P_SY_HKwhF,P_SY_HKwhP,P_SY_HKwhG, P_SY_KvarhZ,P_SY_KvarhJ,P_SY_KvarhF,P_SY_KvarhP,P_SY_KvarhG, P_SY_HKvarhZ,P_SY_HKvarhJ,P_SY_HKvarhF,P_SY_HKvarhP,P_SY_HKvarhG, P_SSY_KwhZ,P_SSY_KwhJ,P_SSY_KwhF,P_SSY_KwhP,P_SSY_KwhG, P_SSY_HKwhZ,P_SSY_HKwhJ,P_SSY_HKwhF,P_SSY_HKwhP,P_SSY_HKwhG, P_SSY_KvarhZ,P_SSY_KvarhJ,P_SSY_KvarhF,P_SSY_KvarhP,P_SSY_KvarhG, P_SSY_HKvarhZ,P_SSY_HKvarhJ,P_SSY_HKvarhF,P_SSY_HKvarhP,P_SSY_HKvarhG,P_CODE,P_TIME,P_ZXYGDN,P_FXYGDN,P_ZXWGDN,P_FXWGDN)values(234.582,234.381,234.202,405.992,405.732,405.906,22.32,23.44,25.04,4800,5120,5520,15440,320,160,0,400,5200,5520,5840,15440,0.918,0.93,0.944,1,50.13472,1383.2,110.4,865.2,0,407.2,0,0,0,0,0,151.6,0.4,134,0,16.4,445.6,77.6,172.8,0,194.8,875.2,94,494.8,0,286,0,0,0,0,0,4,0,3.2,0,0.8,618.4,98,266.8,0,253.2,1765.2,109.6,1142.4,0,513.2,0,0,0,0,0,55.6,0.4,40.4,0,14,508,91.2,191.6,0,224.7312,19,20171127144945,170.103,0,13.737,4.967)
写入成功读取完毕一个
write:14 03 00 38 00 34 C7 15
14 03 68
2043 6A 3C EE 43 6A 64 9C 43 69 F5 81 43 CA DD B2 43 CA BC 8B 43 CA B1 68 00 00 00 00 00 00 00 00 00 00 00 00 00 00 00 00 00 00 00 00 00 00 00 00 00 00 00 00 00 00 00 00 00 00 00 00 00 00 00 00 00 00 00 00 00 00 00 00 00 00 00 00 00 00 00 00 00 00 00 00 00 00 00 00 00 00 00 00 00 00 00 00 00 00 00 00 00 00 00 00
00 00 00
heart:00 00 00 00 00 00 00 00 00 00 00 00 00 00 00 00 00 00 00 00 00 00 00 00 00 00 00 00 00 00 00 00 00 00 00 00 00 00 00 00 00 00 00 00 00 00 00 00 00 00 00 00 00 00 00 00 42 A0 00 00 00 00 00 00 00 00 00 00 00 00 00 00 3F 23 12 6F 42 48 1B 70
write:14 03 07 CF 00 78 76 66
14 03 F0
20totalsize 240
44 AB C6 66 43 D6 33 33 43 9C 99 9A 00 00 00 00 44 1E 19 9A 00 00 00 00 00 00 00 00 00 00 00 00 00 00 00 00 00 00 00 00 40 0C CC CD 00 00 00 00 40 0C CC CD 00 00 00 00 00 00 00 00 43 9F 4C CD 42 CC 66 66 42 87 99 9A 00 00 00 00 43 14 66 66 44 AC 73 33 43 E0 33 33 43 9A 66 66 00 00 00 00 44 1B 8C CD 00 00 00 00 00 00 00 00 00 00 00 00 00 00 00 00 00 00 00 00 40 99 99 9A 00 00 00 00 40 93 33 33 00 00 00 00 00 00 00 00 43 9B 80 00 42 D2 66 66 42 76 66 66 00 00 00 00 43 10 00 00 44 A4 D9 9A 43 ED 99 9A 43 78 66 66 00 00 00 00 44 14 C0 00 00 00 00 00 00 00 00 00 00 00 00 00 00 00 00 00 00 00 00 00 3F 4C CC CD 00 00 00 00 3F 4C CC CD 00 00 00 00 00 00 00 00 43 8C 66 66 42 D1 33 33 42 3B 33 33 00 00 00 00 43 01 E0 0E
write:14 03 01 0F 00 08 77 36
14 03 10
2000 04 23 8C 00 00 00 00 00 00 13 51 00 00 A4 AE
43 6A 3C EE
234.238
43 6A 64 9C
234.393
43 69 F5 81
233.959
43 CA DD B2
405.732
43 CA BC 8B
405.473
43 CA B1 68
405.386
00 00 00 00
0
00 00 00 00
0
00 00 00 00
0
00 00 00 00
0
00 00 00 00
0
00 00 00 00
0
00 00 00 00
0
00 00 00 00
0
00 00 00 00
0
00 00 00 00
0
00 00 00 00
0
00 00 00 00
0
00 00 00 00
0
00 00 00 00
0
00 00 00 00
0
00 00 00 00
0
00 00 00 00
0
00 00 00 00
0
00 00 00 00
0
00 00 00 00
0
44 AB C6 66
1374.2
43 D6 33 33
428.4
43 9C 99 9A
313.2
00 00 00 00
0
44 1E 19 9A
632.4
00 00 00 00
0
00 00 00 00
0
00 00 00 00
0
00 00 00 00
0
00 00 00 00
0
40 0C CC CD
2.2
00 00 00 00
0
40 0C CC CD
2.2
00 00 00 00
0
00 00 00 00
0
43 9F 4C CD
318.6
42 CC 66 66
102.2
42 87 99 9A
67.8
00 00 00 00
0
43 14 66 66
148.4
44 AC 73 33
1379.6
43 E0 33 33
448.4
43 9A 66 66
308.8
00 00 00 00
0
44 1B 8C CD
622.2
00 00 00 00
0
00 00 00 00
0
00 00 00 00
0
00 00 00 00
0
00 00 00 00
0
40 99 99 9A
4.8
00 00 00 00
0
40 93 33 33
4.6
00 00 00 00
0
00 00 00 00
0
43 9B 80 00
311
42 D2 66 66
105.2
42 76 66 66
61.6
00 00 00 00
0
43 10 00 00
144
44 A4 D9 9A
1318.8
43 ED 99 9A
475.2
43 78 66 66
248.4
00 00 00 00
0
44 14 C0 00
595
00 00 00 00
0
00 00 00 00
0
00 00 00 00
0
00 00 00 00
0
00 00 00 00
0
3F 4C CC CD
0.8
00 00 00 00
0
3F 4C CC CD
0.8
00 00 00 00
0
00 00 00 00
0
43 8C 66 66
280.8
42 D1 33 33
104.6
42 3B 33 33
46.8
00 00 00 00
0
43 01 E0 0E
129.87521
00 04 23 8C
271244
00 00 00 00
0
00 00 13 51
4945
00 00 A4 AE
42158
234.238234.393233.959405.732405.473405.386000000000000000000001374.2428.4313.20632.4000002.202.200318.6102.267.80148.41379.6448.4308.80622.2000004.804.600311105.261.601441318.8475.2248.40595000000.800.800280.8104.646.80129.875212020171127145045271.24404.94542.158insert into tbl_power_info_v2(P_A_DIANYA,P_B_DIANYA,P_C_DIANYA,P_UAB_XIANDIANYA,P_UBC_XIANDIANYA,P_UCA_XIANDIANYA,P_A_DIANLIU,P_B_DIANLIU,P_C_DIANLIU,P_A_YGGL,P_B_YGGL,P_C_YGGL,P_HXYGGL,P_A_WGGL,P_B_WGGL,P_C_WGGL,P_HXWGGL,P_A_SZGL,P_B_SZGL,P_C_SZGL,P_HXSZGL,P_A_GLYS,P_B_GLYS,P_C_GLYS,P_HXGLYS,P_DWPL,P_BY_KwhZ,P_BY_KwhJ,P_BY_KwhF,P_BY_KwhP,P_BY_KwhG,P_BY_HKwhZ,P_BY_HKwhJ,P_BY_HKwhF,P_BY_HKwhP,P_BY_HKwhG, P_BY_KvarhZ,P_BY_KvarhJ,P_BY_KvarhF,P_BY_KvarhP,P_BY_KvarhG, P_BY_HKvarhZ,P_BY_HKvarhJ,P_BY_HKvarhF,P_BY_HKvarhP,P_BY_HKvarhG, P_SY_KwhZ,P_SY_KwhJ,P_SY_KwhF,P_SY_KwhP,P_SY_KwhG, P_SY_HKwhZ,P_SY_HKwhJ,P_SY_HKwhF,P_SY_HKwhP,P_SY_HKwhG, P_SY_KvarhZ,P_SY_KvarhJ,P_SY_KvarhF,P_SY_KvarhP,P_SY_KvarhG, P_SY_HKvarhZ,P_SY_HKvarhJ,P_SY_HKvarhF,P_SY_HKvarhP,P_SY_HKvarhG, P_SSY_KwhZ,P_SSY_KwhJ,P_SSY_KwhF,P_SSY_KwhP,P_SSY_KwhG, P_SSY_HKwhZ,P_SSY_HKwhJ,P_SSY_HKwhF,P_SSY_HKwhP,P_SSY_HKwhG, P_SSY_KvarhZ,P_SSY_KvarhJ,P_SSY_KvarhF,P_SSY_KvarhP,P_SSY_KvarhG, P_SSY_HKvarhZ,P_SSY_HKvarhJ,P_SSY_HKvarhF,P_SSY_HKvarhP,P_SSY_HKvarhG,P_CODE,P_TIME,P_ZXYGDN,P_FXYGDN,P_ZXWGDN,P_FXWGDN)values(234.238,234.393,233.959,405.732,405.473,405.386,0,0,0,0,0,0,0,0,0,0,0,0,0,0,0,0,0,0,0,0,1374.2,428.4,313.2,0,632.4,0,0,0,0,0,2.2,0,2.2,0,0,318.6,102.2,67.8,0,148.4,1379.6,448.4,308.8,0,622.2,0,0,0,0,0,4.8,0,4.6,0,0,311,105.2,61.6,0,144,1318.8,475.2,248.4,0,595,0,0,0,0,0,0.8,0,0.8,0,0,280.8,104.6,46.8,0,129.87521,20,20171127145045,271.244,0,4.945,42.158)
写入成功读取完毕一个
write:15 03 00 38 00 34 C6 C4
15 03 68
2143 6B 02 4E 43 6A EC 4A 43 6A 7E FA 43 CB 78 F6 43 CB 36 66 43 CB 41 89 00 00 00 00 00 00 00 00 00 00 00 00 00 00 00 00 00 00 00 00 00 00 00 00 00 00 00 00 00 00 00 00 00 00 00 00 00 00 00 00 00 00 00 00 00 00 00 00 00 00 00 00 00 00 00 00 00 00 00 00 00 00 00 00 00 00 00 00 00 00 00 00 00 00 00 00 42 48 A0 93
write:15 03 07 CF 00 78 77 B7
15 03 F0
21totalsize 240
40 CC CC CD 00 00 00 00 40 A6 66 66 00 00 00 00 3F 99 99 9A 00 00 00 00 00 00 00 00 00 00 00 00 00 00 00 00 00 00 00 00 3E CC CC CD 00 00 00 00 3E CC CC CD 00 00 00 00 00 00 00 00 00 00 00 00 00 00 00 00 00 00 00 00 00 00 00 00 00 00 00 00 40 8C CC CD 00 00 00 00 40 66 66 66 00 00 00 00 3F 4C CC CD 00 00 00 00 00 00 00 00 00 00 00 00 00 00 00 00 00 00 00 00 00 00 00 00 00 00 00 00 00 00 00 00 00 00 00 00 00 00 00 00 00 00 00 00 00 00 00 00 00 00 00 00 00 00 00 00 00 00 00 00 42 1E 66 66 00 00 00 00 41 F3 33 33 00 00 00 00 41 13 33 33 00 00 00 00 00 00 00 00 00 00 00 00 00 00 00 00 00 00 00 00 42 D8 00 00 00 00 00 00 42 A3 33 33 00 00 00 00 41 D0 00 00 00 00 00 00 00 00 00 00 00 00 00 00 00 00 00 00 00 00 7F 8C
write:15 03 01 0F 00 08 76 E7
15 03 10
2100 00 18 95 00 00 00 00 00 00 1D 3D 00 00 8A E4
43 6B 02 4E
235.009
43 6A EC 4A
234.923
43 6A 7E FA
234.496
43 CB 78 F6
406.945
43 CB 36 66
406.425
43 CB 41 89
406.512
00 00 00 00
0
00 00 00 00
0
00 00 00 00
0
00 00 00 00
0
00 00 00 00
0
00 00 00 00
0
00 00 00 00
0
00 00 00 00
0
00 00 00 00
0
00 00 00 00
0
00 00 00 00
0
00 00 00 00
0
00 00 00 00
0
00 00 00 00
0
00 00 00 00
0
00 00 00 00
0
00 00 00 00
0
00 00 00 00
0
00 00 00 00
0
42 48 A0 93
50.15681
40 CC CC CD
6.4
00 00 00 00
0
40 A6 66 66
5.2
00 00 00 00
0
3F 99 99 9A
1.2
00 00 00 00
0
00 00 00 00
0
00 00 00 00
0
00 00 00 00
0
00 00 00 00
0
3E CC CC CD
0.4
00 00 00 00
0
3E CC CC CD
0.4
00 00 00 00
0
00 00 00 00
0
00 00 00 00
0
00 00 00 00
0
00 00 00 00
0
00 00 00 00
0
00 00 00 00
0
40 8C CC CD
4.4
00 00 00 00
0
40 66 66 66
3.6
00 00 00 00
0
3F 4C CC CD
0.8
00 00 00 00
0
00 00 00 00
0
00 00 00 00
0
00 00 00 00
0
00 00 00 00
0
00 00 00 00
0
00 00 00 00
0
00 00 00 00
0
00 00 00 00
0
00 00 00 00
0
00 00 00 00
0
00 00 00 00
0
00 00 00 00
0
00 00 00 00
0
00 00 00 00
0
42 1E 66 66
39.6
00 00 00 00
0
41 F3 33 33
30.4
00 00 00 00
0
41 13 33 33
9.2
00 00 00 00
0
00 00 00 00
0
00 00 00 00
0
00 00 00 00
0
00 00 00 00
0
42 D8 00 00
108
00 00 00 00
0
42 A3 33 33
81.6
00 00 00 00
0
41 D0 00 00
26
00 00 00 00
0
00 00 00 00
0
00 00 00 00
0
00 00 00 00
0
00 00 7F 8C
4.5755e-41
00 00 18 95
6293
00 00 00 00
0
00 00 1D 3D
7485
00 00 8A E4
35556
235.009234.923234.496406.945406.425406.512000000000000000000050.156816.405.201.2000000.400.400000004.403.600.800000000000000039.6030.409.200000108081.602600004.5755e-4121201711271451496.29307.48535.556insert into tbl_power_info_v2(P_A_DIANYA,P_B_DIANYA,P_C_DIANYA,P_UAB_XIANDIANYA,P_UBC_XIANDIANYA,P_UCA_XIANDIANYA,P_A_DIANLIU,P_B_DIANLIU,P_C_DIANLIU,P_A_YGGL,P_B_YGGL,P_C_YGGL,P_HXYGGL,P_A_WGGL,P_B_WGGL,P_C_WGGL,P_HXWGGL,P_A_SZGL,P_B_SZGL,P_C_SZGL,P_HXSZGL,P_A_GLYS,P_B_GLYS,P_C_GLYS,P_HXGLYS,P_DWPL,P_BY_KwhZ,P_BY_KwhJ,P_BY_KwhF,P_BY_KwhP,P_BY_KwhG,P_BY_HKwhZ,P_BY_HKwhJ,P_BY_HKwhF,P_BY_HKwhP,P_BY_HKwhG, P_BY_KvarhZ,P_BY_KvarhJ,P_BY_KvarhF,P_BY_KvarhP,P_BY_KvarhG, P_BY_HKvarhZ,P_BY_HKvarhJ,P_BY_HKvarhF,P_BY_HKvarhP,P_BY_HKvarhG, P_SY_KwhZ,P_SY_KwhJ,P_SY_KwhF,P_SY_KwhP,P_SY_KwhG, P_SY_HKwhZ,P_SY_HKwhJ,P_SY_HKwhF,P_SY_HKwhP,P_SY_HKwhG, P_SY_KvarhZ,P_SY_KvarhJ,P_SY_KvarhF,P_SY_KvarhP,P_SY_KvarhG, P_SY_HKvarhZ,P_SY_HKvarhJ,P_SY_HKvarhF,P_SY_HKvarhP,P_SY_HKvarhG, P_SSY_KwhZ,P_SSY_KwhJ,P_SSY_KwhF,P_SSY_KwhP,P_SSY_KwhG, P_SSY_HKwhZ,P_SSY_HKwhJ,P_SSY_HKwhF,P_SSY_HKwhP,P_SSY_HKwhG, P_SSY_KvarhZ,P_SSY_KvarhJ,P_SSY_KvarhF,P_SSY_KvarhP,P_SSY_KvarhG, P_SSY_HKvarhZ,P_SSY_HKvarhJ,P_SSY_HKvarhF,P_SSY_HKvarhP,P_SSY_HKvarhG,P_CODE,P_TIME,P_ZXYGDN,P_FXYGDN,P_ZXWGDN,P_FXWGDN)values(235.009,234.923,234.496,406.945,406.425,406.512,0,0,0,0,0,0,0,0,0,0,0,0,0,0,0,0,0,0,0,50.15681,6.4,0,5.2,0,1.2,0,0,0,0,0,0.4,0,0.4,0,0,0,0,0,0,0,4.4,0,3.6,0,0.8,0,0,0,0,0,0,0,0,0,0,0,0,0,0,0,39.6,0,30.4,0,9.2,0,0,0,0,0,108,0,81.6,0,26,0,0,0,0,4.5755e-41,21,20171127145149,6.293,0,7.485,35.556)
写入成功读取完毕一个
write:16 03 00 38 00 34 C6 F7
write:15 03 01 0F 00 08 76 E7
15 03 10
2100 00 18 95 00 00 00 00 00 00 1D 3D 00 00 8A E4
write:16 03 00 38 00 34 C6 F7
write:16 03 07 CF 00 78 77 84
write:16 03 01 0F 00 08 76 D4
write:17 03 00 38 00 34 C7 26
17 03 68
2343 6A 7E B8 43 6A 5D B2 43 6A 17 8D 43 CA F3 F8 43 CA C7 8D 43 CA D2 B0 41 2E 14 7B 40 9C 28 F6 40 70 A3 D7 45 1D 80 00 44 87 00 00 44 52 00 00 45 89 80 00 42 A0 00 00 42 A0 00 00 00 00 00 00 43 48 00 00 45 20 00 00 44 91 00 00 44 5C 00 00 45 8A C0 00 3F 7E 76 C9 3F 6D 0E 56 3F 6E D9 17 3F 7F BE 77 42 48 46 85
write:17 03 07 CF 00 78 76 55
17 03 F0
23totalsize 240
44 AD 66 66 43 71 99 9A 44 61 59 9A 00 00 00 00 43 74 00 00 00 00 00 00 00 00 00 00 00 00 00 00 00 00 00 00 00 00 00 00 42 1F 33 33 40 80 00 00 41 F4 CC CD 00 00 00 00 40 A0 00 00 42 6D 99 9A 41 4C CC CD 41 BC CC CD 00 00 00 00 41 B8 00 00 44 AC 0C CD 43 8E E6 66 44 54 80 00 00 00 00 00 43 70 33 33 00 00 00 00 00 00 00 00 00 00 00 00 00 00 00 00 00 00 00 00 41 16 66 66 3E CC CC CD 40 D9 99 9A 00 00 00 00 3F E6 66 66 42 D5 33 33 41 BB 33 33 42 46 66 66 00 00 00 00 42 05 99 9A 44 EF 33 33 43 86 66 66 44 9D 8C CD 00 00 00 00 43 C0 19 9A 00 00 00 00 00 00 00 00 00 00 00 00 00 00 00 00 00 00 00 00 41 66 66 66 3F 19 99 9A 41 20 00 00 00 00 00 00 40 73 33 33 42 8D 99 9A 41 56 66 66 41 F6 66 66 00 00 00 00 41 D3 0D 27
write:17 03 01 0F 00 08 77 05
17 03 10
2300 03 F6 4E 00 00 00 00 00 00 E8 1C 00 00 73 97
43 6A 7E B8
234.495
43 6A 5D B2
234.366
43 6A 17 8D
234.092
43 CA F3 F8
405.906
43 CA C7 8D
405.559
43 CA D2 B0
405.646
41 2E 14 7B
10.88
40 9C 28 F6
4.88
40 70 A3 D7
3.76
45 1D 80 00
2520
44 87 00 00
1080
44 52 00 00
840
45 89 80 00
4400
42 A0 00 00
80
42 A0 00 00
80
00 00 00 00
0
43 48 00 00
200
45 20 00 00
2560
44 91 00 00
1160
44 5C 00 00
880
45 8A C0 00
4440
3F 7E 76 C9
0.994
3F 6D 0E 56
0.926
3F 6E D9 17
0.933
3F 7F BE 77
0.999
42 48 46 85
50.068867
44 AD 66 66
1387.2
43 71 99 9A
241.6
44 61 59 9A
901.4
00 00 00 00
0
43 74 00 00
244
00 00 00 00
0
00 00 00 00
0
00 00 00 00
0
00 00 00 00
0
00 00 00 00
0
42 1F 33 33
39.8
40 80 00 00
4
41 F4 CC CD
30.6
00 00 00 00
0
40 A0 00 00
5
42 6D 99 9A
59.4
41 4C CC CD
12.8
41 BC CC CD
23.6
00 00 00 00
0
41 B8 00 00
23
44 AC 0C CD
1376.4
43 8E E6 66
285.8
44 54 80 00
850
00 00 00 00
0
43 70 33 33
240.2
00 00 00 00
0
00 00 00 00
0
00 00 00 00
0
00 00 00 00
0
00 00 00 00
0
41 16 66 66
9.4
3E CC CC CD
0.4
40 D9 99 9A
6.8
00 00 00 00
0
3F E6 66 66
1.8
42 D5 33 33
106.6
41 BB 33 33
23.4
42 46 66 66
49.6
00 00 00 00
0
42 05 99 9A
33.4
44 EF 33 33
1913.6
43 86 66 66
268.8
44 9D 8C CD
1260.4
00 00 00 00
0
43 C0 19 9A
384.2
00 00 00 00
0
00 00 00 00
0
00 00 00 00
0
00 00 00 00
0
00 00 00 00
0
41 66 66 66
14.4
3F 19 99 9A
0.6
41 20 00 00
10
00 00 00 00
0
40 73 33 33
3.8
42 8D 99 9A
70.8
41 56 66 66
13.4
41 F6 66 66
30.8
00 00 00 00
0
41 D3 0D 27
26.381422
00 03 F6 4E
259662
00 00 00 00
0
00 00 E8 1C
59420
00 00 73 97
29591
234.495234.366234.092405.906405.559405.64610.884.883.76252010808404400808002002560116088044400.9940.9260.9330.99950.0688671387.2241.6901.402440000039.8430.60559.412.823.60231376.4285.88500240.2000009.40.46.801.8106.623.449.6033.41913.6268.81260.40384.20000014.40.61003.870.813.430.8026.3814222320171127145426259.662059.4229.591insert into tbl_power_info_v2(P_A_DIANYA,P_B_DIANYA,P_C_DIANYA,P_UAB_XIANDIANYA,P_UBC_XIANDIANYA,P_UCA_XIANDIANYA,P_A_DIANLIU,P_B_DIANLIU,P_C_DIANLIU,P_A_YGGL,P_B_YGGL,P_C_YGGL,P_HXYGGL,P_A_WGGL,P_B_WGGL,P_C_WGGL,P_HXWGGL,P_A_SZGL,P_B_SZGL,P_C_SZGL,P_HXSZGL,P_A_GLYS,P_B_GLYS,P_C_GLYS,P_HXGLYS,P_DWPL,P_BY_KwhZ,P_BY_KwhJ,P_BY_KwhF,P_BY_KwhP,P_BY_KwhG,P_BY_HKwhZ,P_BY_HKwhJ,P_BY_HKwhF,P_BY_HKwhP,P_BY_HKwhG, P_BY_KvarhZ,P_BY_KvarhJ,P_BY_KvarhF,P_BY_KvarhP,P_BY_KvarhG, P_BY_HKvarhZ,P_BY_HKvarhJ,P_BY_HKvarhF,P_BY_HKvarhP,P_BY_HKvarhG, P_SY_KwhZ,P_SY_KwhJ,P_SY_KwhF,P_SY_KwhP,P_SY_KwhG, P_SY_HKwhZ,P_SY_HKwhJ,P_SY_HKwhF,P_SY_HKwhP,P_SY_HKwhG, P_SY_KvarhZ,P_SY_KvarhJ,P_SY_KvarhF,P_SY_KvarhP,P_SY_KvarhG, P_SY_HKvarhZ,P_SY_HKvarhJ,P_SY_HKvarhF,P_SY_HKvarhP,P_SY_HKvarhG, P_SSY_KwhZ,P_SSY_KwhJ,P_SSY_KwhF,P_SSY_KwhP,P_SSY_KwhG, P_SSY_HKwhZ,P_SSY_HKwhJ,P_SSY_HKwhF,P_SSY_HKwhP,P_SSY_HKwhG, P_SSY_KvarhZ,P_SSY_KvarhJ,P_SSY_KvarhF,P_SSY_KvarhP,P_SSY_KvarhG, P_SSY_HKvarhZ,P_SSY_HKvarhJ,P_SSY_HKvarhF,P_SSY_HKvarhP,P_SSY_HKvarhG,P_CODE,P_TIME,P_ZXYGDN,P_FXYGDN,P_ZXWGDN,P_FXWGDN)values(234.495,234.366,234.092,405.906,405.559,405.646,10.88,4.88,3.76,2520,1080,840,4400,80,80,0,200,2560,1160,880,4440,0.994,0.926,0.933,0.999,50.068867,1387.2,241.6,901.4,0,244,0,0,0,0,0,39.8,4,30.6,0,5,59.4,12.8,23.6,0,23,1376.4,285.8,850,0,240.2,0,0,0,0,0,9.4,0.4,6.8,0,1.8,106.6,23.4,49.6,0,33.4,1913.6,268.8,1260.4,0,384.2,0,0,0,0,0,14.4,0.6,10,0,3.8,70.8,13.4,30.8,0,26.381422,23,20171127145426,259.662,0,59.42,29.591)
写入成功读取完毕一个
write:18 03 00 38 00 34 C7 D9
18 03 68
2443 6A AF DF 43 6A 95 C3 43 6A 37 CF 43 CB 20 42 43 CA F3 F8 43 CA FE FA 40 51 EB 85 3F AE 14 7B 40 14 7A E1 44 02 00 00 43 70 00 00 44 02 00 00 44 A0 00 00 42 F0 00 00 00 00 00 00 00 00 00 00 42 F0 00 00 44 3E 00 00 43 A0 00 00 44 0C 00 00 44 A0 00 00 3F 32 6E 98 3F 3B E7 6D 3F 74 FD F4 3F 7E F9 DB 42 48 A3 E7
write:18 03 07 CF 00 78 76 AA
18 03 F0
24totalsize 240
44 74 4C CD 43 65 99 9A 44 05 CC CD 00 00 00 00 43 54 33 33 00 00 00 00 00 00 00 00 00 00 00 00 00 00 00 00 00 00 00 00 43 4F CC CD 42 08 CC CD 42 FA 66 66 00 00 00 00 42 40 CC CD 41 D8 00 00 40 F3 33 33 41 76 66 66 00 00 00 00 40 73 33 33 44 19 99 9A 43 00 00 00 43 A7 CC CD 00 00 00 00 43 16 99 9A 00 00 00 00 00 00 00 00 00 00 00 00 00 00 00 00 00 00 00 00 42 45 99 9A 3F 80 00 00 42 09 99 9A 00 00 00 00 41 60 00 00 42 0A 66 66 41 00 00 00 41 AC CC CD 00 00 00 00 40 99 99 9A 44 3F E6 66 43 0C 33 33 43 D9 E6 66 00 00 00 00 43 3F 66 66 00 00 00 00 00 00 00 00 00 00 00 00 00 00 00 00 00 00 00 00 43 A3 99 9A 41 A8 00 00 43 6C 99 9A 00 00 00 00 42 8A CC CD 42 1B 33 33 41 23 33 33 41 A6 66 66 00 00 00 00 40 F9 AC 49
write:18 03 01 0F 00 08 77 FA
18 03 10
2400 02 0A 36 00 00 00 00 00 00 C8 E2 00 00 9F 83
43 6A AF DF
234.687
43 6A 95 C3
234.585
43 6A 37 CF
234.218
43 CB 20 42
406.252
43 CA F3 F8
405.906
43 CA FE FA
405.992
40 51 EB 85
3.28
3F AE 14 7B
1.36
40 14 7A E1
2.32
44 02 00 00
520
43 70 00 00
240
44 02 00 00
520
44 A0 00 00
1280
42 F0 00 00
120
00 00 00 00
0
00 00 00 00
0
42 F0 00 00
120
44 3E 00 00
760
43 A0 00 00
320
44 0C 00 00
560
44 A0 00 00
1280
3F 32 6E 98
0.697
3F 3B E7 6D
0.734
3F 74 FD F4
0.957
3F 7E F9 DB
0.996
42 48 A3 E7
50.16006
44 74 4C CD
977.2
43 65 99 9A
229.6
44 05 CC CD
535.2
00 00 00 00
0
43 54 33 33
212.2
00 00 00 00
0
00 00 00 00
0
00 00 00 00
0
00 00 00 00
0
00 00 00 00
0
43 4F CC CD
207.8
42 08 CC CD
34.2
42 FA 66 66
125.2
00 00 00 00
0
42 40 CC CD
48.2
41 D8 00 00
27
40 F3 33 33
7.6
41 76 66 66
15.4
00 00 00 00
0
40 73 33 33
3.8
44 19 99 9A
614.4
43 00 00 00
128
43 A7 CC CD
335.6
00 00 00 00
0
43 16 99 9A
150.6
00 00 00 00
0
00 00 00 00
0
00 00 00 00
0
00 00 00 00
0
00 00 00 00
0
42 45 99 9A
49.4
3F 80 00 00
1
42 09 99 9A
34.4
00 00 00 00
0
41 60 00 00
14
42 0A 66 66
34.6
41 00 00 00
8
41 AC CC CD
21.6
00 00 00 00
0
40 99 99 9A
4.8
44 3F E6 66
767.6
43 0C 33 33
140.2
43 D9 E6 66
435.8
00 00 00 00
0
43 3F 66 66
191.4
00 00 00 00
0
00 00 00 00
0
00 00 00 00
0
00 00 00 00
0
00 00 00 00
0
43 A3 99 9A
327.2
41 A8 00 00
21
43 6C 99 9A
236.6
00 00 00 00
0
42 8A CC CD
69.4
42 1B 33 33
38.8
41 23 33 33
10.2
41 A6 66 66
20.8
00 00 00 00
0
40 F9 AC 49
7.802281
00 02 0A 36
133686
00 00 00 00
0
00 00 C8 E2
51426
00 00 9F 83
40835
234.687234.585234.218406.252405.906405.9923.281.362.3252024052012801200012076032056012800.6970.7340.9570.99650.16006977.2229.6535.20212.200000207.834.2125.2048.2277.615.403.8614.4128335.60150.60000049.4134.401434.6821.604.8767.6140.2435.80191.400000327.221236.6069.438.810.220.807.8022812420171127145525133.686051.42640.835insert into tbl_power_info_v2(P_A_DIANYA,P_B_DIANYA,P_C_DIANYA,P_UAB_XIANDIANYA,P_UBC_XIANDIANYA,P_UCA_XIANDIANYA,P_A_DIANLIU,P_B_DIANLIU,P_C_DIANLIU,P_A_YGGL,P_B_YGGL,P_C_YGGL,P_HXYGGL,P_A_WGGL,P_B_WGGL,P_C_WGGL,P_HXWGGL,P_A_SZGL,P_B_SZGL,P_C_SZGL,P_HXSZGL,P_A_GLYS,P_B_GLYS,P_C_GLYS,P_HXGLYS,P_DWPL,P_BY_KwhZ,P_BY_KwhJ,P_BY_KwhF,P_BY_KwhP,P_BY_KwhG,P_BY_HKwhZ,P_BY_HKwhJ,P_BY_HKwhF,P_BY_HKwhP,P_BY_HKwhG, P_BY_KvarhZ,P_BY_KvarhJ,P_BY_KvarhF,P_BY_KvarhP,P_BY_KvarhG, P_BY_HKvarhZ,P_BY_HKvarhJ,P_BY_HKvarhF,P_BY_HKvarhP,P_BY_HKvarhG, P_SY_KwhZ,P_SY_KwhJ,P_SY_KwhF,P_SY_KwhP,P_SY_KwhG, P_SY_HKwhZ,P_SY_HKwhJ,P_SY_HKwhF,P_SY_HKwhP,P_SY_HKwhG, P_SY_KvarhZ,P_SY_KvarhJ,P_SY_KvarhF,P_SY_KvarhP,P_SY_KvarhG, P_SY_HKvarhZ,P_SY_HKvarhJ,P_SY_HKvarhF,P_SY_HKvarhP,P_SY_HKvarhG, P_SSY_KwhZ,P_SSY_KwhJ,P_SSY_KwhF,P_SSY_KwhP,P_SSY_KwhG, P_SSY_HKwhZ,P_SSY_HKwhJ,P_SSY_HKwhF,P_SSY_HKwhP,P_SSY_HKwhG, P_SSY_KvarhZ,P_SSY_KvarhJ,P_SSY_KvarhF,P_SSY_KvarhP,P_SSY_KvarhG, P_SSY_HKvarhZ,P_SSY_HKvarhJ,P_SSY_HKvarhF,P_SSY_HKvarhP,P_SSY_HKvarhG,P_CODE,P_TIME,P_ZXYGDN,P_FXYGDN,P_ZXWGDN,P_FXWGDN)values(234.687,234.585,234.218,406.252,405.906,405.992,3.28,1.36,2.32,520,240,520,1280,120,0,0,120,760,320,560,1280,0.697,0.734,0.957,0.996,50.16006,977.2,229.6,535.2,0,212.2,0,0,0,0,0,207.8,34.2,125.2,0,48.2,27,7.6,15.4,0,3.8,614.4,128,335.6,0,150.6,0,0,0,0,0,49.4,1,34.4,0,14,34.6,8,21.6,0,4.8,767.6,140.2,435.8,0,191.4,0,0,0,0,0,327.2,21,236.6,0,69.4,38.8,10.2,20.8,0,7.802281,24,20171127145525,133.686,0,51.426,40.835)
写入成功读取完毕一个
write:19 03 00 38 00 34 C6 08
19 03 68
2543 6A 10 62 43 69 F6 87 43 69 C6 E9 43 CA 9B 44 43 CA 79 FC 43 CA 85 1F 3F 19 99 9A 3F BD 70 A4 3F 61 47 AE 42 F0 00 00 43 48 00 00 43 20 00 00 43 DC 00 00 00 00 00 00 42 A0 00 00 00 00 00 00 42 F0 00 00 43 20 00 00 43 B4 00 00 43 48 00 00 43 F0 00 00 3F 49 FB E7 3F 0E 14 7B 3F 40 41 89 3F 79 DB 23 42 48 16 28
write:19 03 07 CF 00 78 77 7B
19 03 F0
25totalsize 240
43 C8 99 9A 42 37 33 33 43 63 33 33 00 00 00 00 43 00 00 00 00 00 00 00 00 00 00 00 00 00 00 00 00 00 00 00 00 00 00 00 41 7C CC CD 00 00 00 00 41 66 66 66 00 00 00 00 3F B3 33 33 42 26 66 66 40 F3 33 33 41 83 33 33 00 00 00 00 41 8B 33 33 43 B7 B3 33 42 3F 33 33 43 3E 00 00 00 00 00 00 43 01 66 66 00 00 00 00 00 00 00 00 00 00 00 00 00 00 00 00 00 00 00 00 41 10 00 00 00 00 00 00 40 C6 66 66 00 00 00 00 40 26 66 66 42 63 33 33 41 29 99 9A 41 BC CC CD 00 00 00 00 41 B3 33 33 43 A0 E6 66 42 0F 33 33 43 2B CC CD 00 00 00 00 42 E4 00 00 00 00 00 00 00 00 00 00 00 00 00 00 00 00 00 00 00 00 00 00 3E CC CC CD 00 00 00 00 3E 4C CC CD 00 00 00 00 00 00 00 00 42 21 99 9A 40 B9 99 9A 41 A3 33 33 00 00 00 00 41 60 95 94
write:19 03 01 0F 00 08 76 2B
19 03 10
2500 00 F6 B6 00 00 00 00 00 00 06 AA 00 00 E1 10
43 6A 10 62
234.064
43 69 F6 87
233.963
43 69 C6 E9
233.777
43 CA 9B 44
405.213
43 CA 79 FC
404.953
43 CA 85 1F
405.04
3F 19 99 9A
0.6
3F BD 70 A4
1.48
3F 61 47 AE
0.88
42 F0 00 00
120
43 48 00 00
200
43 20 00 00
160
43 DC 00 00
440
00 00 00 00
0
42 A0 00 00
80
00 00 00 00
0
42 F0 00 00
120
43 20 00 00
160
43 B4 00 00
360
43 48 00 00
200
43 F0 00 00
480
3F 49 FB E7
0.789
3F 0E 14 7B
0.555
3F 40 41 89
0.751
3F 79 DB 23
0.976
42 48 16 28
50.021637
43 C8 99 9A
401.2
42 37 33 33
45.8
43 63 33 33
227.2
00 00 00 00
0
43 00 00 00
128
00 00 00 00
0
00 00 00 00
0
00 00 00 00
0
00 00 00 00
0
00 00 00 00
0
41 7C CC CD
15.8
00 00 00 00
0
41 66 66 66
14.4
00 00 00 00
0
3F B3 33 33
1.4
42 26 66 66
41.6
40 F3 33 33
7.6
41 83 33 33
16.4
00 00 00 00
0
41 8B 33 33
17.4
43 B7 B3 33
367.4
42 3F 33 33
47.8
43 3E 00 00
190
00 00 00 00
0
43 01 66 66
129.4
00 00 00 00
0
00 00 00 00
0
00 00 00 00
0
00 00 00 00
0
00 00 00 00
0
41 10 00 00
9
00 00 00 00
0
40 C6 66 66
6.2
00 00 00 00
0
40 26 66 66
2.6
42 63 33 33
56.8
41 29 99 9A
10.6
41 BC CC CD
23.6
00 00 00 00
0
41 B3 33 33
22.4
43 A0 E6 66
321.8
42 0F 33 33
35.8
43 2B CC CD
171.8
00 00 00 00
0
42 E4 00 00
114
00 00 00 00
0
00 00 00 00
0
00 00 00 00
0
00 00 00 00
0
00 00 00 00
0
3E CC CC CD
0.4
00 00 00 00
0
3E 4C CC CD
0.2
00 00 00 00
0
00 00 00 00
0
42 21 99 9A
40.4
40 B9 99 9A
5.8
41 A3 33 33
20.4
00 00 00 00
0
41 60 95 94
14.036518
00 00 F6 B6
63158
00 00 00 00
0
00 00 06 AA
1706
00 00 E1 10
57616
234.064233.963233.777405.213404.953405.040.61.480.8812020016044008001201603602004800.7890.5550.7510.97650.021637401.245.8227.201280000015.8014.401.441.67.616.4017.4367.447.81900129.400000906.202.656.810.623.6022.4321.835.8171.80114000000.400.20040.45.820.4014.036518252017112714562563.15801.70657.616insert into tbl_power_info_v2(P_A_DIANYA,P_B_DIANYA,P_C_DIANYA,P_UAB_XIANDIANYA,P_UBC_XIANDIANYA,P_UCA_XIANDIANYA,P_A_DIANLIU,P_B_DIANLIU,P_C_DIANLIU,P_A_YGGL,P_B_YGGL,P_C_YGGL,P_HXYGGL,P_A_WGGL,P_B_WGGL,P_C_WGGL,P_HXWGGL,P_A_SZGL,P_B_SZGL,P_C_SZGL,P_HXSZGL,P_A_GLYS,P_B_GLYS,P_C_GLYS,P_HXGLYS,P_DWPL,P_BY_KwhZ,P_BY_KwhJ,P_BY_KwhF,P_BY_KwhP,P_BY_KwhG,P_BY_HKwhZ,P_BY_HKwhJ,P_BY_HKwhF,P_BY_HKwhP,P_BY_HKwhG, P_BY_KvarhZ,P_BY_KvarhJ,P_BY_KvarhF,P_BY_KvarhP,P_BY_KvarhG, P_BY_HKvarhZ,P_BY_HKvarhJ,P_BY_HKvarhF,P_BY_HKvarhP,P_BY_HKvarhG, P_SY_KwhZ,P_SY_KwhJ,P_SY_KwhF,P_SY_KwhP,P_SY_KwhG, P_SY_HKwhZ,P_SY_HKwhJ,P_SY_HKwhF,P_SY_HKwhP,P_SY_HKwhG, P_SY_KvarhZ,P_SY_KvarhJ,P_SY_KvarhF,P_SY_KvarhP,P_SY_KvarhG, P_SY_HKvarhZ,P_SY_HKvarhJ,P_SY_HKvarhF,P_SY_HKvarhP,P_SY_HKvarhG, P_SSY_KwhZ,P_SSY_KwhJ,P_SSY_KwhF,P_SSY_KwhP,P_SSY_KwhG, P_SSY_HKwhZ,P_SSY_HKwhJ,P_SSY_HKwhF,P_SSY_HKwhP,P_SSY_HKwhG, P_SSY_KvarhZ,P_SSY_KvarhJ,P_SSY_KvarhF,P_SSY_KvarhP,P_SSY_KvarhG, P_SSY_HKvarhZ,P_SSY_HKvarhJ,P_SSY_HKvarhF,P_SSY_HKvarhP,P_SSY_HKvarhG,P_CODE,P_TIME,P_ZXYGDN,P_FXYGDN,P_ZXWGDN,P_FXWGDN)values(234.064,233.963,233.777,405.213,404.953,405.04,0.6,1.48,0.88,120,200,160,440,0,80,0,120,160,360,200,480,0.789,0.555,0.751,0.976,50.021637,401.2,45.8,227.2,0,128,0,0,0,0,0,15.8,0,14.4,0,1.4,41.6,7.6,16.4,0,17.4,367.4,47.8,190,0,129.4,0,0,0,0,0,9,0,6.2,0,2.6,56.8,10.6,23.6,0,22.4,321.8,35.8,171.8,0,114,0,0,0,0,0,0.4,0,0.2,0,0,40.4,5.8,20.4,0,14.036518,25,20171127145625,63.158,0,1.706,57.616)
写入成功读取完毕一个
write:0E 03 00 38 00 34 C5 2F
write:0E 03 07 CF 00 78 74 5C
write:0E 03 01 0F 00 08 75 0C
write:0F 03 00 38 00 34 C4 FE
34 30 36
heart:34 30 36 36 32 33 30 31 30 34 33 35 2C 72 75 69
write:0F 03 07 CF 00 78 75 8D
write:0F 03 01 0F 00 08 74 DD
write:10 03 00 38 00 34 C6 91
write:10 03 07 CF 00 78 77 E2
write:10 03 01 0F 00 08 76 B2
34 30 36
heart:34 30 36 36 32 33 30 31 30 34 33 35 2C 72 75 69
write:11 03 00 38 00 34 C7 40
write:11 03 07 CF 00 78 76 33
write:11 03 01 0F 00 08 77 63
write:12 03 00 38 00 34 C7 73
12 03 68
1843 6A 4C 8B 43 69 FF 7D 43 69 E5 1F 43 CA B1 68 43 CA 85 1F 43 CA A6 46 43 6C 28 F6 43 7C B8 52 43 73 1E B8 47 4A 80 00 47 5A 70 00 47 54 58 00 48 1E 34 00 46 6A 60 00 46 6A 60 00 46 46 C0 00 47 26 E0 00 47 58 18 00 47 67 18 00 47 5E 30 00 48 23 98 00 3F 6F DF 3B 3F 71 EB 85 3F 74 BC 6A 3F 77 8D 50 42 48 F3 CD
write:12 03 07 CF 00 78 76 00
12 03 F0
18totalsize 240
47 98 CD 4D 46 3E 05 9A 47 0F 8B 00 00 00 00 00 46 E5 1B 33 00 00 00 00 00 00 00 00 00 00 00 00 00 00 00 00 00 00 00 00 46 8E B0 00 45 29 29 9A 46 15 1C 00 00 00 00 00 45 BB F3 33 00 00 00 00 00 00 00 00 00 00 00 00 00 00 00 00 00 00 00 00 47 A9 B7 80 46 5C 9F 33 47 22 D6 CD 00 00 00 00 46 F2 DF 9A 00 00 00 00 00 00 00 00 00 00 00 00 00 00 00 00 00 00 00 00 46 B2 70 66 45 65 B9 9A 46 3A EB 33 00 00 00 00 45 E1 09 9A 00 00 00 00 00 00 00 00 00 00 00 00 00 00 00 00 00 00 00 00 47 82 8D CD 46 41 63 33 46 D4 77 33 00 00 00 00 46 D5 0E 66 00 00 00 00 00 00 00 00 00 00 00 00 00 00 00 00 00 00 00 00 46 95 B4 66 45 65 46 66 45 FB B3 33 00 00 00 00 45 E8 7B 33 00 00 00 00 00 00 00 00 00 00 00 00 00 00 00 00 00 00 B1 3E
write:12 03 01 0F 00 08 77 50
12 03 10
1800 41 71 8B 00 00 00 00 00 14 13 CC 00 00 5C 7D
43 6A 4C 8B
234.299
43 69 FF 7D
233.998
43 69 E5 1F
233.895
43 CA B1 68
405.386
43 CA 85 1F
405.04
43 CA A6 46
405.299
43 6C 28 F6
236.16
43 7C B8 52
252.72
43 73 1E B8
243.12
47 4A 80 00
51840
47 5A 70 00
55920
47 54 58 00
54360
48 1E 34 00
162000
46 6A 60 00
15000
46 6A 60 00
15000
46 46 C0 00
12720
47 26 E0 00
42720
47 58 18 00
55320
47 67 18 00
59160
47 5E 30 00
56880
48 23 98 00
167520
3F 6F DF 3B
0.937
3F 71 EB 85
0.945
3F 74 BC 6A
0.956
3F 77 8D 50
0.967
42 48 F3 CD
50.238087
47 98 CD 4D
78234.6
46 3E 05 9A
12161.4
47 0F 8B 00
36747
00 00 00 00
0
46 E5 1B 33
29325.6
00 00 00 00
0
00 00 00 00
0
00 00 00 00
0
00 00 00 00
0
00 00 00 00
0
46 8E B0 00
18264
45 29 29 9A
2706.6
46 15 1C 00
9543
00 00 00 00
0
45 BB F3 33
6014.4
00 00 00 00
0
00 00 00 00
0
00 00 00 00
0
00 00 00 00
0
00 00 00 00
0
47 A9 B7 80
86895
46 5C 9F 33
14119.8
47 22 D6 CD
41686.8
00 00 00 00
0
46 F2 DF 9A
31087.8
00 00 00 00
0
00 00 00 00
0
00 00 00 00
0
00 00 00 00
0
00 00 00 00
0
46 B2 70 66
22840.2
45 65 B9 9A
3675.6
46 3A EB 33
11962.8
00 00 00 00
0
45 E1 09 9A
7201.2
00 00 00 00
0
00 00 00 00
0
00 00 00 00
0
00 00 00 00
0
00 00 00 00
0
47 82 8D CD
66843.6
46 41 63 33
12376.8
46 D4 77 33
27195.6
00 00 00 00
0
46 D5 0E 66
27271.2
00 00 00 00
0
00 00 00 00
0
00 00 00 00
0
00 00 00 00
0
00 00 00 00
0
46 95 B4 66
19162.2
45 65 46 66
3668.4
45 FB B3 33
8054.4
00 00 00 00
0
45 E8 7B 33
7439.4
00 00 00 00
0
00 00 00 00
0
00 00 00 00
0
00 00 00 00
0
00 00 B1 3E
6.3583e-41
00 41 71 8B
4288907
00 00 00 00
0
00 14 13 CC
1315788
00 00 5C 7D
23677
