nohup: ignoring input
Listening on :6005
received messag ?->? 
 124.160.213.12:30893 172.16.246.153:6005
34 30 36
heart:34 30 36 36 32 33 30 31 30 31 30 35 30 32
write:01 03 00 38 00 34 C5 D0
01 03 68
143 6A 36 87 43 6A BF 7D 43 6A 3A A0 43 CB 0A 1D 43 CB 0A 1D 43 CA D2 B0 41 07 AE 14 40 B5 C2 8F 00 00 00 00 44 A0 00 00 44 82 00 00 00 00 00 00 45 16 00 00 43 C8 00 00 43 20 00 00 00 00 00 00 44 0C 00 00 44 FA 00 00 44 AA 00 00 00 00 00 00 45 1B 00 00 3F 2A 3D 71 3F 4C 08 31 00 00 00 00 3F 79 58 10 42 48 11 C1
write:01 03 07 CF 00 78 74 A3
01 03 F0
1totalsize 240
44 0B 80 00 42 44 CC CD 43 AF 00 00 00 00 00 00 43 1E 66 66 00 00 00 00 00 00 00 00 00 00 00 00 00 00 00 00 00 00 00 00 3F 4C CC CD 00 00 00 00 3F 4C CC CD 00 00 00 00 00 00 00 00 43 30 CC CD 41 BC CC CD 42 B2 66 66 00 00 00 00 42 7E 66 66 44 0E 99 9A 42 56 66 66 43 B2 00 00 00 00 00 00 43 20 00 00 00 00 00 00 00 00 00 00 00 00 00 00 00 00 00 00 00 00 00 00 3F CC CC CD 00 00 00 00 3F CC CC CD 00 00 00 00 00 00 00 00 43 33 33 33 41 C0 00 00 42 B7 33 33 00 00 00 00 42 7C CC CD 44 42 66 66 42 AF 33 33 43 F7 66 66 00 00 00 00 43 42 CC CD 00 00 00 00 00 00 00 00 00 00 00 00 00 00 00 00 00 00 00 00 42 21 99 9A 3F CC CC CD 41 F3 33 33 00 00 00 00 41 00 00 00 43 36 CC CD 41 DC CC CD 42 BE 66 66 00 00 00 00 42 6E 9F 97
write:01 03 01 0F 00 08 75 F3
01 03 10
100 01 A1 C2 00 00 00 00 00 00 8A CF 00 00 75 46
43 6A 36 87
234.213
43 6A BF 7D
234.748
43 6A 3A A0
234.229
43 CB 0A 1D
406.079
43 CB 0A 1D
406.079
43 CA D2 B0
405.646
41 07 AE 14
8.48
40 B5 C2 8F
5.68
00 00 00 00
0
44 A0 00 00
1280
44 82 00 00
1040
00 00 00 00
0
45 16 00 00
2400
43 C8 00 00
400
43 20 00 00
160
00 00 00 00
0
44 0C 00 00
560
44 FA 00 00
2000
44 AA 00 00
1360
00 00 00 00
0
45 1B 00 00
2480
3F 2A 3D 71
0.665
3F 4C 08 31
0.797
00 00 00 00
0
3F 79 58 10
0.974
42 48 11 C1
50.017338
44 0B 80 00
558
42 44 CC CD
49.2
43 AF 00 00
350
00 00 00 00
0
43 1E 66 66
158.4
00 00 00 00
0
00 00 00 00
0
00 00 00 00
0
00 00 00 00
0
00 00 00 00
0
3F 4C CC CD
0.8
00 00 00 00
0
3F 4C CC CD
0.8
00 00 00 00
0
00 00 00 00
0
43 30 CC CD
176.8
41 BC CC CD
23.6
42 B2 66 66
89.2
00 00 00 00
0
42 7E 66 66
63.6
44 0E 99 9A
570.4
42 56 66 66
53.6
43 B2 00 00
356
00 00 00 00
0
43 20 00 00
160
00 00 00 00
0
00 00 00 00
0
00 00 00 00
0
00 00 00 00
0
00 00 00 00
0
3F CC CC CD
1.6
00 00 00 00
0
3F CC CC CD
1.6
00 00 00 00
0
00 00 00 00
0
43 33 33 33
179.2
41 C0 00 00
24
42 B7 33 33
91.6
00 00 00 00
0
42 7C CC CD
63.2
44 42 66 66
777.6
42 AF 33 33
87.6
43 F7 66 66
494.8
00 00 00 00
0
43 42 CC CD
194.8
00 00 00 00
0
00 00 00 00
0
00 00 00 00
0
00 00 00 00
0
00 00 00 00
0
42 21 99 9A
40.4
3F CC CC CD
1.6
41 F3 33 33
30.4
00 00 00 00
0
41 00 00 00
8
43 36 CC CD
182.8
41 DC CC CD
27.6
42 BE 66 66
95.2
00 00 00 00
0
42 6E 9F 97
59.65585
00 01 A1 C2
106946
00 00 00 00
0
00 00 8A CF
35535
00 00 75 46
30022
234.213234.748234.229406.079406.079405.6468.485.6801280104002400400160056020001360024800.6650.79700.97450.01733855849.23500158.4000000.800.800176.823.689.2063.6570.453.63560160000001.601.600179.22491.6063.2777.687.6494.80194.80000040.41.630.408182.827.695.2059.65585120171128094901106.946035.53530.022insert into tbl_power_info_v2(P_A_DIANYA,P_B_DIANYA,P_C_DIANYA,P_UAB_XIANDIANYA,P_UBC_XIANDIANYA,P_UCA_XIANDIANYA,P_A_DIANLIU,P_B_DIANLIU,P_C_DIANLIU,P_A_YGGL,P_B_YGGL,P_C_YGGL,P_HXYGGL,P_A_WGGL,P_B_WGGL,P_C_WGGL,P_HXWGGL,P_A_SZGL,P_B_SZGL,P_C_SZGL,P_HXSZGL,P_A_GLYS,P_B_GLYS,P_C_GLYS,P_HXGLYS,P_DWPL,P_BY_KwhZ,P_BY_KwhJ,P_BY_KwhF,P_BY_KwhP,P_BY_KwhG,P_BY_HKwhZ,P_BY_HKwhJ,P_BY_HKwhF,P_BY_HKwhP,P_BY_HKwhG, P_BY_KvarhZ,P_BY_KvarhJ,P_BY_KvarhF,P_BY_KvarhP,P_BY_KvarhG, P_BY_HKvarhZ,P_BY_HKvarhJ,P_BY_HKvarhF,P_BY_HKvarhP,P_BY_HKvarhG, P_SY_KwhZ,P_SY_KwhJ,P_SY_KwhF,P_SY_KwhP,P_SY_KwhG, P_SY_HKwhZ,P_SY_HKwhJ,P_SY_HKwhF,P_SY_HKwhP,P_SY_HKwhG, P_SY_KvarhZ,P_SY_KvarhJ,P_SY_KvarhF,P_SY_KvarhP,P_SY_KvarhG, P_SY_HKvarhZ,P_SY_HKvarhJ,P_SY_HKvarhF,P_SY_HKvarhP,P_SY_HKvarhG, P_SSY_KwhZ,P_SSY_KwhJ,P_SSY_KwhF,P_SSY_KwhP,P_SSY_KwhG, P_SSY_HKwhZ,P_SSY_HKwhJ,P_SSY_HKwhF,P_SSY_HKwhP,P_SSY_HKwhG, P_SSY_KvarhZ,P_SSY_KvarhJ,P_SSY_KvarhF,P_SSY_KvarhP,P_SSY_KvarhG, P_SSY_HKvarhZ,P_SSY_HKvarhJ,P_SSY_HKvarhF,P_SSY_HKvarhP,P_SSY_HKvarhG,P_CODE,P_TIME,P_ZXYGDN,P_FXYGDN,P_ZXWGDN,P_FXWGDN)values(234.213,234.748,234.229,406.079,406.079,405.646,8.48,5.68,0,1280,1040,0,2400,400,160,0,560,2000,1360,0,2480,0.665,0.797,0,0.974,50.017338,558,49.2,350,0,158.4,0,0,0,0,0,0.8,0,0.8,0,0,176.8,23.6,89.2,0,63.6,570.4,53.6,356,0,160,0,0,0,0,0,1.6,0,1.6,0,0,179.2,24,91.6,0,63.2,777.6,87.6,494.8,0,194.8,0,0,0,0,0,40.4,1.6,30.4,0,8,182.8,27.6,95.2,0,59.65585,1,20171128094901,106.946,0,35.535,30.022)
写入成功读取完毕一个
write:02 03 00 38 00 34 C5 E3
02 03 68
243 6A 17 8D 43 6A DD 2F 43 6A 01 89 43 CA FE FA 43 CA FE FA 43 CA A6 46 40 19 99 9A 40 D4 7A E1 40 57 0A 3D 43 F0 00 00 44 96 00 00 44 20 00 00 45 11 00 00 00 00 00 00 00 00 00 00 43 20 00 00 00 00 00 00 44 0C 00 00 44 BE 00 00 44 48 00 00 45 11 00 00 3F 4E D9 17 3F 46 E9 79 3F 59 DB 23 3F 7F BE 77 42 48 3E E4
write:02 03 07 CF 00 78 74 90
02 03 F0
2totalsize 240
44 B5 B3 33 43 32 66 66 44 59 99 9A 00 00 00 00 43 CA 66 66 00 00 00 00 00 00 00 00 00 00 00 00 00 00 00 00 00 00 00 00 43 01 99 9A 41 93 33 33 42 9C CC CD 00 00 00 00 42 01 99 9A 42 3E 66 66 40 33 33 33 42 0B 33 33 00 00 00 00 41 19 99 9A 44 8E D9 9A 43 18 CC CD 44 1F E6 66 00 00 00 00 43 AF 00 00 00 00 00 00 00 00 00 00 00 00 00 00 00 00 00 00 00 00 00 00 42 21 99 9A 41 20 00 00 41 A9 99 9A 00 00 00 00 41 0C CC CD 42 30 00 00 40 4C CC CD 41 F3 33 33 00 00 00 00 41 19 99 9A 45 2F 66 66 43 E3 99 9A 44 DC 33 33 00 00 00 00 44 13 4C CD 00 00 00 00 00 00 00 00 00 00 00 00 00 00 00 00 00 00 00 00 44 77 E6 66 43 2E CC CD 44 24 B3 33 00 00 00 00 43 1D 99 9A 42 13 33 33 40 00 00 00 41 D9 99 9A 00 00 00 00 40 E6 17 90
write:02 03 01 0F 00 08 75 C0
02 03 10
200 03 53 72 00 00 00 05 00 01 34 D3 00 00 57 6A
43 6A 17 8D
234.092
43 6A DD 2F
234.864
43 6A 01 89
234.006
43 CA FE FA
405.992
43 CA FE FA
405.992
43 CA A6 46
405.299
40 19 99 9A
2.4
40 D4 7A E1
6.64
40 57 0A 3D
3.36
43 F0 00 00
480
44 96 00 00
1200
44 20 00 00
640
45 11 00 00
2320
00 00 00 00
0
00 00 00 00
0
43 20 00 00
160
00 00 00 00
0
44 0C 00 00
560
44 BE 00 00
1520
44 48 00 00
800
45 11 00 00
2320
3F 4E D9 17
0.808
3F 46 E9 79
0.777
3F 59 DB 23
0.851
3F 7F BE 77
0.999
42 48 3E E4
50.061417
44 B5 B3 33
1453.6
43 32 66 66
178.4
44 59 99 9A
870.4
00 00 00 00
0
43 CA 66 66
404.8
00 00 00 00
0
00 00 00 00
0
00 00 00 00
0
00 00 00 00
0
00 00 00 00
0
43 01 99 9A
129.6
41 93 33 33
18.4
42 9C CC CD
78.4
00 00 00 00
0
42 01 99 9A
32.4
42 3E 66 66
47.6
40 33 33 33
2.8
42 0B 33 33
34.8
00 00 00 00
0
41 19 99 9A
9.6
44 8E D9 9A
1142.8
43 18 CC CD
152.8
44 1F E6 66
639.6
00 00 00 00
0
43 AF 00 00
350
00 00 00 00
0
00 00 00 00
0
00 00 00 00
0
00 00 00 00
0
00 00 00 00
0
42 21 99 9A
40.4
41 20 00 00
10
41 A9 99 9A
21.2
00 00 00 00
0
41 0C CC CD
8.8
42 30 00 00
44
40 4C CC CD
3.2
41 F3 33 33
30.4
00 00 00 00
0
41 19 99 9A
9.6
45 2F 66 66
2806.4
43 E3 99 9A
455.2
44 DC 33 33
1761.6
00 00 00 00
0
44 13 4C CD
589.2
00 00 00 00
0
00 00 00 00
0
00 00 00 00
0
00 00 00 00
0
00 00 00 00
0
44 77 E6 66
991.6
43 2E CC CD
174.8
44 24 B3 33
658.8
00 00 00 00
0
43 1D 99 9A
157.6
42 13 33 33
36.8
40 00 00 00
2
41 D9 99 9A
27.2
00 00 00 00
0
40 E6 17 90
7.1903763
00 03 53 72
217970
00 00 00 05
5
00 01 34 D3
79059
00 00 57 6A
22378
234.092234.864234.006405.992405.992405.2992.46.643.3648012006402320001600560152080023200.8080.7770.8510.99950.0614171453.6178.4870.40404.800000129.618.478.4032.447.62.834.809.61142.8152.8639.603500000040.41021.208.8443.230.409.62806.4455.21761.60589.200000991.6174.8658.80157.636.8227.207.1903763220171128095000217.970.00579.05922.378insert into tbl_power_info_v2(P_A_DIANYA,P_B_DIANYA,P_C_DIANYA,P_UAB_XIANDIANYA,P_UBC_XIANDIANYA,P_UCA_XIANDIANYA,P_A_DIANLIU,P_B_DIANLIU,P_C_DIANLIU,P_A_YGGL,P_B_YGGL,P_C_YGGL,P_HXYGGL,P_A_WGGL,P_B_WGGL,P_C_WGGL,P_HXWGGL,P_A_SZGL,P_B_SZGL,P_C_SZGL,P_HXSZGL,P_A_GLYS,P_B_GLYS,P_C_GLYS,P_HXGLYS,P_DWPL,P_BY_KwhZ,P_BY_KwhJ,P_BY_KwhF,P_BY_KwhP,P_BY_KwhG,P_BY_HKwhZ,P_BY_HKwhJ,P_BY_HKwhF,P_BY_HKwhP,P_BY_HKwhG, P_BY_KvarhZ,P_BY_KvarhJ,P_BY_KvarhF,P_BY_KvarhP,P_BY_KvarhG, P_BY_HKvarhZ,P_BY_HKvarhJ,P_BY_HKvarhF,P_BY_HKvarhP,P_BY_HKvarhG, P_SY_KwhZ,P_SY_KwhJ,P_SY_KwhF,P_SY_KwhP,P_SY_KwhG, P_SY_HKwhZ,P_SY_HKwhJ,P_SY_HKwhF,P_SY_HKwhP,P_SY_HKwhG, P_SY_KvarhZ,P_SY_KvarhJ,P_SY_KvarhF,P_SY_KvarhP,P_SY_KvarhG, P_SY_HKvarhZ,P_SY_HKvarhJ,P_SY_HKvarhF,P_SY_HKvarhP,P_SY_HKvarhG, P_SSY_KwhZ,P_SSY_KwhJ,P_SSY_KwhF,P_SSY_KwhP,P_SSY_KwhG, P_SSY_HKwhZ,P_SSY_HKwhJ,P_SSY_HKwhF,P_SSY_HKwhP,P_SSY_HKwhG, P_SSY_KvarhZ,P_SSY_KvarhJ,P_SSY_KvarhF,P_SSY_KvarhP,P_SSY_KvarhG, P_SSY_HKvarhZ,P_SSY_HKvarhJ,P_SSY_HKvarhF,P_SSY_HKvarhP,P_SSY_HKvarhG,P_CODE,P_TIME,P_ZXYGDN,P_FXYGDN,P_ZXWGDN,P_FXWGDN)values(234.092,234.864,234.006,405.992,405.992,405.299,2.4,6.64,3.36,480,1200,640,2320,0,0,160,0,560,1520,800,2320,0.808,0.777,0.851,0.999,50.061417,1453.6,178.4,870.4,0,404.8,0,0,0,0,0,129.6,18.4,78.4,0,32.4,47.6,2.8,34.8,0,9.6,1142.8,152.8,639.6,0,350,0,0,0,0,0,40.4,10,21.2,0,8.8,44,3.2,30.4,0,9.6,2806.4,455.2,1761.6,0,589.2,0,0,0,0,0,991.6,174.8,658.8,0,157.6,36.8,2,27.2,0,7.1903763,2,20171128095000,217.97,0.005,79.059,22.378)
写入成功读取完毕一个
write:03 03 00 38 00 34 C4 32
03 03 68
343 6A FC AC 43 6B 73 F8 43 6B 14 39 43 CB A5 3F 43 CB B0 62 43 CB 78 F6 00 00 00 00 3F 4F 5C 29 00 00 00 00 00 00 00 00 43 34 00 00 00 00 00 00 43 70 00 00 00 00 00 00 00 00 00 00 00 00 00 00 00 00 00 00 42 70 00 00 43 34 00 00 00 00 00 00 43 70 00 00 3F 35 C2 8F 3F 7E F9 DB 00 00 00 00 3F 7F 7C EE 42 48 1E B0
write:03 03 07 CF 00 78 75 41
03 03 F0
3totalsize 240
43 CE 19 9A 42 A3 33 33 43 63 66 66 00 00 00 00 42 CD CC CD 00 00 00 00 00 00 00 00 00 00 00 00 00 00 00 00 00 00 00 00 42 B4 99 9A 41 87 99 9A 42 6D 00 00 00 00 00 00 41 61 99 9A 40 9E 66 66 3F 66 66 66 40 5C CC CD 00 00 00 00 3F 19 99 9A 43 EF 2C CD 42 F0 00 00 43 7D 33 33 00 00 00 00 42 D1 B3 33 00 00 00 00 00 00 00 00 00 00 00 00 00 00 00 00 00 00 00 00 42 9C E6 66 40 E6 66 66 42 5B 99 9A 00 00 00 00 41 80 66 66 41 68 CC CD 40 A8 00 00 40 F9 99 9A 00 00 00 00 3F AC CC CD 43 D8 60 00 42 B5 80 00 43 81 86 66 00 00 00 00 42 A5 99 9A 00 00 00 00 00 00 00 00 00 00 00 00 00 00 00 00 00 00 00 00 42 F7 CC CD 41 90 00 00 42 A5 99 9A 00 00 00 00 41 B8 CC CD 40 EB 33 33 40 06 66 66 40 53 33 33 00 00 00 00 3F E6 76 8A
write:03 03 01 0F 00 08 74 11
03 03 10
300 00 C7 96 00 00 00 00 00 00 28 27 00 00 31 4A
43 6A FC AC
234.987
43 6B 73 F8
235.453
43 6B 14 39
235.079
43 CB A5 3F
407.291
43 CB B0 62
407.378
43 CB 78 F6
406.945
00 00 00 00
0
3F 4F 5C 29
0.81
00 00 00 00
0
00 00 00 00
0
43 34 00 00
180
00 00 00 00
0
43 70 00 00
240
00 00 00 00
0
00 00 00 00
0
00 00 00 00
0
00 00 00 00
0
42 70 00 00
60
43 34 00 00
180
00 00 00 00
0
43 70 00 00
240
3F 35 C2 8F
0.71
3F 7E F9 DB
0.996
00 00 00 00
0
3F 7F 7C EE
0.998
42 48 1E B0
50.02997
43 CE 19 9A
412.2
42 A3 33 33
81.6
43 63 66 66
227.4
00 00 00 00
0
42 CD CC CD
102.9
00 00 00 00
0
00 00 00 00
0
00 00 00 00
0
00 00 00 00
0
00 00 00 00
0
42 B4 99 9A
90.3
41 87 99 9A
16.95
42 6D 00 00
59.25
00 00 00 00
0
41 61 99 9A
14.1
40 9E 66 66
4.95
3F 66 66 66
0.9
40 5C CC CD
3.45
00 00 00 00
0
3F 19 99 9A
0.6
43 EF 2C CD
478.35
42 F0 00 00
120
43 7D 33 33
253.2
00 00 00 00
0
42 D1 B3 33
104.85
00 00 00 00
0
00 00 00 00
0
00 00 00 00
0
00 00 00 00
0
00 00 00 00
0
42 9C E6 66
78.45
40 E6 66 66
7.2
42 5B 99 9A
54.9
00 00 00 00
0
41 80 66 66
16.05
41 68 CC CD
14.55
40 A8 00 00
5.25
40 F9 99 9A
7.8
00 00 00 00
0
3F AC CC CD
1.35
43 D8 60 00
432.75
42 B5 80 00
90.75
43 81 86 66
259.05
00 00 00 00
0
42 A5 99 9A
82.8
00 00 00 00
0
00 00 00 00
0
00 00 00 00
0
00 00 00 00
0
00 00 00 00
0
42 F7 CC CD
123.9
41 90 00 00
18
42 A5 99 9A
82.8
00 00 00 00
0
41 B8 CC CD
23.1
40 EB 33 33
7.35
40 06 66 66
2.1
40 53 33 33
3.3
00 00 00 00
0
3F E6 76 8A
1.8004925
00 00 C7 96
51094
00 00 00 00
0
00 00 28 27
10279
00 00 31 4A
12618
234.987235.453235.079407.291407.378406.94500.8100180024000006018002400.710.99600.99850.02997412.281.6227.40102.90000090.316.9559.25014.14.950.93.4500.6478.35120253.20104.850000078.457.254.9016.0514.555.257.801.35432.7590.75259.05082.800000123.91882.8023.17.352.13.301.800492532017112809510051.094010.27912.618insert into tbl_power_info_v2(P_A_DIANYA,P_B_DIANYA,P_C_DIANYA,P_UAB_XIANDIANYA,P_UBC_XIANDIANYA,P_UCA_XIANDIANYA,P_A_DIANLIU,P_B_DIANLIU,P_C_DIANLIU,P_A_YGGL,P_B_YGGL,P_C_YGGL,P_HXYGGL,P_A_WGGL,P_B_WGGL,P_C_WGGL,P_HXWGGL,P_A_SZGL,P_B_SZGL,P_C_SZGL,P_HXSZGL,P_A_GLYS,P_B_GLYS,P_C_GLYS,P_HXGLYS,P_DWPL,P_BY_KwhZ,P_BY_KwhJ,P_BY_KwhF,P_BY_KwhP,P_BY_KwhG,P_BY_HKwhZ,P_BY_HKwhJ,P_BY_HKwhF,P_BY_HKwhP,P_BY_HKwhG, P_BY_KvarhZ,P_BY_KvarhJ,P_BY_KvarhF,P_BY_KvarhP,P_BY_KvarhG, P_BY_HKvarhZ,P_BY_HKvarhJ,P_BY_HKvarhF,P_BY_HKvarhP,P_BY_HKvarhG, P_SY_KwhZ,P_SY_KwhJ,P_SY_KwhF,P_SY_KwhP,P_SY_KwhG, P_SY_HKwhZ,P_SY_HKwhJ,P_SY_HKwhF,P_SY_HKwhP,P_SY_HKwhG, P_SY_KvarhZ,P_SY_KvarhJ,P_SY_KvarhF,P_SY_KvarhP,P_SY_KvarhG, P_SY_HKvarhZ,P_SY_HKvarhJ,P_SY_HKvarhF,P_SY_HKvarhP,P_SY_HKvarhG, P_SSY_KwhZ,P_SSY_KwhJ,P_SSY_KwhF,P_SSY_KwhP,P_SSY_KwhG, P_SSY_HKwhZ,P_SSY_HKwhJ,P_SSY_HKwhF,P_SSY_HKwhP,P_SSY_HKwhG, P_SSY_KvarhZ,P_SSY_KvarhJ,P_SSY_KvarhF,P_SSY_KvarhP,P_SSY_KvarhG, P_SSY_HKvarhZ,P_SSY_HKvarhJ,P_SSY_HKvarhF,P_SSY_HKvarhP,P_SSY_HKvarhG,P_CODE,P_TIME,P_ZXYGDN,P_FXYGDN,P_ZXWGDN,P_FXWGDN)values(234.987,235.453,235.079,407.291,407.378,406.945,0,0.81,0,0,180,0,240,0,0,0,0,60,180,0,240,0.71,0.996,0,0.998,50.02997,412.2,81.6,227.4,0,102.9,0,0,0,0,0,90.3,16.95,59.25,0,14.1,4.95,0.9,3.45,0,0.6,478.35,120,253.2,0,104.85,0,0,0,0,0,78.45,7.2,54.9,0,16.05,14.55,5.25,7.8,0,1.35,432.75,90.75,259.05,0,82.8,0,0,0,0,0,123.9,18,82.8,0,23.1,7.35,2.1,3.3,0,1.8004925,3,20171128095100,51.094,0,10.279,12.618)
写入成功读取完毕一个
write:04 03 00 38 00 34 C5 85
04 03 68
443 6A 80 00 43 6A DA E1 43 6A 62 8F 43 CB 36 66 43 CB 20 42 43 CA FE FA 3F 9E B8 52 00 00 00 00 40 3A E1 48 43 20 00 00 00 00 00 00 44 16 00 00 44 48 00 00 42 A0 00 00 00 00 00 00 42 A0 00 00 00 00 00 00 43 8C 00 00 42 A0 00 00 44 2A 00 00 44 48 00 00 3E FC ED 91 3F 17 0A 3D 3F 62 4D D3 3F 7F 7C EE 42 48 00 00
write:04 03 07 CF 00 78 74 F6
D2 9C 04
heart:D2 9C 04 03 F0 00 00 44 2E 59 9A 43 12 00 00 43 C5 CC CD 00 00 00 00 43 1B 99 9A 00 00 00 00 00 00 00 00 00 00 00 00 00 00 00 00 00 00 00 00 40 C6 66 66 3E 4C CC CD 3F CC CC CD 00 00 00 00 40 86 66 66 42 8E 00 00 41 70 00 00 42 0B 33 33 00 00 00 00 41 A9 99 9A 44 1B 00 00 42 CE CC CD 43 AE 00 00 00 00 00 00 43 28 66 66 00 00 00 00 00 00 00 00 00 00 00 00 00 00 00 00 00 00 00 00 41 B0 00 00 40 26 66 66 40 C0 00 00 00 00 00 00 41 53 33 33 42 48 CC CD 41 06 66 66 41 D0 00 00 00 00 00 00 41 76 66 66 44 21 8C CD 42 DE CC CD 43 B0 99 9A 00 00 00 00 43 35 33 33 00 00 00 00 00 00 00 00 00 00 00 00 00 00 00 00 00 00 00 00 41 E8 00 00 40 B9 99 9A 40 E0 00 00 00 00 00 00 41 81 99 9A 42 14 CC CD 40 8C CC CD 41 9B 33 33 00 00 00 00 41 50 D7 DF
write:04 03 01 0F 00 08 75 A6
04 03 10
400 02 95 B3 00 00 00 00 00 00 42 42 00 00 0D B0
write:05 03 00 38 00 34 C4 54
05 03 68
543 6B 01 CB 43 6B 64 DD 43 6B 08 F6 43 CB A5 3F 43 CB A5 3F 43 CB 83 F8 40 AE 14 7B 40 1E B8 52 3F C2 8F 5C 44 82 00 00 44 02 00 00 43 A0 00 00 44 EB 00 00 43 70 00 00 00 00 00 00 00 00 00 00 43 8C 00 00 44 A0 00 00 44 16 00 00 43 B4 00 00 44 EB 00 00 3F 51 A9 FC 3F 5F BE 77 3F 60 83 12 3F 7D 2F 1B 42 48 67 C1
write:05 03 07 CF 00 78 75 27
05 03 F0
5totalsize 240
44 BB AC CD 43 B5 66 66 44 50 59 9A 00 00 00 00 43 98 99 9A 00 00 00 00 00 00 00 00 00 00 00 00 00 00 00 00 00 00 00 00 00 00 00 00 00 00 00 00 00 00 00 00 00 00 00 00 00 00 00 00 43 6C 33 33 42 4F 33 33 42 E4 66 66 00 00 00 00 42 8C 00 00 44 C1 06 66 43 AF 99 9A 44 5A 00 00 00 00 00 00 43 A0 66 66 00 00 00 00 00 00 00 00 00 00 00 00 00 00 00 00 00 00 00 00 3F CC CC CD 3F 19 99 9A 3F 4C CC CD 00 00 00 00 00 00 00 00 43 6F 99 9A 42 50 00 00 42 E7 33 33 00 00 00 00 42 8F 99 9A 44 D5 93 33 43 A4 B3 33 44 7E 19 9A 00 00 00 00 43 B5 33 33 00 00 00 00 00 00 00 00 00 00 00 00 00 00 00 00 00 00 00 00 42 A8 66 66 41 9B 33 33 42 69 99 9A 00 00 00 00 40 CC CC CD 43 26 33 33 41 FE 66 66 42 9E CC CD 00 00 00 00 42 5B 39 D7
write:05 03 01 0F 00 08 74 77
05 03 10
500 08 8C 06 00 00 00 00 00 00 D9 A8 00 00 BC 7B
43 6B 01 CB
235.007
43 6B 64 DD
235.394
43 6B 08 F6
235.035
43 CB A5 3F
407.291
43 CB A5 3F
407.291
43 CB 83 F8
407.031
40 AE 14 7B
5.44
40 1E B8 52
2.48
3F C2 8F 5C
1.52
44 82 00 00
1040
44 02 00 00
520
43 A0 00 00
320
44 EB 00 00
1880
43 70 00 00
240
00 00 00 00
0
00 00 00 00
0
43 8C 00 00
280
44 A0 00 00
1280
44 16 00 00
600
43 B4 00 00
360
44 EB 00 00
1880
3F 51 A9 FC
0.819
3F 5F BE 77
0.874
3F 60 83 12
0.877
3F 7D 2F 1B
0.989
42 48 67 C1
50.101322
44 BB AC CD
1501.4
43 B5 66 66
362.8
44 50 59 9A
833.4
00 00 00 00
0
43 98 99 9A
305.2
00 00 00 00
0
00 00 00 00
0
00 00 00 00
0
00 00 00 00
0
00 00 00 00
0
00 00 00 00
0
00 00 00 00
0
00 00 00 00
0
00 00 00 00
0
00 00 00 00
0
43 6C 33 33
236.2
42 4F 33 33
51.8
42 E4 66 66
114.2
00 00 00 00
0
42 8C 00 00
70
44 C1 06 66
1544.2
43 AF 99 9A
351.2
44 5A 00 00
872
00 00 00 00
0
43 A0 66 66
320.8
00 00 00 00
0
00 00 00 00
0
00 00 00 00
0
00 00 00 00
0
00 00 00 00
0
3F CC CC CD
1.6
3F 19 99 9A
0.6
3F 4C CC CD
0.8
00 00 00 00
0
00 00 00 00
0
43 6F 99 9A
239.6
42 50 00 00
52
42 E7 33 33
115.6
00 00 00 00
0
42 8F 99 9A
71.8
44 D5 93 33
1708.6
43 A4 B3 33
329.4
44 7E 19 9A
1016.4
00 00 00 00
0
43 B5 33 33
362.4
00 00 00 00
0
00 00 00 00
0
00 00 00 00
0
00 00 00 00
0
00 00 00 00
0
42 A8 66 66
84.2
41 9B 33 33
19.4
42 69 99 9A
58.4
00 00 00 00
0
40 CC CC CD
6.4
43 26 33 33
166.2
41 FE 66 66
31.8
42 9E CC CD
79.4
00 00 00 00
0
42 5B 39 D7
54.806484
00 08 8C 06
560134
00 00 00 00
0
00 00 D9 A8
55720
00 00 BC 7B
48251
235.007235.394235.035407.291407.291407.0315.442.481.521040520320188024000280128060036018800.8190.8740.8770.98950.1013221501.4362.8833.40305.20000000000236.251.8114.20701544.2351.28720320.8000001.60.60.800239.652115.6071.81708.6329.41016.40362.40000084.219.458.406.4166.231.879.4054.806484520171128095300560.134055.7248.251insert into tbl_power_info_v2(P_A_DIANYA,P_B_DIANYA,P_C_DIANYA,P_UAB_XIANDIANYA,P_UBC_XIANDIANYA,P_UCA_XIANDIANYA,P_A_DIANLIU,P_B_DIANLIU,P_C_DIANLIU,P_A_YGGL,P_B_YGGL,P_C_YGGL,P_HXYGGL,P_A_WGGL,P_B_WGGL,P_C_WGGL,P_HXWGGL,P_A_SZGL,P_B_SZGL,P_C_SZGL,P_HXSZGL,P_A_GLYS,P_B_GLYS,P_C_GLYS,P_HXGLYS,P_DWPL,P_BY_KwhZ,P_BY_KwhJ,P_BY_KwhF,P_BY_KwhP,P_BY_KwhG,P_BY_HKwhZ,P_BY_HKwhJ,P_BY_HKwhF,P_BY_HKwhP,P_BY_HKwhG, P_BY_KvarhZ,P_BY_KvarhJ,P_BY_KvarhF,P_BY_KvarhP,P_BY_KvarhG, P_BY_HKvarhZ,P_BY_HKvarhJ,P_BY_HKvarhF,P_BY_HKvarhP,P_BY_HKvarhG, P_SY_KwhZ,P_SY_KwhJ,P_SY_KwhF,P_SY_KwhP,P_SY_KwhG, P_SY_HKwhZ,P_SY_HKwhJ,P_SY_HKwhF,P_SY_HKwhP,P_SY_HKwhG, P_SY_KvarhZ,P_SY_KvarhJ,P_SY_KvarhF,P_SY_KvarhP,P_SY_KvarhG, P_SY_HKvarhZ,P_SY_HKvarhJ,P_SY_HKvarhF,P_SY_HKvarhP,P_SY_HKvarhG, P_SSY_KwhZ,P_SSY_KwhJ,P_SSY_KwhF,P_SSY_KwhP,P_SSY_KwhG, P_SSY_HKwhZ,P_SSY_HKwhJ,P_SSY_HKwhF,P_SSY_HKwhP,P_SSY_HKwhG, P_SSY_KvarhZ,P_SSY_KvarhJ,P_SSY_KvarhF,P_SSY_KvarhP,P_SSY_KvarhG, P_SSY_HKvarhZ,P_SSY_HKvarhJ,P_SSY_HKvarhF,P_SSY_HKvarhP,P_SSY_HKvarhG,P_CODE,P_TIME,P_ZXYGDN,P_FXYGDN,P_ZXWGDN,P_FXWGDN)values(235.007,235.394,235.035,407.291,407.291,407.031,5.44,2.48,1.52,1040,520,320,1880,240,0,0,280,1280,600,360,1880,0.819,0.874,0.877,0.989,50.101322,1501.4,362.8,833.4,0,305.2,0,0,0,0,0,0,0,0,0,0,236.2,51.8,114.2,0,70,1544.2,351.2,872,0,320.8,0,0,0,0,0,1.6,0.6,0.8,0,0,239.6,52,115.6,0,71.8,1708.6,329.4,1016.4,0,362.4,0,0,0,0,0,84.2,19.4,58.4,0,6.4,166.2,31.8,79.4,0,54.806484,5,20171128095300,560.134,0,55.72,48.251)
写入成功读取完毕一个
write:06 03 00 38 00 34 C4 67
06 03 68
643 6A A5 A2 43 6B 28 B4 43 6A B1 EC 43 CB 62 D1 43 CB 62 D1 43 CB 2B 64 40 94 7A E1 40 33 33 33 41 10 00 00 44 52 00 00 43 C8 00 00 44 EB 00 00 45 45 80 00 43 48 00 00 00 00 00 00 42 A0 00 00 43 48 00 00 44 87 00 00 44 2A 00 00 45 04 80 00 45 45 80 00 3F 49 BA 5E 3F 21 06 25 3F 62 8F 5C 3F 7F 7C EE 42 47 05 D2
write:06 03 07 CF 00 78 75 14
06 03 F0
6totalsize 240
44 E5 0C CD 43 AE 19 9A 44 89 CC CD 00 00 00 00 43 BE CC CD 00 00 00 00 00 00 00 00 00 00 00 00 00 00 00 00 00 00 00 00 40 00 00 00 3E 4C CC CD 3F B3 33 33 00 00 00 00 3E 4C CC CD 43 25 33 33 42 00 CC CD 42 97 99 9A 00 00 00 00 42 64 00 00 44 F8 A6 66 43 BF 33 33 44 93 80 00 00 00 00 00 43 D5 4C CD 00 00 00 00 00 00 00 00 00 00 00 00 00 00 00 00 00 00 00 00 40 C6 66 66 3E CC CC CD 40 A0 00 00 00 00 00 00 3F 19 99 9A 43 47 99 9A 42 16 66 66 42 BB 99 9A 00 00 00 00 42 88 00 00 45 15 00 00 43 EA 66 66 44 AC 53 33 00 00 00 00 44 06 0C CD 00 00 00 00 00 00 00 00 00 00 00 00 00 00 00 00 00 00 00 00 41 53 33 33 40 66 66 66 40 CC CC CD 00 00 00 00 40 40 00 00 43 38 33 33 42 10 00 00 42 A8 CC CD 00 00 00 00 42 7D 0F 48
write:06 03 01 0F 00 08 74 44
06 03 10
600 0B 3E C2 00 00 00 00 00 00 17 9C 00 00 D0 10
43 6A A5 A2
234.647
43 6B 28 B4
235.159
43 6A B1 EC
234.695
43 CB 62 D1
406.772
43 CB 62 D1
406.772
43 CB 2B 64
406.339
40 94 7A E1
4.64
40 33 33 33
2.8
41 10 00 00
9
44 52 00 00
840
43 C8 00 00
400
44 EB 00 00
1880
45 45 80 00
3160
43 48 00 00
200
00 00 00 00
0
42 A0 00 00
80
43 48 00 00
200
44 87 00 00
1080
44 2A 00 00
680
45 04 80 00
2120
45 45 80 00
3160
3F 49 BA 5E
0.788
3F 21 06 25
0.629
3F 62 8F 5C
0.885
3F 7F 7C EE
0.998
42 47 05 D2
49.755684
44 E5 0C CD
1832.4
43 AE 19 9A
348.2
44 89 CC CD
1102.4
00 00 00 00
0
43 BE CC CD
381.6
00 00 00 00
0
00 00 00 00
0
00 00 00 00
0
00 00 00 00
0
00 00 00 00
0
40 00 00 00
2
3E 4C CC CD
0.2
3F B3 33 33
1.4
00 00 00 00
0
3E 4C CC CD
0.2
43 25 33 33
165.2
42 00 CC CD
32.2
42 97 99 9A
75.8
00 00 00 00
0
42 64 00 00
57
44 F8 A6 66
1989.2
43 BF 33 33
382.4
44 93 80 00
1180
00 00 00 00
0
43 D5 4C CD
426.6
00 00 00 00
0
00 00 00 00
0
00 00 00 00
0
00 00 00 00
0
00 00 00 00
0
40 C6 66 66
6.2
3E CC CC CD
0.4
40 A0 00 00
5
00 00 00 00
0
3F 19 99 9A
0.6
43 47 99 9A
199.6
42 16 66 66
37.6
42 BB 99 9A
93.8
00 00 00 00
0
42 88 00 00
68
45 15 00 00
2384
43 EA 66 66
468.8
44 AC 53 33
1378.6
00 00 00 00
0
44 06 0C CD
536.2
00 00 00 00
0
00 00 00 00
0
00 00 00 00
0
00 00 00 00
0
00 00 00 00
0
41 53 33 33
13.2
40 66 66 66
3.6
40 CC CC CD
6.4
00 00 00 00
0
40 40 00 00
3
43 38 33 33
184.2
42 10 00 00
36
42 A8 CC CD
84.4
00 00 00 00
0
42 7D 0F 48
63.264923
00 0B 3E C2
736962
00 00 00 00
0
00 00 17 9C
6044
00 00 D0 10
53264
234.647235.159234.695406.772406.772406.3394.642.89840400188031602000802001080680212031600.7880.6290.8850.99849.7556841832.4348.21102.40381.60000020.21.400.2165.232.275.80571989.2382.411800426.6000006.20.4500.6199.637.693.80682384468.81378.60536.20000013.23.66.403184.23684.4063.264923620171128095400736.96206.04453.264insert into tbl_power_info_v2(P_A_DIANYA,P_B_DIANYA,P_C_DIANYA,P_UAB_XIANDIANYA,P_UBC_XIANDIANYA,P_UCA_XIANDIANYA,P_A_DIANLIU,P_B_DIANLIU,P_C_DIANLIU,P_A_YGGL,P_B_YGGL,P_C_YGGL,P_HXYGGL,P_A_WGGL,P_B_WGGL,P_C_WGGL,P_HXWGGL,P_A_SZGL,P_B_SZGL,P_C_SZGL,P_HXSZGL,P_A_GLYS,P_B_GLYS,P_C_GLYS,P_HXGLYS,P_DWPL,P_BY_KwhZ,P_BY_KwhJ,P_BY_KwhF,P_BY_KwhP,P_BY_KwhG,P_BY_HKwhZ,P_BY_HKwhJ,P_BY_HKwhF,P_BY_HKwhP,P_BY_HKwhG, P_BY_KvarhZ,P_BY_KvarhJ,P_BY_KvarhF,P_BY_KvarhP,P_BY_KvarhG, P_BY_HKvarhZ,P_BY_HKvarhJ,P_BY_HKvarhF,P_BY_HKvarhP,P_BY_HKvarhG, P_SY_KwhZ,P_SY_KwhJ,P_SY_KwhF,P_SY_KwhP,P_SY_KwhG, P_SY_HKwhZ,P_SY_HKwhJ,P_SY_HKwhF,P_SY_HKwhP,P_SY_HKwhG, P_SY_KvarhZ,P_SY_KvarhJ,P_SY_KvarhF,P_SY_KvarhP,P_SY_KvarhG, P_SY_HKvarhZ,P_SY_HKvarhJ,P_SY_HKvarhF,P_SY_HKvarhP,P_SY_HKvarhG, P_SSY_KwhZ,P_SSY_KwhJ,P_SSY_KwhF,P_SSY_KwhP,P_SSY_KwhG, P_SSY_HKwhZ,P_SSY_HKwhJ,P_SSY_HKwhF,P_SSY_HKwhP,P_SSY_HKwhG, P_SSY_KvarhZ,P_SSY_KvarhJ,P_SSY_KvarhF,P_SSY_KvarhP,P_SSY_KvarhG, P_SSY_HKvarhZ,P_SSY_HKvarhJ,P_SSY_HKvarhF,P_SSY_HKvarhP,P_SSY_HKvarhG,P_CODE,P_TIME,P_ZXYGDN,P_FXYGDN,P_ZXWGDN,P_FXWGDN)values(234.647,235.159,234.695,406.772,406.772,406.339,4.64,2.8,9,840,400,1880,3160,200,0,80,200,1080,680,2120,3160,0.788,0.629,0.885,0.998,49.755684,1832.4,348.2,1102.4,0,381.6,0,0,0,0,0,2,0.2,1.4,0,0.2,165.2,32.2,75.8,0,57,1989.2,382.4,1180,0,426.6,0,0,0,0,0,6.2,0.4,5,0,0.6,199.6,37.6,93.8,0,68,2384,468.8,1378.6,0,536.2,0,0,0,0,0,13.2,3.6,6.4,0,3,184.2,36,84.4,0,63.264923,6,20171128095400,736.962,0,6.044,53.264)
写入成功读取完毕一个
write:07 03 00 38 00 34 C5 B6
write:07 03 07 CF 00 78 74 C5
write:07 03 01 0F 00 08 75 95
write:08 03 00 38 00 34 C5 49
08 03 68
843 6A B2 6F 43 6B 6D 50 43 6A E9 BA 43 CB 84 19 43 CB A5 3F 43 CB 4C 8B 40 11 EB 85 00 00 00 00 00 00 00 00 43 B4 00 00 00 00 00 00 00 00 00 00 43 C3 00 00 42 B4 00 00 00 00 00 00 00 00 00 00 42 B4 00 00 44 07 00 00 42 70 00 00 00 00 00 00 43 C3 00 00 3F 24 9B A6 3F 31 26 E9 00 00 00 00 3F 7A 9F BE 42 47 1F 11
write:08 03 07 CF 00 78 74 3A
08 03 F0
8totalsize 240
42 84 4C CD 00 00 00 00 42 2E 99 9A 00 00 00 00 41 B2 CC CD 00 00 00 00 00 00 00 00 00 00 00 00 00 00 00 00 00 00 00 00 00 00 00 00 00 00 00 00 00 00 00 00 00 00 00 00 00 00 00 00 41 42 66 66 00 00 00 00 40 F0 00 00 00 00 00 00 40 90 00 00 42 67 00 00 00 00 00 00 42 28 00 00 00 00 00 00 41 79 99 9A 00 00 00 00 00 00 00 00 00 00 00 00 00 00 00 00 00 00 00 00 00 00 00 00 00 00 00 00 00 00 00 00 00 00 00 00 00 00 00 00 41 1E 66 66 00 00 00 00 40 DC CC CD 00 00 00 00 40 40 00 00 42 95 19 9A 00 00 00 00 42 3B CC CD 00 00 00 00 41 DB 99 9A 00 00 00 00 00 00 00 00 00 00 00 00 00 00 00 00 00 00 00 00 00 00 00 00 00 00 00 00 00 00 00 00 00 00 00 00 00 00 00 00 41 4E 66 66 00 00 00 00 41 06 66 66 00 00 00 00 40 8B E8 91
write:08 03 01 0F 00 08 75 6A
08 03 10
800 00 49 D4 00 00 00 00 00 00 00 00 00 00 9B 14
43 6A B2 6F
234.697
43 6B 6D 50
235.427
43 6A E9 BA
234.913
43 CB 84 19
407.032
43 CB A5 3F
407.291
43 CB 4C 8B
406.598
40 11 EB 85
2.28
00 00 00 00
0
00 00 00 00
0
43 B4 00 00
360
00 00 00 00
0
00 00 00 00
0
43 C3 00 00
390
42 B4 00 00
90
00 00 00 00
0
00 00 00 00
0
42 B4 00 00
90
44 07 00 00
540
42 70 00 00
60
00 00 00 00
0
43 C3 00 00
390
3F 24 9B A6
0.643
3F 31 26 E9
0.692
00 00 00 00
0
3F 7A 9F BE
0.979
42 47 1F 11
49.78034
42 84 4C CD
66.15
00 00 00 00
0
42 2E 99 9A
43.65
00 00 00 00
0
41 B2 CC CD
22.35
00 00 00 00
0
00 00 00 00
0
00 00 00 00
0
00 00 00 00
0
00 00 00 00
0
00 00 00 00
0
00 00 00 00
0
00 00 00 00
0
00 00 00 00
0
00 00 00 00
0
41 42 66 66
12.15
00 00 00 00
0
40 F0 00 00
7.5
00 00 00 00
0
40 90 00 00
4.5
42 67 00 00
57.75
00 00 00 00
0
42 28 00 00
42
00 00 00 00
0
41 79 99 9A
15.6
00 00 00 00
0
00 00 00 00
0
00 00 00 00
0
00 00 00 00
0
00 00 00 00
0
00 00 00 00
0
00 00 00 00
0
00 00 00 00
0
00 00 00 00
0
00 00 00 00
0
41 1E 66 66
9.9
00 00 00 00
0
40 DC CC CD
6.9
00 00 00 00
0
40 40 00 00
3
42 95 19 9A
74.55
00 00 00 00
0
42 3B CC CD
46.95
00 00 00 00
0
41 DB 99 9A
27.45
00 00 00 00
0
00 00 00 00
0
00 00 00 00
0
00 00 00 00
0
00 00 00 00
0
00 00 00 00
0
00 00 00 00
0
00 00 00 00
0
00 00 00 00
0
00 00 00 00
0
41 4E 66 66
12.9
00 00 00 00
0
41 06 66 66
8.4
00 00 00 00
0
40 8B E8 91
4.3721395
00 00 49 D4
18900
00 00 00 00
0
00 00 00 00
0
00 00 9B 14
39700
234.697235.427234.913407.032407.291406.5982.2800360003909000905406003900.6430.69200.97949.7803466.15043.65022.35000000000012.1507.504.557.75042015.600000000009.906.90374.55046.95027.45000000000012.908.404.372139582017112809560018.90039.7insert into tbl_power_info_v2(P_A_DIANYA,P_B_DIANYA,P_C_DIANYA,P_UAB_XIANDIANYA,P_UBC_XIANDIANYA,P_UCA_XIANDIANYA,P_A_DIANLIU,P_B_DIANLIU,P_C_DIANLIU,P_A_YGGL,P_B_YGGL,P_C_YGGL,P_HXYGGL,P_A_WGGL,P_B_WGGL,P_C_WGGL,P_HXWGGL,P_A_SZGL,P_B_SZGL,P_C_SZGL,P_HXSZGL,P_A_GLYS,P_B_GLYS,P_C_GLYS,P_HXGLYS,P_DWPL,P_BY_KwhZ,P_BY_KwhJ,P_BY_KwhF,P_BY_KwhP,P_BY_KwhG,P_BY_HKwhZ,P_BY_HKwhJ,P_BY_HKwhF,P_BY_HKwhP,P_BY_HKwhG, P_BY_KvarhZ,P_BY_KvarhJ,P_BY_KvarhF,P_BY_KvarhP,P_BY_KvarhG, P_BY_HKvarhZ,P_BY_HKvarhJ,P_BY_HKvarhF,P_BY_HKvarhP,P_BY_HKvarhG, P_SY_KwhZ,P_SY_KwhJ,P_SY_KwhF,P_SY_KwhP,P_SY_KwhG, P_SY_HKwhZ,P_SY_HKwhJ,P_SY_HKwhF,P_SY_HKwhP,P_SY_HKwhG, P_SY_KvarhZ,P_SY_KvarhJ,P_SY_KvarhF,P_SY_KvarhP,P_SY_KvarhG, P_SY_HKvarhZ,P_SY_HKvarhJ,P_SY_HKvarhF,P_SY_HKvarhP,P_SY_HKvarhG, P_SSY_KwhZ,P_SSY_KwhJ,P_SSY_KwhF,P_SSY_KwhP,P_SSY_KwhG, P_SSY_HKwhZ,P_SSY_HKwhJ,P_SSY_HKwhF,P_SSY_HKwhP,P_SSY_HKwhG, P_SSY_KvarhZ,P_SSY_KvarhJ,P_SSY_KvarhF,P_SSY_KvarhP,P_SSY_KvarhG, P_SSY_HKvarhZ,P_SSY_HKvarhJ,P_SSY_HKvarhF,P_SSY_HKvarhP,P_SSY_HKvarhG,P_CODE,P_TIME,P_ZXYGDN,P_FXYGDN,P_ZXWGDN,P_FXWGDN)values(234.697,235.427,234.913,407.032,407.291,406.598,2.28,0,0,360,0,0,390,90,0,0,90,540,60,0,390,0.643,0.692,0,0.979,49.78034,66.15,0,43.65,0,22.35,0,0,0,0,0,0,0,0,0,0,12.15,0,7.5,0,4.5,57.75,0,42,0,15.6,0,0,0,0,0,0,0,0,0,0,9.9,0,6.9,0,3,74.55,0,46.95,0,27.45,0,0,0,0,0,0,0,0,0,0,12.9,0,8.4,0,4.3721395,8,20171128095600,18.9,0,0,39.7)
写入成功读取完毕一个
write:09 03 00 38 00 34 C4 98
09 03 68
943 6A 8D D3 43 6B 4C CD 43 6A D5 81 43 CB 6D D3 43 CB 8F 1B 43 CB 36 66 00 00 00 00 00 00 00 00 3F 5E B8 52 00 00 00 00 00 00 00 00 43 34 00 00 43 70 00 00 42 70 00 00 42 70 00 00 42 B4 00 00 43 52 00 00 42 B4 00 00 42 70 00 00 43 52 00 00 43 96 00 00 3E F0 20 C5 3E 3D 70 A4 3F 5A 5E 35 3F 3D F3 B6 42 48 20 2D
write:09 03 07 CF 00 78 75 EB
09 03 F0
9totalsize 240
43 2B 99 9A 41 B8 CC CD 42 A7 66 66 00 00 00 00 42 81 4C CD 00 00 00 00 00 00 00 00 00 00 00 00 00 00 00 00 00 00 00 00 00 00 00 00 00 00 00 00 00 00 00 00 00 00 00 00 00 00 00 00 43 0E 80 00 41 B7 99 9A 42 6C 66 66 00 00 00 00 42 70 99 9A 43 BC 2C CD 41 E7 99 9A 43 4D CC CD 00 00 00 00 43 0D 73 33 00 00 00 00 00 00 00 00 00 00 00 00 00 00 00 00 00 00 00 00 40 A3 33 33 00 00 00 00 40 19 99 9A 00 00 00 00 40 23 33 33 43 2C 33 33 41 D6 CC CD 42 95 19 9A 00 00 00 00 42 8D 4C CD 43 CA B9 9A 42 5D 66 66 43 44 33 33 00 00 00 00 43 19 C0 00 00 00 00 00 00 00 00 00 00 00 00 00 00 00 00 00 00 00 00 00 43 18 B3 33 41 B1 99 9A 42 8B 80 00 00 00 00 00 42 72 66 66 43 0F 8C CD 41 BC 66 66 42 72 66 66 00 00 00 00 42 6D 78 8B
write:09 03 01 0F 00 08 74 BB
09 03 10
900 00 97 08 00 00 00 00 00 00 18 DA 00 00 3D 49
43 6A 8D D3
234.554
43 6B 4C CD
235.3
43 6A D5 81
234.834
43 CB 6D D3
406.858
43 CB 8F 1B
407.118
43 CB 36 66
406.425
00 00 00 00
0
00 00 00 00
0
3F 5E B8 52
0.87
00 00 00 00
0
00 00 00 00
0
43 34 00 00
180
43 70 00 00
240
42 70 00 00
60
42 70 00 00
60
42 B4 00 00
90
43 52 00 00
210
42 B4 00 00
90
42 70 00 00
60
43 52 00 00
210
43 96 00 00
300
3E F0 20 C5
0.469
3E 3D 70 A4
0.185
3F 5A 5E 35
0.853
3F 3D F3 B6
0.742
42 48 20 2D
50.03142
43 2B 99 9A
171.6
41 B8 CC CD
23.1
42 A7 66 66
83.7
00 00 00 00
0
42 81 4C CD
64.65
00 00 00 00
0
00 00 00 00
0
00 00 00 00
0
00 00 00 00
0
00 00 00 00
0
00 00 00 00
0
00 00 00 00
0
00 00 00 00
0
00 00 00 00
0
00 00 00 00
0
43 0E 80 00
142.5
41 B7 99 9A
22.95
42 6C 66 66
59.1
00 00 00 00
0
42 70 99 9A
60.15
43 BC 2C CD
376.35
41 E7 99 9A
28.95
43 4D CC CD
205.8
00 00 00 00
0
43 0D 73 33
141.45
00 00 00 00
0
00 00 00 00
0
00 00 00 00
0
00 00 00 00
0
00 00 00 00
0
40 A3 33 33
5.1
00 00 00 00
0
40 19 99 9A
2.4
00 00 00 00
0
40 23 33 33
2.55
43 2C 33 33
172.2
41 D6 CC CD
26.85
42 95 19 9A
74.55
00 00 00 00
0
42 8D 4C CD
70.65
43 CA B9 9A
405.45
42 5D 66 66
55.35
43 44 33 33
196.2
00 00 00 00
0
43 19 C0 00
153.75
00 00 00 00
0
00 00 00 00
0
00 00 00 00
0
00 00 00 00
0
00 00 00 00
0
43 18 B3 33
152.7
41 B1 99 9A
22.2
42 8B 80 00
69.75
00 00 00 00
0
42 72 66 66
60.6
43 0F 8C CD
143.55
41 BC 66 66
23.55
42 72 66 66
60.6
00 00 00 00
0
42 6D 78 8B
59.367718
00 00 97 08
38664
00 00 00 00
0
00 00 18 DA
6362
00 00 3D 49
15689
234.554235.3234.834406.858407.118406.425000.870018024060609021090602103000.4690.1850.8530.74250.03142171.623.183.7064.650000000000142.522.9559.1060.15376.3528.95205.80141.45000005.102.402.55172.226.8574.55070.65405.4555.35196.20153.7500000152.722.269.75060.6143.5523.5560.6059.36771892017112809570038.66406.36215.689insert into tbl_power_info_v2(P_A_DIANYA,P_B_DIANYA,P_C_DIANYA,P_UAB_XIANDIANYA,P_UBC_XIANDIANYA,P_UCA_XIANDIANYA,P_A_DIANLIU,P_B_DIANLIU,P_C_DIANLIU,P_A_YGGL,P_B_YGGL,P_C_YGGL,P_HXYGGL,P_A_WGGL,P_B_WGGL,P_C_WGGL,P_HXWGGL,P_A_SZGL,P_B_SZGL,P_C_SZGL,P_HXSZGL,P_A_GLYS,P_B_GLYS,P_C_GLYS,P_HXGLYS,P_DWPL,P_BY_KwhZ,P_BY_KwhJ,P_BY_KwhF,P_BY_KwhP,P_BY_KwhG,P_BY_HKwhZ,P_BY_HKwhJ,P_BY_HKwhF,P_BY_HKwhP,P_BY_HKwhG, P_BY_KvarhZ,P_BY_KvarhJ,P_BY_KvarhF,P_BY_KvarhP,P_BY_KvarhG, P_BY_HKvarhZ,P_BY_HKvarhJ,P_BY_HKvarhF,P_BY_HKvarhP,P_BY_HKvarhG, P_SY_KwhZ,P_SY_KwhJ,P_SY_KwhF,P_SY_KwhP,P_SY_KwhG, P_SY_HKwhZ,P_SY_HKwhJ,P_SY_HKwhF,P_SY_HKwhP,P_SY_HKwhG, P_SY_KvarhZ,P_SY_KvarhJ,P_SY_KvarhF,P_SY_KvarhP,P_SY_KvarhG, P_SY_HKvarhZ,P_SY_HKvarhJ,P_SY_HKvarhF,P_SY_HKvarhP,P_SY_HKvarhG, P_SSY_KwhZ,P_SSY_KwhJ,P_SSY_KwhF,P_SSY_KwhP,P_SSY_KwhG, P_SSY_HKwhZ,P_SSY_HKwhJ,P_SSY_HKwhF,P_SSY_HKwhP,P_SSY_HKwhG, P_SSY_KvarhZ,P_SSY_KvarhJ,P_SSY_KvarhF,P_SSY_KvarhP,P_SSY_KvarhG, P_SSY_HKvarhZ,P_SSY_HKvarhJ,P_SSY_HKvarhF,P_SSY_HKvarhP,P_SSY_HKvarhG,P_CODE,P_TIME,P_ZXYGDN,P_FXYGDN,P_ZXWGDN,P_FXWGDN)values(234.554,235.3,234.834,406.858,407.118,406.425,0,0,0.87,0,0,180,240,60,60,90,210,90,60,210,300,0.469,0.185,0.853,0.742,50.03142,171.6,23.1,83.7,0,64.65,0,0,0,0,0,0,0,0,0,0,142.5,22.95,59.1,0,60.15,376.35,28.95,205.8,0,141.45,0,0,0,0,0,5.1,0,2.4,0,2.55,172.2,26.85,74.55,0,70.65,405.45,55.35,196.2,0,153.75,0,0,0,0,0,152.7,22.2,69.75,0,60.6,143.55,23.55,60.6,0,59.367718,9,20171128095700,38.664,0,6.362,15.689)
写入成功读取完毕一个
write:01 03 00 38 00 34 C5 D0
01 03 68
143 6A 8C CD 43 6B 35 C3 43 6A BE B8 43 CB 62 D1 43 CB 78 F6 43 CB 2B 64 41 05 1E B8 40 B3 33 33 00 00 00 00 44 A0 00 00 44 82 00 00 00 00 00 00 45 16 00 00 43 C8 00 00 43 20 00 00 00 00 00 00 44 0C 00 00 44 F0 00 00 44 AA 00 00 00 00 00 00 45 1B 00 00 3F 2B 02 0C 3F 4B C6 A8 00 00 00 00 3F 78 D4 FE 42 47 06 8B
write:01 03 07 CF 00 78 74 A3
01 03 F0
1totalsize 240
44 0B 99 9A 42 44 CC CD 43 AF 33 33 00 00 00 00 43 1E 66 66 00 00 00 00 00 00 00 00 00 00 00 00 00 00 00 00 00 00 00 00 3F 4C CC CD 00 00 00 00 3F 4C CC CD 00 00 00 00 00 00 00 00 43 30 CC CD 41 BC CC CD 42 B3 33 33 00 00 00 00 42 7E 66 66 44 0E 99 9A 42 56 66 66 43 B2 00 00 00 00 00 00 43 20 00 00 00 00 00 00 00 00 00 00 00 00 00 00 00 00 00 00 00 00 00 00 3F CC CC CD 00 00 00 00 3F CC CC CD 00 00 00 00 00 00 00 00 43 33 33 33 41 C0 00 00 42 B7 33 33 00 00 00 00 42 7C CC CD 44 42 66 66 42 AF 33 33 43 F7 66 66 00 00 00 00 43 42 CC CD 00 00 00 00 00 00 00 00 00 00 00 00 00 00 00 00 00 00 00 00 42 21 99 9A 3F CC CC CD 41 F3 33 33 00 00 00 00 41 00 00 00 43 36 CC CD 41 DC CC CD 42 BE 66 66 00 00 00 00 42 6E 6E 0A
write:01 03 01 0F 00 08 75 F3
01 03 10
100 01 A1 C8 00 00 00 00 00 00 8A CF 00 00 54 9E
43 6A 8C CD
234.55
43 6B 35 C3
235.21
43 6A BE B8
234.745
43 CB 62 D1
406.772
43 CB 78 F6
406.945
43 CB 2B 64
406.339
41 05 1E B8
8.32
40 B3 33 33
5.6
00 00 00 00
0
44 A0 00 00
1280
44 82 00 00
1040
00 00 00 00
0
45 16 00 00
2400
43 C8 00 00
400
43 20 00 00
160
00 00 00 00
0
44 0C 00 00
560
44 F0 00 00
1920
44 AA 00 00
1360
00 00 00 00
0
45 1B 00 00
2480
3F 2B 02 0C
0.668
3F 4B C6 A8
0.796
00 00 00 00
0
3F 78 D4 FE
0.972
42 47 06 8B
49.75639
44 0B 99 9A
558.4
42 44 CC CD
49.2
43 AF 33 33
350.4
00 00 00 00
0
43 1E 66 66
158.4
00 00 00 00
0
00 00 00 00
0
00 00 00 00
0
00 00 00 00
0
00 00 00 00
0
3F 4C CC CD
0.8
00 00 00 00
0
3F 4C CC CD
0.8
00 00 00 00
0
00 00 00 00
0
43 30 CC CD
176.8
41 BC CC CD
23.6
42 B3 33 33
89.6
00 00 00 00
0
42 7E 66 66
63.6
44 0E 99 9A
570.4
42 56 66 66
53.6
43 B2 00 00
356
00 00 00 00
0
43 20 00 00
160
00 00 00 00
0
00 00 00 00
0
00 00 00 00
0
00 00 00 00
0
00 00 00 00
0
3F CC CC CD
1.6
00 00 00 00
0
3F CC CC CD
1.6
00 00 00 00
0
00 00 00 00
0
43 33 33 33
179.2
41 C0 00 00
24
42 B7 33 33
91.6
00 00 00 00
0
42 7C CC CD
63.2
44 42 66 66
777.6
42 AF 33 33
87.6
43 F7 66 66
494.8
00 00 00 00
0
43 42 CC CD
194.8
00 00 00 00
0
00 00 00 00
0
00 00 00 00
0
00 00 00 00
0
00 00 00 00
0
42 21 99 9A
40.4
3F CC CC CD
1.6
41 F3 33 33
30.4
00 00 00 00
0
41 00 00 00
8
43 36 CC CD
182.8
41 DC CC CD
27.6
42 BE 66 66
95.2
00 00 00 00
0
42 6E 6E 0A
59.60746
00 01 A1 C8
106952
00 00 00 00
0
00 00 8A CF
35535
00 00 54 9E
21662
234.55235.21234.745406.772406.945406.3398.325.601280104002400400160056019201360024800.6680.79600.97249.75639558.449.2350.40158.4000000.800.800176.823.689.6063.6570.453.63560160000001.601.600179.22491.6063.2777.687.6494.80194.80000040.41.630.408182.827.695.2059.60746120171128095809106.952035.53521.662insert into tbl_power_info_v2(P_A_DIANYA,P_B_DIANYA,P_C_DIANYA,P_UAB_XIANDIANYA,P_UBC_XIANDIANYA,P_UCA_XIANDIANYA,P_A_DIANLIU,P_B_DIANLIU,P_C_DIANLIU,P_A_YGGL,P_B_YGGL,P_C_YGGL,P_HXYGGL,P_A_WGGL,P_B_WGGL,P_C_WGGL,P_HXWGGL,P_A_SZGL,P_B_SZGL,P_C_SZGL,P_HXSZGL,P_A_GLYS,P_B_GLYS,P_C_GLYS,P_HXGLYS,P_DWPL,P_BY_KwhZ,P_BY_KwhJ,P_BY_KwhF,P_BY_KwhP,P_BY_KwhG,P_BY_HKwhZ,P_BY_HKwhJ,P_BY_HKwhF,P_BY_HKwhP,P_BY_HKwhG, P_BY_KvarhZ,P_BY_KvarhJ,P_BY_KvarhF,P_BY_KvarhP,P_BY_KvarhG, P_BY_HKvarhZ,P_BY_HKvarhJ,P_BY_HKvarhF,P_BY_HKvarhP,P_BY_HKvarhG, P_SY_KwhZ,P_SY_KwhJ,P_SY_KwhF,P_SY_KwhP,P_SY_KwhG, P_SY_HKwhZ,P_SY_HKwhJ,P_SY_HKwhF,P_SY_HKwhP,P_SY_HKwhG, P_SY_KvarhZ,P_SY_KvarhJ,P_SY_KvarhF,P_SY_KvarhP,P_SY_KvarhG, P_SY_HKvarhZ,P_SY_HKvarhJ,P_SY_HKvarhF,P_SY_HKvarhP,P_SY_HKvarhG, P_SSY_KwhZ,P_SSY_KwhJ,P_SSY_KwhF,P_SSY_KwhP,P_SSY_KwhG, P_SSY_HKwhZ,P_SSY_HKwhJ,P_SSY_HKwhF,P_SSY_HKwhP,P_SSY_HKwhG, P_SSY_KvarhZ,P_SSY_KvarhJ,P_SSY_KvarhF,P_SSY_KvarhP,P_SSY_KvarhG, P_SSY_HKvarhZ,P_SSY_HKvarhJ,P_SSY_HKvarhF,P_SSY_HKvarhP,P_SSY_HKvarhG,P_CODE,P_TIME,P_ZXYGDN,P_FXYGDN,P_ZXWGDN,P_FXWGDN)values(234.55,235.21,234.745,406.772,406.945,406.339,8.32,5.6,0,1280,1040,0,2400,400,160,0,560,1920,1360,0,2480,0.668,0.796,0,0.972,49.75639,558.4,49.2,350.4,0,158.4,0,0,0,0,0,0.8,0,0.8,0,0,176.8,23.6,89.6,0,63.6,570.4,53.6,356,0,160,0,0,0,0,0,1.6,0,1.6,0,0,179.2,24,91.6,0,63.2,777.6,87.6,494.8,0,194.8,0,0,0,0,0,40.4,1.6,30.4,0,8,182.8,27.6,95.2,0,59.60746,1,20171128095809,106.952,0,35.535,21.662)
写入成功读取完毕一个
write:02 03 00 38 00 34 C5 E3
02 03 68
243 6A E5 60 43 6B 95 3F 43 6B 2D 50 43 CB A5 3F 43 CB C6 87 43 CB 78 F6 40 19 99 9A 40 D4 7A E1 40 47 AE 14 43 F0 00 00 44 96 00 00 44 20 00 00 45 11 00 00 00 00 00 00 00 00 00 00 43 20 00 00 00 00 00 00 44 0C 00 00 44 BE 00 00 44 34 00 00 45 11 00 00 3F 51 26 E9 3F 4A 3D 71 3F 5E 35 3F 3F 7F BE 77 42 48 10 C2
write:02 03 07 CF 00 78 74 90
02 03 F0
2totalsize 240
44 B5 C0 00 43 32 66 66 44 59 99 9A 00 00 00 00 43 CA 66 66 00 00 00 00 00 00 00 00 00 00 00 00 00 00 00 00 00 00 00 00 43 01 99 9A 41 93 33 33 42 9C CC CD 00 00 00 00 42 01 99 9A 42 3E 66 66 40 33 33 33 42 0B 33 33 00 00 00 00 41 19 99 9A 44 8E D9 9A 43 18 CC CD 44 1F E6 66 00 00 00 00 43 AF 00 00 00 00 00 00 00 00 00 00 00 00 00 00 00 00 00 00 00 00 00 00 42 21 99 9A 41 20 00 00 41 A9 99 9A 00 00 00 00 41 0C CC CD 42 30 00 00 40 4C CC CD 41 F3 33 33 00 00 00 00 41 19 99 9A 45 2F 66 66 43 E3 99 9A 44 DC 33 33 00 00 00 00 44 13 4C CD 00 00 00 00 00 00 00 00 00 00 00 00 00 00 00 00 00 00 00 00 44 77 E6 66 43 2E CC CD 44 24 B3 33 00 00 00 00 43 1D 99 9A 42 13 33 33 40 00 00 00 41 D9 99 9A 00 00 00 00 40 E6 F8 21
write:02 03 01 0F 00 08 75 C0
02 03 10
200 03 53 76 00 00 00 05 00 01 34 D3 00 00 42 5A
43 6A E5 60
234.896
43 6B 95 3F
235.583
43 6B 2D 50
235.177
43 CB A5 3F
407.291
43 CB C6 87
407.551
43 CB 78 F6
406.945
40 19 99 9A
2.4
40 D4 7A E1
6.64
40 47 AE 14
3.12
43 F0 00 00
480
44 96 00 00
1200
44 20 00 00
640
45 11 00 00
2320
00 00 00 00
0
00 00 00 00
0
43 20 00 00
160
00 00 00 00
0
44 0C 00 00
560
44 BE 00 00
1520
44 34 00 00
720
45 11 00 00
2320
3F 51 26 E9
0.817
3F 4A 3D 71
0.79
3F 5E 35 3F
0.868
3F 7F BE 77
0.999
42 48 10 C2
50.016365
44 B5 C0 00
1454
43 32 66 66
178.4
44 59 99 9A
870.4
00 00 00 00
0
43 CA 66 66
404.8
00 00 00 00
0
00 00 00 00
0
00 00 00 00
0
00 00 00 00
0
00 00 00 00
0
43 01 99 9A
129.6
41 93 33 33
18.4
42 9C CC CD
78.4
00 00 00 00
0
42 01 99 9A
32.4
42 3E 66 66
47.6
40 33 33 33
2.8
42 0B 33 33
34.8
00 00 00 00
0
41 19 99 9A
9.6
44 8E D9 9A
1142.8
43 18 CC CD
152.8
44 1F E6 66
639.6
00 00 00 00
0
43 AF 00 00
350
00 00 00 00
0
00 00 00 00
0
00 00 00 00
0
00 00 00 00
0
00 00 00 00
0
42 21 99 9A
40.4
41 20 00 00
10
41 A9 99 9A
21.2
00 00 00 00
0
41 0C CC CD
8.8
42 30 00 00
44
40 4C CC CD
3.2
41 F3 33 33
30.4
00 00 00 00
0
41 19 99 9A
9.6
45 2F 66 66
2806.4
43 E3 99 9A
455.2
44 DC 33 33
1761.6
00 00 00 00
0
44 13 4C CD
589.2
00 00 00 00
0
00 00 00 00
0
00 00 00 00
0
00 00 00 00
0
00 00 00 00
0
44 77 E6 66
991.6
43 2E CC CD
174.8
44 24 B3 33
658.8
00 00 00 00
0
43 1D 99 9A
157.6
42 13 33 33
36.8
40 00 00 00
2
41 D9 99 9A
27.2
00 00 00 00
0
40 E6 F8 21
7.217789
00 03 53 76
217974
00 00 00 05
5
00 01 34 D3
79059
00 00 42 5A
16986
234.896235.583235.177407.291407.551406.9452.46.643.1248012006402320001600560152072023200.8170.790.8680.99950.0163651454178.4870.40404.800000129.618.478.4032.447.62.834.809.61142.8152.8639.603500000040.41021.208.8443.230.409.62806.4455.21761.60589.200000991.6174.8658.80157.636.8227.207.217789220171128095906217.9740.00579.05916.986insert into tbl_power_info_v2(P_A_DIANYA,P_B_DIANYA,P_C_DIANYA,P_UAB_XIANDIANYA,P_UBC_XIANDIANYA,P_UCA_XIANDIANYA,P_A_DIANLIU,P_B_DIANLIU,P_C_DIANLIU,P_A_YGGL,P_B_YGGL,P_C_YGGL,P_HXYGGL,P_A_WGGL,P_B_WGGL,P_C_WGGL,P_HXWGGL,P_A_SZGL,P_B_SZGL,P_C_SZGL,P_HXSZGL,P_A_GLYS,P_B_GLYS,P_C_GLYS,P_HXGLYS,P_DWPL,P_BY_KwhZ,P_BY_KwhJ,P_BY_KwhF,P_BY_KwhP,P_BY_KwhG,P_BY_HKwhZ,P_BY_HKwhJ,P_BY_HKwhF,P_BY_HKwhP,P_BY_HKwhG, P_BY_KvarhZ,P_BY_KvarhJ,P_BY_KvarhF,P_BY_KvarhP,P_BY_KvarhG, P_BY_HKvarhZ,P_BY_HKvarhJ,P_BY_HKvarhF,P_BY_HKvarhP,P_BY_HKvarhG, P_SY_KwhZ,P_SY_KwhJ,P_SY_KwhF,P_SY_KwhP,P_SY_KwhG, P_SY_HKwhZ,P_SY_HKwhJ,P_SY_HKwhF,P_SY_HKwhP,P_SY_HKwhG, P_SY_KvarhZ,P_SY_KvarhJ,P_SY_KvarhF,P_SY_KvarhP,P_SY_KvarhG, P_SY_HKvarhZ,P_SY_HKvarhJ,P_SY_HKvarhF,P_SY_HKvarhP,P_SY_HKvarhG, P_SSY_KwhZ,P_SSY_KwhJ,P_SSY_KwhF,P_SSY_KwhP,P_SSY_KwhG, P_SSY_HKwhZ,P_SSY_HKwhJ,P_SSY_HKwhF,P_SSY_HKwhP,P_SSY_HKwhG, P_SSY_KvarhZ,P_SSY_KvarhJ,P_SSY_KvarhF,P_SSY_KvarhP,P_SSY_KvarhG, P_SSY_HKvarhZ,P_SSY_HKvarhJ,P_SSY_HKvarhF,P_SSY_HKvarhP,P_SSY_HKvarhG,P_CODE,P_TIME,P_ZXYGDN,P_FXYGDN,P_ZXWGDN,P_FXWGDN)values(234.896,235.583,235.177,407.291,407.551,406.945,2.4,6.64,3.12,480,1200,640,2320,0,0,160,0,560,1520,720,2320,0.817,0.79,0.868,0.999,50.016365,1454,178.4,870.4,0,404.8,0,0,0,0,0,129.6,18.4,78.4,0,32.4,47.6,2.8,34.8,0,9.6,1142.8,152.8,639.6,0,350,0,0,0,0,0,40.4,10,21.2,0,8.8,44,3.2,30.4,0,9.6,2806.4,455.2,1761.6,0,589.2,0,0,0,0,0,991.6,174.8,658.8,0,157.6,36.8,2,27.2,0,7.217789,2,20171128095906,217.974,0.005,79.059,16.986)
写入成功读取完毕一个
write:03 03 00 38 00 34 C4 32
03 03 68
343 6B 36 04 43 6B 11 EC 43 6B 1F 3B 43 CB 9A 3D 43 CB 8F 1B 43 CB A5 3F 00 00 00 00 3F 75 C2 8F 00 00 00 00 00 00 00 00 42 70 00 00 00 00 00 00 42 F0 00 00 00 00 00 00 43 52 00 00 00 00 00 00 43 52 00 00 42 70 00 00 43 52 00 00 00 00 00 00 43 70 00 00 3F 31 EB 85 3E 97 0A 3D 00 00 00 00 3E F1 26 E9 42 47 7A 0C
write:03 03 07 CF 00 78 75 41
03 03 F0
3totalsize 240
43 CE 19 9A 42 A3 33 33 43 63 8C CD 00 00 00 00 42 CD CC CD 00 00 00 00 00 00 00 00 00 00 00 00 00 00 00 00 00 00 00 00 42 B4 99 9A 41 87 99 9A 42 6D 00 00 00 00 00 00 41 61 99 9A 40 9E 66 66 3F 66 66 66 40 5C CC CD 00 00 00 00 3F 19 99 9A 43 EF 2C CD 42 F0 00 00 43 7D 33 33 00 00 00 00 42 D1 B3 33 00 00 00 00 00 00 00 00 00 00 00 00 00 00 00 00 00 00 00 00 42 9C E6 66 40 E6 66 66 42 5B 99 9A 00 00 00 00 41 80 66 66 41 68 CC CD 40 A8 00 00 40 F9 99 9A 00 00 00 00 3F AC CC CD 43 D8 60 00 42 B5 80 00 43 81 86 66 00 00 00 00 42 A5 99 9A 00 00 00 00 00 00 00 00 00 00 00 00 00 00 00 00 00 00 00 00 42 F7 CC CD 41 90 00 00 42 A5 99 9A 00 00 00 00 41 B8 CC CD 40 EB 33 33 40 06 66 66 40 53 33 33 00 00 00 00 3F E6 90 CF
write:03 03 01 0F 00 08 74 11
03 03 10
300 00 C7 97 00 00 00 00 00 00 28 28 00 00 05 B5
43 6B 36 04
235.211
43 6B 11 EC
235.07
43 6B 1F 3B
235.122
43 CB 9A 3D
407.205
43 CB 8F 1B
407.118
43 CB A5 3F
407.291
00 00 00 00
0
3F 75 C2 8F
0.96
00 00 00 00
0
00 00 00 00
0
42 70 00 00
60
00 00 00 00
0
42 F0 00 00
120
00 00 00 00
0
43 52 00 00
210
00 00 00 00
0
43 52 00 00
210
42 70 00 00
60
43 52 00 00
210
00 00 00 00
0
43 70 00 00
240
3F 31 EB 85
0.695
3E 97 0A 3D
0.295
00 00 00 00
0
3E F1 26 E9
0.471
42 47 7A 0C
49.869186
43 CE 19 9A
412.2
42 A3 33 33
81.6
43 63 8C CD
227.55
00 00 00 00
0
42 CD CC CD
102.9
00 00 00 00
0
00 00 00 00
0
00 00 00 00
0
00 00 00 00
0
00 00 00 00
0
42 B4 99 9A
90.3
41 87 99 9A
16.95
42 6D 00 00
59.25
00 00 00 00
0
41 61 99 9A
14.1
40 9E 66 66
4.95
3F 66 66 66
0.9
40 5C CC CD
3.45
00 00 00 00
0
3F 19 99 9A
0.6
43 EF 2C CD
478.35
42 F0 00 00
120
43 7D 33 33
253.2
00 00 00 00
0
42 D1 B3 33
104.85
00 00 00 00
0
00 00 00 00
0
00 00 00 00
0
00 00 00 00
0
00 00 00 00
0
42 9C E6 66
78.45
40 E6 66 66
7.2
42 5B 99 9A
54.9
00 00 00 00
0
41 80 66 66
16.05
41 68 CC CD
14.55
40 A8 00 00
5.25
40 F9 99 9A
7.8
00 00 00 00
0
3F AC CC CD
1.35
43 D8 60 00
432.75
42 B5 80 00
90.75
43 81 86 66
259.05
00 00 00 00
0
42 A5 99 9A
82.8
00 00 00 00
0
00 00 00 00
0
00 00 00 00
0
00 00 00 00
0
00 00 00 00
0
42 F7 CC CD
123.9
41 90 00 00
18
42 A5 99 9A
82.8
00 00 00 00
0
41 B8 CC CD
23.1
40 EB 33 33
7.35
40 06 66 66
2.1
40 53 33 33
3.3
00 00 00 00
0
3F E6 90 CF
1.8012942
00 00 C7 97
51095
00 00 00 00
0
00 00 28 28
10280
00 00 05 B5
1461
235.211235.07235.122407.205407.118407.29100.9600600120021002106021002400.6950.29500.47149.869186412.281.6227.550102.90000090.316.9559.25014.14.950.93.4500.6478.35120253.20104.850000078.457.254.9016.0514.555.257.801.35432.7590.75259.05082.800000123.91882.8023.17.352.13.301.801294232017112810000551.095010.281.461insert into tbl_power_info_v2(P_A_DIANYA,P_B_DIANYA,P_C_DIANYA,P_UAB_XIANDIANYA,P_UBC_XIANDIANYA,P_UCA_XIANDIANYA,P_A_DIANLIU,P_B_DIANLIU,P_C_DIANLIU,P_A_YGGL,P_B_YGGL,P_C_YGGL,P_HXYGGL,P_A_WGGL,P_B_WGGL,P_C_WGGL,P_HXWGGL,P_A_SZGL,P_B_SZGL,P_C_SZGL,P_HXSZGL,P_A_GLYS,P_B_GLYS,P_C_GLYS,P_HXGLYS,P_DWPL,P_BY_KwhZ,P_BY_KwhJ,P_BY_KwhF,P_BY_KwhP,P_BY_KwhG,P_BY_HKwhZ,P_BY_HKwhJ,P_BY_HKwhF,P_BY_HKwhP,P_BY_HKwhG, P_BY_KvarhZ,P_BY_KvarhJ,P_BY_KvarhF,P_BY_KvarhP,P_BY_KvarhG, P_BY_HKvarhZ,P_BY_HKvarhJ,P_BY_HKvarhF,P_BY_HKvarhP,P_BY_HKvarhG, P_SY_KwhZ,P_SY_KwhJ,P_SY_KwhF,P_SY_KwhP,P_SY_KwhG, P_SY_HKwhZ,P_SY_HKwhJ,P_SY_HKwhF,P_SY_HKwhP,P_SY_HKwhG, P_SY_KvarhZ,P_SY_KvarhJ,P_SY_KvarhF,P_SY_KvarhP,P_SY_KvarhG, P_SY_HKvarhZ,P_SY_HKvarhJ,P_SY_HKvarhF,P_SY_HKvarhP,P_SY_HKvarhG, P_SSY_KwhZ,P_SSY_KwhJ,P_SSY_KwhF,P_SSY_KwhP,P_SSY_KwhG, P_SSY_HKwhZ,P_SSY_HKwhJ,P_SSY_HKwhF,P_SSY_HKwhP,P_SSY_HKwhG, P_SSY_KvarhZ,P_SSY_KvarhJ,P_SSY_KvarhF,P_SSY_KvarhP,P_SSY_KvarhG, P_SSY_HKvarhZ,P_SSY_HKvarhJ,P_SSY_HKvarhF,P_SSY_HKvarhP,P_SSY_HKvarhG,P_CODE,P_TIME,P_ZXYGDN,P_FXYGDN,P_ZXWGDN,P_FXWGDN)values(235.211,235.07,235.122,407.205,407.118,407.291,0,0.96,0,0,60,0,120,0,210,0,210,60,210,0,240,0.695,0.295,0,0.471,49.869186,412.2,81.6,227.55,0,102.9,0,0,0,0,0,90.3,16.95,59.25,0,14.1,4.95,0.9,3.45,0,0.6,478.35,120,253.2,0,104.85,0,0,0,0,0,78.45,7.2,54.9,0,16.05,14.55,5.25,7.8,0,1.35,432.75,90.75,259.05,0,82.8,0,0,0,0,0,123.9,18,82.8,0,23.1,7.35,2.1,3.3,0,1.8012942,3,20171128100005,51.095,0,10.28,1.461)
写入成功读取完毕一个
write:04 03 00 38 00 34 C5 85
04 03 68
443 6A C3 D7 43 6A 93 F8 43 6A 92 B0 43 CB 2B 64 43 CB 15 1F 43 CB 2B 64 3F D7 0A 3D 00 00 00 00 40 2E 14 7B 43 48 00 00 00 00 00 00 44 0C 00 00 44 52 00 00 42 A0 00 00 00 00 00 00 42 A0 00 00 00 00 00 00 43 C8 00 00 42 A0 00 00 44 20 00 00 44 52 00 00 3F 0A 7E FA 3F 15 3F 7D 3F 64 9B A6 3F 7F BE 77 42 48 CA 96
write:04 03 07 CF 00 78 74 F6
04 03 F0
4totalsize 240
44 2E 66 66 43 12 00 00 43 C5 E6 66 00 00 00 00 43 1B 99 9A 00 00 00 00 00 00 00 00 00 00 00 00 00 00 00 00 00 00 00 00 40 C6 66 66 3E 4C CC CD 3F CC CC CD 00 00 00 00 40 86 66 66 42 8E 00 00 41 70 00 00 42 0B 33 33 00 00 00 00 41 A9 99 9A 44 1B 00 00 42 CE CC CD 43 AE 00 00 00 00 00 00 43 28 66 66 00 00 00 00 00 00 00 00 00 00 00 00 00 00 00 00 00 00 00 00 41 B0 00 00 40 26 66 66 40 C0 00 00 00 00 00 00 41 53 33 33 42 48 CC CD 41 06 66 66 41 D0 00 00 00 00 00 00 41 76 66 66 44 21 8C CD 42 DE CC CD 43 B0 99 9A 00 00 00 00 43 35 33 33 00 00 00 00 00 00 00 00 00 00 00 00 00 00 00 00 00 00 00 00 41 E8 00 00 40 B9 99 9A 40 E0 00 00 00 00 00 00 41 81 99 9A 42 14 CC CD 40 8C CC CD 41 9B 33 33 00 00 00 00 41 50 1A A9
write:04 03 01 0F 00 08 75 A6
04 03 10
400 02 95 B6 00 00 00 00 00 00 42 42 00 00 1C 7C
43 6A C3 D7
234.765
43 6A 93 F8
234.578
43 6A 92 B0
234.573
43 CB 2B 64
406.339
43 CB 15 1F
406.165
43 CB 2B 64
406.339
3F D7 0A 3D
1.68
00 00 00 00
0
40 2E 14 7B
2.72
43 48 00 00
200
00 00 00 00
0
44 0C 00 00
560
44 52 00 00
840
42 A0 00 00
80
00 00 00 00
0
42 A0 00 00
80
00 00 00 00
0
43 C8 00 00
400
42 A0 00 00
80
44 20 00 00
640
44 52 00 00
840
3F 0A 7E FA
0.541
3F 15 3F 7D
0.583
3F 64 9B A6
0.893
3F 7F BE 77
0.999
42 48 CA 96
50.197838
44 2E 66 66
697.6
43 12 00 00
146
43 C5 E6 66
395.8
00 00 00 00
0
43 1B 99 9A
155.6
00 00 00 00
0
00 00 00 00
0
00 00 00 00
0
00 00 00 00
0
00 00 00 00
0
40 C6 66 66
6.2
3E 4C CC CD
0.2
3F CC CC CD
1.6
00 00 00 00
0
40 86 66 66
4.2
42 8E 00 00
71
41 70 00 00
15
42 0B 33 33
34.8
00 00 00 00
0
41 A9 99 9A
21.2
44 1B 00 00
620
42 CE CC CD
103.4
43 AE 00 00
348
00 00 00 00
0
43 28 66 66
168.4
00 00 00 00
0
00 00 00 00
0
00 00 00 00
0
00 00 00 00
0
00 00 00 00
0
41 B0 00 00
22
40 26 66 66
2.6
40 C0 00 00
6
00 00 00 00
0
41 53 33 33
13.2
42 48 CC CD
50.2
41 06 66 66
8.4
41 D0 00 00
26
00 00 00 00
0
41 76 66 66
15.4
44 21 8C CD
646.2
42 DE CC CD
111.4
43 B0 99 9A
353.2
00 00 00 00
0
43 35 33 33
181.2
00 00 00 00
0
00 00 00 00
0
00 00 00 00
0
00 00 00 00
0
00 00 00 00
0
41 E8 00 00
29
40 B9 99 9A
5.8
40 E0 00 00
7
00 00 00 00
0
41 81 99 9A
16.2
42 14 CC CD
37.2
40 8C CC CD
4.4
41 9B 33 33
19.4
00 00 00 00
0
41 50 1A A9
13.006509
00 02 95 B6
169398
00 00 00 00
0
00 00 42 42
16962
00 00 1C 7C
7292
234.765234.578234.573406.339406.165406.3391.6802.722000560840800800400806408400.5410.5830.8930.99950.197838697.6146395.80155.6000006.20.21.604.2711534.8021.2620103.43480168.400000222.66013.250.28.426015.4646.2111.4353.20181.200000295.87016.237.24.419.4013.006509420171128100114169.398016.9627.292insert into tbl_power_info_v2(P_A_DIANYA,P_B_DIANYA,P_C_DIANYA,P_UAB_XIANDIANYA,P_UBC_XIANDIANYA,P_UCA_XIANDIANYA,P_A_DIANLIU,P_B_DIANLIU,P_C_DIANLIU,P_A_YGGL,P_B_YGGL,P_C_YGGL,P_HXYGGL,P_A_WGGL,P_B_WGGL,P_C_WGGL,P_HXWGGL,P_A_SZGL,P_B_SZGL,P_C_SZGL,P_HXSZGL,P_A_GLYS,P_B_GLYS,P_C_GLYS,P_HXGLYS,P_DWPL,P_BY_KwhZ,P_BY_KwhJ,P_BY_KwhF,P_BY_KwhP,P_BY_KwhG,P_BY_HKwhZ,P_BY_HKwhJ,P_BY_HKwhF,P_BY_HKwhP,P_BY_HKwhG, P_BY_KvarhZ,P_BY_KvarhJ,P_BY_KvarhF,P_BY_KvarhP,P_BY_KvarhG, P_BY_HKvarhZ,P_BY_HKvarhJ,P_BY_HKvarhF,P_BY_HKvarhP,P_BY_HKvarhG, P_SY_KwhZ,P_SY_KwhJ,P_SY_KwhF,P_SY_KwhP,P_SY_KwhG, P_SY_HKwhZ,P_SY_HKwhJ,P_SY_HKwhF,P_SY_HKwhP,P_SY_HKwhG, P_SY_KvarhZ,P_SY_KvarhJ,P_SY_KvarhF,P_SY_KvarhP,P_SY_KvarhG, P_SY_HKvarhZ,P_SY_HKvarhJ,P_SY_HKvarhF,P_SY_HKvarhP,P_SY_HKvarhG, P_SSY_KwhZ,P_SSY_KwhJ,P_SSY_KwhF,P_SSY_KwhP,P_SSY_KwhG, P_SSY_HKwhZ,P_SSY_HKwhJ,P_SSY_HKwhF,P_SSY_HKwhP,P_SSY_HKwhG, P_SSY_KvarhZ,P_SSY_KvarhJ,P_SSY_KvarhF,P_SSY_KvarhP,P_SSY_KvarhG, P_SSY_HKvarhZ,P_SSY_HKvarhJ,P_SSY_HKvarhF,P_SSY_HKvarhP,P_SSY_HKvarhG,P_CODE,P_TIME,P_ZXYGDN,P_FXYGDN,P_ZXWGDN,P_FXWGDN)values(234.765,234.578,234.573,406.339,406.165,406.339,1.68,0,2.72,200,0,560,840,80,0,80,0,400,80,640,840,0.541,0.583,0.893,0.999,50.197838,697.6,146,395.8,0,155.6,0,0,0,0,0,6.2,0.2,1.6,0,4.2,71,15,34.8,0,21.2,620,103.4,348,0,168.4,0,0,0,0,0,22,2.6,6,0,13.2,50.2,8.4,26,0,15.4,646.2,111.4,353.2,0,181.2,0,0,0,0,0,29,5.8,7,0,16.2,37.2,4.4,19.4,0,13.006509,4,20171128100114,169.398,0,16.962,7.292)
写入成功读取完毕一个
write:05 03 00 38 00 34 C4 54
05 03 68
543 6B 0D 50 43 6B 09 37 43 6A FD B2 43 CB 83 F8 43 CB 78 F6 43 CB 78 F6 40 C5 1E B8 40 2B 85 1F 3F A8 F5 C3 44 9B 00 00 44 02 00 00 43 70 00 00 44 FA 00 00 43 70 00 00 00 00 00 00 42 F0 00 00 43 C8 00 00 44 B4 00 00 44 16 00 00 43 A0 00 00 44 FF 00 00 3F 5A 5E 35 3F 5A 9F BE 3F 35 C2 8F 3F 7A 9F BE 42 48 3F D8
write:05 03 07 CF 00 78 75 27
05 03 F0
5totalsize 240
44 BB B9 9A 43 B5 66 66 44 50 66 66 00 00 00 00 43 98 99 9A 00 00 00 00 00 00 00 00 00 00 00 00 00 00 00 00 00 00 00 00 00 00 00 00 00 00 00 00 00 00 00 00 00 00 00 00 00 00 00 00 43 6C 33 33 42 4F 33 33 42 E4 66 66 00 00 00 00 42 8C 00 00 44 C1 06 66 43 AF 99 9A 44 5A 00 00 00 00 00 00 43 A0 66 66 00 00 00 00 00 00 00 00 00 00 00 00 00 00 00 00 00 00 00 00 3F CC CC CD 3F 19 99 9A 3F 4C CC CD 00 00 00 00 00 00 00 00 43 6F 99 9A 42 50 00 00 42 E7 33 33 00 00 00 00 42 8F 99 9A 44 D5 93 33 43 A4 B3 33 44 7E 19 9A 00 00 00 00 43 B5 33 33 00 00 00 00 00 00 00 00 00 00 00 00 00 00 00 00 00 00 00 00 42 A8 66 66 41 9B 33 33 42 69 99 9A 00 00 00 00 40 CC CC CD 43 26 33 33 41 FE 66 66 42 9E CC CD 00 00 00 00 42 5B E9 B9
write:05 03 01 0F 00 08 74 77
05 03 10
500 08 8C 0E 00 00 00 00 00 00 D9 A8 00 00 96 1B
43 6B 0D 50
235.052
43 6B 09 37
235.036
43 6A FD B2
234.991
43 CB 83 F8
407.031
43 CB 78 F6
406.945
43 CB 78 F6
406.945
40 C5 1E B8
6.16
40 2B 85 1F
2.68
3F A8 F5 C3
1.32
44 9B 00 00
1240
44 02 00 00
520
43 70 00 00
240
44 FA 00 00
2000
43 70 00 00
240
00 00 00 00
0
42 F0 00 00
120
43 C8 00 00
400
44 B4 00 00
1440
44 16 00 00
600
43 A0 00 00
320
44 FF 00 00
2040
3F 5A 5E 35
0.853
3F 5A 9F BE
0.854
3F 35 C2 8F
0.71
3F 7A 9F BE
0.979
42 48 3F D8
50.062347
44 BB B9 9A
1501.8
43 B5 66 66
362.8
44 50 66 66
833.6
00 00 00 00
0
43 98 99 9A
305.2
00 00 00 00
0
00 00 00 00
0
00 00 00 00
0
00 00 00 00
0
00 00 00 00
0
00 00 00 00
0
00 00 00 00
0
00 00 00 00
0
00 00 00 00
0
00 00 00 00
0
43 6C 33 33
236.2
42 4F 33 33
51.8
42 E4 66 66
114.2
00 00 00 00
0
42 8C 00 00
70
44 C1 06 66
1544.2
43 AF 99 9A
351.2
44 5A 00 00
872
00 00 00 00
0
43 A0 66 66
320.8
00 00 00 00
0
00 00 00 00
0
00 00 00 00
0
00 00 00 00
0
00 00 00 00
0
3F CC CC CD
1.6
3F 19 99 9A
0.6
3F 4C CC CD
0.8
00 00 00 00
0
00 00 00 00
0
43 6F 99 9A
239.6
42 50 00 00
52
42 E7 33 33
115.6
00 00 00 00
0
42 8F 99 9A
71.8
44 D5 93 33
1708.6
43 A4 B3 33
329.4
44 7E 19 9A
1016.4
00 00 00 00
0
43 B5 33 33
362.4
00 00 00 00
0
00 00 00 00
0
00 00 00 00
0
00 00 00 00
0
00 00 00 00
0
42 A8 66 66
84.2
41 9B 33 33
19.4
42 69 99 9A
58.4
00 00 00 00
0
40 CC CC CD
6.4
43 26 33 33
166.2
41 FE 66 66
31.8
42 9E CC CD
79.4
00 00 00 00
0
42 5B E9 B9
54.978245
00 08 8C 0E
560142
00 00 00 00
0
00 00 D9 A8
55720
00 00 96 1B
38427
235.052235.036234.991407.031406.945406.9456.162.681.32124052024020002400120400144060032020400.8530.8540.710.97950.0623471501.8362.8833.60305.20000000000236.251.8114.20701544.2351.28720320.8000001.60.60.800239.652115.6071.81708.6329.41016.40362.40000084.219.458.406.4166.231.879.4054.978245520171128100205560.142055.7238.427insert into tbl_power_info_v2(P_A_DIANYA,P_B_DIANYA,P_C_DIANYA,P_UAB_XIANDIANYA,P_UBC_XIANDIANYA,P_UCA_XIANDIANYA,P_A_DIANLIU,P_B_DIANLIU,P_C_DIANLIU,P_A_YGGL,P_B_YGGL,P_C_YGGL,P_HXYGGL,P_A_WGGL,P_B_WGGL,P_C_WGGL,P_HXWGGL,P_A_SZGL,P_B_SZGL,P_C_SZGL,P_HXSZGL,P_A_GLYS,P_B_GLYS,P_C_GLYS,P_HXGLYS,P_DWPL,P_BY_KwhZ,P_BY_KwhJ,P_BY_KwhF,P_BY_KwhP,P_BY_KwhG,P_BY_HKwhZ,P_BY_HKwhJ,P_BY_HKwhF,P_BY_HKwhP,P_BY_HKwhG, P_BY_KvarhZ,P_BY_KvarhJ,P_BY_KvarhF,P_BY_KvarhP,P_BY_KvarhG, P_BY_HKvarhZ,P_BY_HKvarhJ,P_BY_HKvarhF,P_BY_HKvarhP,P_BY_HKvarhG, P_SY_KwhZ,P_SY_KwhJ,P_SY_KwhF,P_SY_KwhP,P_SY_KwhG, P_SY_HKwhZ,P_SY_HKwhJ,P_SY_HKwhF,P_SY_HKwhP,P_SY_HKwhG, P_SY_KvarhZ,P_SY_KvarhJ,P_SY_KvarhF,P_SY_KvarhP,P_SY_KvarhG, P_SY_HKvarhZ,P_SY_HKvarhJ,P_SY_HKvarhF,P_SY_HKvarhP,P_SY_HKvarhG, P_SSY_KwhZ,P_SSY_KwhJ,P_SSY_KwhF,P_SSY_KwhP,P_SSY_KwhG, P_SSY_HKwhZ,P_SSY_HKwhJ,P_SSY_HKwhF,P_SSY_HKwhP,P_SSY_HKwhG, P_SSY_KvarhZ,P_SSY_KvarhJ,P_SSY_KvarhF,P_SSY_KvarhP,P_SSY_KvarhG, P_SSY_HKvarhZ,P_SSY_HKvarhJ,P_SSY_HKvarhF,P_SSY_HKvarhP,P_SSY_HKvarhG,P_CODE,P_TIME,P_ZXYGDN,P_FXYGDN,P_ZXWGDN,P_FXWGDN)values(235.052,235.036,234.991,407.031,406.945,406.945,6.16,2.68,1.32,1240,520,240,2000,240,0,120,400,1440,600,320,2040,0.853,0.854,0.71,0.979,50.062347,1501.8,362.8,833.6,0,305.2,0,0,0,0,0,0,0,0,0,0,236.2,51.8,114.2,0,70,1544.2,351.2,872,0,320.8,0,0,0,0,0,1.6,0.6,0.8,0,0,239.6,52,115.6,0,71.8,1708.6,329.4,1016.4,0,362.4,0,0,0,0,0,84.2,19.4,58.4,0,6.4,166.2,31.8,79.4,0,54.978245,5,20171128100205,560.142,0,55.72,38.427)
写入成功读取完毕一个
write:06 03 00 38 00 34 C4 67
06 03 68
643 6A A8 F6 43 6B 0E 98 43 6A 57 4C 43 CB 57 AE 43 CB 36 66 43 CB 0A 1D 40 91 EB 85 40 30 A3 D7 40 CA 3D 71 44 52 00 00 43 C8 00 00 44 91 00 00 45 16 00 00 43 20 00 00 00 00 00 00 42 A0 00 00 43 48 00 00 44 87 00 00 44 20 00 00 44 B9 00 00 45 18 80 00 3F 48 31 27 3F 20 00 00 3F 00 00 00 00 00 00 00 00 00 00 00
49 FB E7
heart:49 FB E7 3F 7F 3B 64 42 48 70 04
write:06 03 07 CF 00 78 75 14
06 03 F0
6totalsize 240
44 E5 19 9A 43 AE 19 9A 44 89 D9 9A 00 00 00 00 43 BE CC CD 00 00 00 00 00 00 00 00 00 00 00 00 00 00 00 00 00 00 00 00 40 00 00 00 3E 4C CC CD 3F B3 33 33 00 00 00 00 3E 4C CC CD 43 25 33 33 42 00 CC CD 42 97 99 9A 00 00 00 00 42 64 00 00 44 F8 A6 66 43 BF 33 33 44 93 80 00 00 00 00 00 43 D5 4C CD 00 00 00 00 00 00 00 00 00 00 00 00 00 00 00 00 00 00 00 00 40 C6 66 66 3E CC CC CD 40 A0 00 00 00 00 00 00 3F 19 99 9A 43 47 99 9A 42 16 66 66 42 BB 99 9A 00 00 00 00 42 88 00 00 45 15 00 00 43 EA 66 66 44 AC 53 33 00 00 00 00 44 06 0C CD 00 00 00 00 00 00 00 00 00 00 00 00 00 00 00 00 00 00 00 00 41 53 33 33 40 66 66 66 40 CC CC CD 00 00 00 00 40 40 00 00 43 38 33 33 42 10 00 00 42 A8 CC CD 00 00 00 00 42 7D 4F A8
write:06 03 01 0F 00 08 74 44
06 03 10
600 0B 3E CB 00 00 00 00 00 00 17 9C 00 00 FE 8C
43 6A A8 F6
234.66
43 6B 0E 98
235.057
43 6A 57 4C
234.341
43 CB 57 AE
406.685
43 CB 36 66
406.425
43 CB 0A 1D
406.079
40 91 EB 85
4.56
40 30 A3 D7
2.76
40 CA 3D 71
6.32
44 52 00 00
840
43 C8 00 00
400
44 91 00 00
1160
45 16 00 00
2400
43 20 00 00
160
00 00 00 00
0
42 A0 00 00
80
43 48 00 00
200
44 87 00 00
1080
44 20 00 00
640
44 B9 00 00
1480
45 18 80 00
2440
3F 48 31 27
0.782
3F 20 00 00
0.625
3F 00 00 00
0.5
00 00 00 00
0
00 00 00 00
0
44 E5 19 9A
1832.8
43 AE 19 9A
348.2
44 89 D9 9A
1102.8
00 00 00 00
0
43 BE CC CD
381.6
00 00 00 00
0
00 00 00 00
0
00 00 00 00
0
00 00 00 00
0
00 00 00 00
0
40 00 00 00
2
3E 4C CC CD
0.2
3F B3 33 33
1.4
00 00 00 00
0
3E 4C CC CD
0.2
43 25 33 33
165.2
42 00 CC CD
32.2
42 97 99 9A
75.8
00 00 00 00
0
42 64 00 00
57
44 F8 A6 66
1989.2
43 BF 33 33
382.4
44 93 80 00
1180
00 00 00 00
0
43 D5 4C CD
426.6
00 00 00 00
0
00 00 00 00
0
00 00 00 00
0
00 00 00 00
0
00 00 00 00
0
40 C6 66 66
6.2
3E CC CC CD
0.4
40 A0 00 00
5
00 00 00 00
0
3F 19 99 9A
0.6
43 47 99 9A
199.6
42 16 66 66
37.6
42 BB 99 9A
93.8
00 00 00 00
0
42 88 00 00
68
45 15 00 00
2384
43 EA 66 66
468.8
44 AC 53 33
1378.6
00 00 00 00
0
44 06 0C CD
536.2
00 00 00 00
0
00 00 00 00
0
00 00 00 00
0
00 00 00 00
0
00 00 00 00
0
41 53 33 33
13.2
40 66 66 66
3.6
40 CC CC CD
6.4
00 00 00 00
0
40 40 00 00
3
43 38 33 33
184.2
42 10 00 00
36
42 A8 CC CD
84.4
00 00 00 00
0
42 7D 4F A8
63.32779
00 0B 3E CB
736971
00 00 00 00
0
00 00 17 9C
6044
00 00 FE 8C
65164
234.66235.057234.341406.685406.425406.0794.562.766.32840400116024001600802001080640148024400.7820.6250.5001832.8348.21102.80381.60000020.21.400.2165.232.275.80571989.2382.411800426.6000006.20.4500.6199.637.693.80682384468.81378.60536.20000013.23.66.403184.23684.4063.32779620171128100305736.97106.04465.164insert into tbl_power_info_v2(P_A_DIANYA,P_B_DIANYA,P_C_DIANYA,P_UAB_XIANDIANYA,P_UBC_XIANDIANYA,P_UCA_XIANDIANYA,P_A_DIANLIU,P_B_DIANLIU,P_C_DIANLIU,P_A_YGGL,P_B_YGGL,P_C_YGGL,P_HXYGGL,P_A_WGGL,P_B_WGGL,P_C_WGGL,P_HXWGGL,P_A_SZGL,P_B_SZGL,P_C_SZGL,P_HXSZGL,P_A_GLYS,P_B_GLYS,P_C_GLYS,P_HXGLYS,P_DWPL,P_BY_KwhZ,P_BY_KwhJ,P_BY_KwhF,P_BY_KwhP,P_BY_KwhG,P_BY_HKwhZ,P_BY_HKwhJ,P_BY_HKwhF,P_BY_HKwhP,P_BY_HKwhG, P_BY_KvarhZ,P_BY_KvarhJ,P_BY_KvarhF,P_BY_KvarhP,P_BY_KvarhG, P_BY_HKvarhZ,P_BY_HKvarhJ,P_BY_HKvarhF,P_BY_HKvarhP,P_BY_HKvarhG, P_SY_KwhZ,P_SY_KwhJ,P_SY_KwhF,P_SY_KwhP,P_SY_KwhG, P_SY_HKwhZ,P_SY_HKwhJ,P_SY_HKwhF,P_SY_HKwhP,P_SY_HKwhG, P_SY_KvarhZ,P_SY_KvarhJ,P_SY_KvarhF,P_SY_KvarhP,P_SY_KvarhG, P_SY_HKvarhZ,P_SY_HKvarhJ,P_SY_HKvarhF,P_SY_HKvarhP,P_SY_HKvarhG, P_SSY_KwhZ,P_SSY_KwhJ,P_SSY_KwhF,P_SSY_KwhP,P_SSY_KwhG, P_SSY_HKwhZ,P_SSY_HKwhJ,P_SSY_HKwhF,P_SSY_HKwhP,P_SSY_HKwhG, P_SSY_KvarhZ,P_SSY_KvarhJ,P_SSY_KvarhF,P_SSY_KvarhP,P_SSY_KvarhG, P_SSY_HKvarhZ,P_SSY_HKvarhJ,P_SSY_HKvarhF,P_SSY_HKvarhP,P_SSY_HKvarhG,P_CODE,P_TIME,P_ZXYGDN,P_FXYGDN,P_ZXWGDN,P_FXWGDN)values(234.66,235.057,234.341,406.685,406.425,406.079,4.56,2.76,6.32,840,400,1160,2400,160,0,80,200,1080,640,1480,2440,0.782,0.625,0.5,0,0,1832.8,348.2,1102.8,0,381.6,0,0,0,0,0,2,0.2,1.4,0,0.2,165.2,32.2,75.8,0,57,1989.2,382.4,1180,0,426.6,0,0,0,0,0,6.2,0.4,5,0,0.6,199.6,37.6,93.8,0,68,2384,468.8,1378.6,0,536.2,0,0,0,0,0,13.2,3.6,6.4,0,3,184.2,36,84.4,0,63.32779,6,20171128100305,736.971,0,6.044,65.164)
写入成功读取完毕一个
write:07 03 00 38 00 34 C5 B6
write:07 03 07 CF 00 78 74 C5
write:07 03 01 0F 00 08 75 95
write:08 03 00 38 00 34 C5 49
08 03 68
843 6A B2 F2 43 6B 22 D1 43 6A 9D 71 43 CB 62 D1 43 CB 62 D1 43 CB 2B 64 40 6E 14 7B 00 00 00 00 00 00 00 00 44 4A 80 00 42 70 00 00 00 00 00 00 44 52 00 00 42 B4 00 00 00 00 00 00 00 00 00 00 42 B4 00 00 44 59 80 00 42 70 00 00 00 00 00 00 44 52 00 00 3F 6B 02 0C 3F 45 60 42 00 00 00 00 3F 7E F9 DB 42 48 81 37
write:08 03 07 CF 00 78 74 3A
08 03 F0
8totalsize 240
42 84 4C CD 00 00 00 00 42 2F 33 33 00 00 00 00 41 B2 CC CD 00 00 00 00 00 00 00 00 00 00 00 00 00 00 00 00 00 00 00 00 00 00 00 00 00 00 00 00 00 00 00 00 00 00 00 00 00 00 00 00 41 42 66 66 00 00 00 00 40 F0 00 00 00 00 00 00 40 90 00 00 42 67 00 00 00 00 00 00 42 28 00 00 00 00 00 00 41 79 99 9A 00 00 00 00 00 00 00 00 00 00 00 00 00 00 00 00 00 00 00 00 00 00 00 00 00 00 00 00 00 00 00 00 00 00 00 00 00 00 00 00 41 1E 66 66 00 00 00 00 40 DC CC CD 00 00 00 00 40 40 00 00 42 95 19 9A 00 00 00 00 42 3B CC CD 00 00 00 00 41 DB 99 9A 00 00 00 00 00 00 00 00 00 00 00 00 00 00 00 00 00 00 00 00 00 00 00 00 00 00 00 00 00 00 00 00 00 00 00 00 00 00 00 00 41 4E 66 66 00 00 00 00 41 06 66 66 00 00 00 00 40 8B 3D 2F
write:08 03 01 0F 00 08 75 6A
08 03 10
800 00 49 D8 00 00 00 00 00 00 00 00 00 00 A4 44
43 6A B2 F2
234.699
43 6B 22 D1
235.136
43 6A 9D 71
234.615
43 CB 62 D1
406.772
43 CB 62 D1
406.772
43 CB 2B 64
406.339
40 6E 14 7B
3.72
00 00 00 00
0
00 00 00 00
0
44 4A 80 00
810
42 70 00 00
60
00 00 00 00
0
44 52 00 00
840
42 B4 00 00
90
00 00 00 00
0
00 00 00 00
0
42 B4 00 00
90
44 59 80 00
870
42 70 00 00
60
00 00 00 00
0
44 52 00 00
840
3F 6B 02 0C
0.918
3F 45 60 42
0.771
00 00 00 00
0
3F 7E F9 DB
0.996
42 48 81 37
50.126186
42 84 4C CD
66.15
00 00 00 00
0
42 2F 33 33
43.8
00 00 00 00
0
41 B2 CC CD
22.35
00 00 00 00
0
00 00 00 00
0
00 00 00 00
0
00 00 00 00
0
00 00 00 00
0
00 00 00 00
0
00 00 00 00
0
00 00 00 00
0
00 00 00 00
0
00 00 00 00
0
41 42 66 66
12.15
00 00 00 00
0
40 F0 00 00
7.5
00 00 00 00
0
40 90 00 00
4.5
42 67 00 00
57.75
00 00 00 00
0
42 28 00 00
42
00 00 00 00
0
41 79 99 9A
15.6
00 00 00 00
0
00 00 00 00
0
00 00 00 00
0
00 00 00 00
0
00 00 00 00
0
00 00 00 00
0
00 00 00 00
0
00 00 00 00
0
00 00 00 00
0
00 00 00 00
0
41 1E 66 66
9.9
00 00 00 00
0
40 DC CC CD
6.9
00 00 00 00
0
40 40 00 00
3
42 95 19 9A
74.55
00 00 00 00
0
42 3B CC CD
46.95
00 00 00 00
0
41 DB 99 9A
27.45
00 00 00 00
0
00 00 00 00
0
00 00 00 00
0
00 00 00 00
0
00 00 00 00
0
00 00 00 00
0
00 00 00 00
0
00 00 00 00
0
00 00 00 00
0
00 00 00 00
0
41 4E 66 66
12.9
00 00 00 00
0
41 06 66 66
8.4
00 00 00 00
0
40 8B 3D 2F
4.3512187
00 00 49 D8
18904
00 00 00 00
0
00 00 00 00
0
00 00 A4 44
42052
234.699235.136234.615406.772406.772406.3393.72008106008409000908706008400.9180.77100.99650.12618666.15043.8022.35000000000012.1507.504.557.75042015.600000000009.906.90374.55046.95027.45000000000012.908.404.351218782017112810050518.9040042.052insert into tbl_power_info_v2(P_A_DIANYA,P_B_DIANYA,P_C_DIANYA,P_UAB_XIANDIANYA,P_UBC_XIANDIANYA,P_UCA_XIANDIANYA,P_A_DIANLIU,P_B_DIANLIU,P_C_DIANLIU,P_A_YGGL,P_B_YGGL,P_C_YGGL,P_HXYGGL,P_A_WGGL,P_B_WGGL,P_C_WGGL,P_HXWGGL,P_A_SZGL,P_B_SZGL,P_C_SZGL,P_HXSZGL,P_A_GLYS,P_B_GLYS,P_C_GLYS,P_HXGLYS,P_DWPL,P_BY_KwhZ,P_BY_KwhJ,P_BY_KwhF,P_BY_KwhP,P_BY_KwhG,P_BY_HKwhZ,P_BY_HKwhJ,P_BY_HKwhF,P_BY_HKwhP,P_BY_HKwhG, P_BY_KvarhZ,P_BY_KvarhJ,P_BY_KvarhF,P_BY_KvarhP,P_BY_KvarhG, P_BY_HKvarhZ,P_BY_HKvarhJ,P_BY_HKvarhF,P_BY_HKvarhP,P_BY_HKvarhG, P_SY_KwhZ,P_SY_KwhJ,P_SY_KwhF,P_SY_KwhP,P_SY_KwhG, P_SY_HKwhZ,P_SY_HKwhJ,P_SY_HKwhF,P_SY_HKwhP,P_SY_HKwhG, P_SY_KvarhZ,P_SY_KvarhJ,P_SY_KvarhF,P_SY_KvarhP,P_SY_KvarhG, P_SY_HKvarhZ,P_SY_HKvarhJ,P_SY_HKvarhF,P_SY_HKvarhP,P_SY_HKvarhG, P_SSY_KwhZ,P_SSY_KwhJ,P_SSY_KwhF,P_SSY_KwhP,P_SSY_KwhG, P_SSY_HKwhZ,P_SSY_HKwhJ,P_SSY_HKwhF,P_SSY_HKwhP,P_SSY_HKwhG, P_SSY_KvarhZ,P_SSY_KvarhJ,P_SSY_KvarhF,P_SSY_KvarhP,P_SSY_KvarhG, P_SSY_HKvarhZ,P_SSY_HKvarhJ,P_SSY_HKvarhF,P_SSY_HKvarhP,P_SSY_HKvarhG,P_CODE,P_TIME,P_ZXYGDN,P_FXYGDN,P_ZXWGDN,P_FXWGDN)values(234.699,235.136,234.615,406.772,406.772,406.339,3.72,0,0,810,60,0,840,90,0,0,90,870,60,0,840,0.918,0.771,0,0.996,50.126186,66.15,0,43.8,0,22.35,0,0,0,0,0,0,0,0,0,0,12.15,0,7.5,0,4.5,57.75,0,42,0,15.6,0,0,0,0,0,0,0,0,0,0,9.9,0,6.9,0,3,74.55,0,46.95,0,27.45,0,0,0,0,0,0,0,0,0,0,12.9,0,8.4,0,4.3512187,8,20171128100505,18.904,0,0,42.052)
写入成功读取完毕一个
write:09 03 00 38 00 34 C4 98
09 03 68
943 6A CB C7 43 6A F7 0A 43 6A 8A 7F 43 CB 57 AE 43 CB 41 89 43 CB 2B 64 00 00 00 00 00 00 00 00 3F 5E B8 52 00 00 00 00 00 00 00 00 43 34 00 00 43 70 00 00 42 70 00 00 42 70 00 00 42 B4 00 00 43 52 00 00 42 B4 00 00 42 70 00 00 43 52 00 00 43 96 00 00 3E F9 DB 23 3E 3D 70 A4 3F 5A 1C AC 3F 3E 35 3F 42 48 C9 F8
write:09 03 07 CF 00 78 75 EB
09 03 F0
9totalsize 240
43 2B C0 00 41 B8 CC CD 42 A7 66 66 00 00 00 00 42 81 4C CD 00 00 00 00 00 00 00 00 00 00 00 00 00 00 00 00 00 00 00 00 00 00 00 00 00 00 00 00 00 00 00 00 00 00 00 00 00 00 00 00 43 0E 80 00 41 B7 99 9A 42 6C 66 66 00 00 00 00 42 70 99 9A 43 BC 2C CD 41 E7 99 9A 43 4D CC CD 00 00 00 00 43 0D 73 33 00 00 00 00 00 00 00 00 00 00 00 00 00 00 00 00 00 00 00 00 40 A3 33 33 00 00 00 00 40 19 99 9A 00 00 00 00 40 23 33 33 43 2C 33 33 41 D6 CC CD 42 95 19 9A 00 00 00 00 42 8D 4C CD 43 CA B9 9A 42 5D 66 66 43 44 33 33 00 00 00 00 43 19 C0 00 00 00 00 00 00 00 00 00 00 00 00 00 00 00 00 00 00 00 00 00 43 18 B3 33 41 B1 99 9A 42 8B 80 00 00 00 00 00 42 72 66 66 43 0F 8C CD 41 BC 66 66 42 72 66 66 00 00 00 00 42 6D AE D3
write:09 03 01 0F 00 08 74 BB
09 03 10
900 00 97 09 00 00 00 00 00 00 18 DA 00 00 39 B5
43 6A CB C7
234.796
43 6A F7 0A
234.965
43 6A 8A 7F
234.541
43 CB 57 AE
406.685
43 CB 41 89
406.512
43 CB 2B 64
406.339
00 00 00 00
0
00 00 00 00
0
3F 5E B8 52
0.87
00 00 00 00
0
00 00 00 00
0
43 34 00 00
180
43 70 00 00
240
42 70 00 00
60
42 70 00 00
60
42 B4 00 00
90
43 52 00 00
210
42 B4 00 00
90
42 70 00 00
60
43 52 00 00
210
43 96 00 00
300
3E F9 DB 23
0.488
3E 3D 70 A4
0.185
3F 5A 1C AC
0.852
3F 3E 35 3F
0.743
42 48 C9 F8
50.197235
43 2B C0 00
171.75
41 B8 CC CD
23.1
42 A7 66 66
83.7
00 00 00 00
0
42 81 4C CD
64.65
00 00 00 00
0
00 00 00 00
0
00 00 00 00
0
00 00 00 00
0
00 00 00 00
0
00 00 00 00
0
00 00 00 00
0
00 00 00 00
0
00 00 00 00
0
00 00 00 00
0
43 0E 80 00
142.5
41 B7 99 9A
22.95
42 6C 66 66
59.1
00 00 00 00
0
42 70 99 9A
60.15
43 BC 2C CD
376.35
41 E7 99 9A
28.95
43 4D CC CD
205.8
00 00 00 00
0
43 0D 73 33
141.45
00 00 00 00
0
00 00 00 00
0
00 00 00 00
0
00 00 00 00
0
00 00 00 00
0
40 A3 33 33
5.1
00 00 00 00
0
40 19 99 9A
2.4
00 00 00 00
0
40 23 33 33
2.55
43 2C 33 33
172.2
41 D6 CC CD
26.85
42 95 19 9A
74.55
00 00 00 00
0
42 8D 4C CD
70.65
43 CA B9 9A
405.45
42 5D 66 66
55.35
43 44 33 33
196.2
00 00 00 00
0
43 19 C0 00
153.75
00 00 00 00
0
00 00 00 00
0
00 00 00 00
0
00 00 00 00
0
00 00 00 00
0
43 18 B3 33
152.7
41 B1 99 9A
22.2
42 8B 80 00
69.75
00 00 00 00
0
42 72 66 66
60.6
43 0F 8C CD
143.55
41 BC 66 66
23.55
42 72 66 66
60.6
00 00 00 00
0
42 6D AE D3
59.420727
00 00 97 09
38665
00 00 00 00
0
00 00 18 DA
6362
00 00 39 B5
14773
234.796234.965234.541406.685406.512406.339000.870018024060609021090602103000.4880.1850.8520.74350.197235171.7523.183.7064.650000000000142.522.9559.1060.15376.3528.95205.80141.45000005.102.402.55172.226.8574.55070.65405.4555.35196.20153.7500000152.722.269.75060.6143.5523.5560.6059.42072792017112810060538.66506.36214.773insert into tbl_power_info_v2(P_A_DIANYA,P_B_DIANYA,P_C_DIANYA,P_UAB_XIANDIANYA,P_UBC_XIANDIANYA,P_UCA_XIANDIANYA,P_A_DIANLIU,P_B_DIANLIU,P_C_DIANLIU,P_A_YGGL,P_B_YGGL,P_C_YGGL,P_HXYGGL,P_A_WGGL,P_B_WGGL,P_C_WGGL,P_HXWGGL,P_A_SZGL,P_B_SZGL,P_C_SZGL,P_HXSZGL,P_A_GLYS,P_B_GLYS,P_C_GLYS,P_HXGLYS,P_DWPL,P_BY_KwhZ,P_BY_KwhJ,P_BY_KwhF,P_BY_KwhP,P_BY_KwhG,P_BY_HKwhZ,P_BY_HKwhJ,P_BY_HKwhF,P_BY_HKwhP,P_BY_HKwhG, P_BY_KvarhZ,P_BY_KvarhJ,P_BY_KvarhF,P_BY_KvarhP,P_BY_KvarhG, P_BY_HKvarhZ,P_BY_HKvarhJ,P_BY_HKvarhF,P_BY_HKvarhP,P_BY_HKvarhG, P_SY_KwhZ,P_SY_KwhJ,P_SY_KwhF,P_SY_KwhP,P_SY_KwhG, P_SY_HKwhZ,P_SY_HKwhJ,P_SY_HKwhF,P_SY_HKwhP,P_SY_HKwhG, P_SY_KvarhZ,P_SY_KvarhJ,P_SY_KvarhF,P_SY_KvarhP,P_SY_KvarhG, P_SY_HKvarhZ,P_SY_HKvarhJ,P_SY_HKvarhF,P_SY_HKvarhP,P_SY_HKvarhG, P_SSY_KwhZ,P_SSY_KwhJ,P_SSY_KwhF,P_SSY_KwhP,P_SSY_KwhG, P_SSY_HKwhZ,P_SSY_HKwhJ,P_SSY_HKwhF,P_SSY_HKwhP,P_SSY_HKwhG, P_SSY_KvarhZ,P_SSY_KvarhJ,P_SSY_KvarhF,P_SSY_KvarhP,P_SSY_KvarhG, P_SSY_HKvarhZ,P_SSY_HKvarhJ,P_SSY_HKvarhF,P_SSY_HKvarhP,P_SSY_HKvarhG,P_CODE,P_TIME,P_ZXYGDN,P_FXYGDN,P_ZXWGDN,P_FXWGDN)values(234.796,234.965,234.541,406.685,406.512,406.339,0,0,0.87,0,0,180,240,60,60,90,210,90,60,210,300,0.488,0.185,0.852,0.743,50.197235,171.75,23.1,83.7,0,64.65,0,0,0,0,0,0,0,0,0,0,142.5,22.95,59.1,0,60.15,376.35,28.95,205.8,0,141.45,0,0,0,0,0,5.1,0,2.4,0,2.55,172.2,26.85,74.55,0,70.65,405.45,55.35,196.2,0,153.75,0,0,0,0,0,152.7,22.2,69.75,0,60.6,143.55,23.55,60.6,0,59.420727,9,20171128100605,38.665,0,6.362,14.773)
写入成功读取完毕一个
write:01 03 00 38 00 34 C5 D0
01 03 68
143 6A CB 44 43 6A EC CD 43 6A BB 64 43 CB 57 AE 43 CB 57 AE 43 CB 41 89 41 03 D7 0A 40 A1 47 AE 00 00 00 00 44 A0 00 00 44 70 00 00 00 00 00 00 45 0C 00 00 43 C8 00 00 43 20 00 00 00 00 00 00 44 0C 00 00 44 F0 00 00 44 96 00 00 00 00 00 00 45 11 00 00 3F 29 FB E7 3F 4E D9 17 00 00 00 00 3F 78 51 EC 42 47 0D FF
write:01 03 07 CF 00 78 74 A3
01 03 F0
1totalsize 240
44 0B B3 33 42 44 CC CD 43 AF 66 66 00 00 00 00 43 1E 66 66 00 00 00 00 00 00 00 00 00 00 00 00 00 00 00 00 00 00 00 00 3F 4C CC CD 00 00 00 00 3F 4C CC CD 00 00 00 00 00 00 00 00 43 30 CC CD 41 BC CC CD 42 B3 33 33 00 00 00 00 42 7E 66 66 44 0E 99 9A 42 56 66 66 43 B2 00 00 00 00 00 00 43 20 00 00 00 00 00 00 00 00 00 00 00 00 00 00 00 00 00 00 00 00 00 00 3F CC CC CD 00 00 00 00 3F CC CC CD 00 00 00 00 00 00 00 00 43 33 33 33 41 C0 00 00 42 B7 33 33 00 00 00 00 42 7C CC CD 44 42 66 66 42 AF 33 33 43 F7 66 66 00 00 00 00 43 42 CC CD 00 00 00 00 00 00 00 00 00 00 00 00 00 00 00 00 00 00 00 00 42 21 99 9A 3F CC CC CD 41 F3 33 33 00 00 00 00 41 00 00 00 43 36 CC CD 41 DC CC CD 42 BE 66 66 00 00 00 00 42 6E 69 6F
write:01 03 01 0F 00 08 75 F3
01 03 10
100 01 A1 CC 00 00 00 00 00 00 8A CF 00 00 41 AE
43 6A CB 44
234.794
43 6A EC CD
234.925
43 6A BB 64
234.732
43 CB 57 AE
406.685
43 CB 57 AE
406.685
43 CB 41 89
406.512
41 03 D7 0A
8.24
40 A1 47 AE
5.04
00 00 00 00
0
44 A0 00 00
1280
44 70 00 00
960
00 00 00 00
0
45 0C 00 00
2240
43 C8 00 00
400
43 20 00 00
160
00 00 00 00
0
44 0C 00 00
560
44 F0 00 00
1920
44 96 00 00
1200
00 00 00 00
0
45 11 00 00
2320
3F 29 FB E7
0.664
3F 4E D9 17
0.808
00 00 00 00
0
3F 78 51 EC
0.97
42 47 0D FF
49.763668
44 0B B3 33
558.8
42 44 CC CD
49.2
43 AF 66 66
350.8
00 00 00 00
0
43 1E 66 66
158.4
00 00 00 00
0
00 00 00 00
0
00 00 00 00
0
00 00 00 00
0
00 00 00 00
0
3F 4C CC CD
0.8
00 00 00 00
0
3F 4C CC CD
0.8
00 00 00 00
0
00 00 00 00
0
43 30 CC CD
176.8
41 BC CC CD
23.6
42 B3 33 33
89.6
00 00 00 00
0
42 7E 66 66
63.6
44 0E 99 9A
570.4
42 56 66 66
53.6
43 B2 00 00
356
00 00 00 00
0
43 20 00 00
160
00 00 00 00
0
00 00 00 00
0
00 00 00 00
0
00 00 00 00
0
00 00 00 00
0
3F CC CC CD
1.6
00 00 00 00
0
3F CC CC CD
1.6
00 00 00 00
0
00 00 00 00
0
43 33 33 33
179.2
41 C0 00 00
24
42 B7 33 33
91.6
00 00 00 00
0
42 7C CC CD
63.2
44 42 66 66
777.6
42 AF 33 33
87.6
43 F7 66 66
494.8
00 00 00 00
0
43 42 CC CD
194.8
00 00 00 00
0
00 00 00 00
0
00 00 00 00
0
00 00 00 00
0
00 00 00 00
0
42 21 99 9A
40.4
3F CC CC CD
1.6
41 F3 33 33
30.4
00 00 00 00
0
41 00 00 00
8
43 36 CC CD
182.8
41 DC CC CD
27.6
42 BE 66 66
95.2
00 00 00 00
0
42 6E 69 6F
59.602962
00 01 A1 CC
106956
00 00 00 00
0
00 00 8A CF
35535
00 00 41 AE
16814
234.794234.925234.732406.685406.685406.5128.245.040128096002240400160056019201200023200.6640.80800.9749.763668558.849.2350.80158.4000000.800.800176.823.689.6063.6570.453.63560160000001.601.600179.22491.6063.2777.687.6494.80194.80000040.41.630.408182.827.695.2059.602962120171128100710106.956035.53516.814insert into tbl_power_info_v2(P_A_DIANYA,P_B_DIANYA,P_C_DIANYA,P_UAB_XIANDIANYA,P_UBC_XIANDIANYA,P_UCA_XIANDIANYA,P_A_DIANLIU,P_B_DIANLIU,P_C_DIANLIU,P_A_YGGL,P_B_YGGL,P_C_YGGL,P_HXYGGL,P_A_WGGL,P_B_WGGL,P_C_WGGL,P_HXWGGL,P_A_SZGL,P_B_SZGL,P_C_SZGL,P_HXSZGL,P_A_GLYS,P_B_GLYS,P_C_GLYS,P_HXGLYS,P_DWPL,P_BY_KwhZ,P_BY_KwhJ,P_BY_KwhF,P_BY_KwhP,P_BY_KwhG,P_BY_HKwhZ,P_BY_HKwhJ,P_BY_HKwhF,P_BY_HKwhP,P_BY_HKwhG, P_BY_KvarhZ,P_BY_KvarhJ,P_BY_KvarhF,P_BY_KvarhP,P_BY_KvarhG, P_BY_HKvarhZ,P_BY_HKvarhJ,P_BY_HKvarhF,P_BY_HKvarhP,P_BY_HKvarhG, P_SY_KwhZ,P_SY_KwhJ,P_SY_KwhF,P_SY_KwhP,P_SY_KwhG, P_SY_HKwhZ,P_SY_HKwhJ,P_SY_HKwhF,P_SY_HKwhP,P_SY_HKwhG, P_SY_KvarhZ,P_SY_KvarhJ,P_SY_KvarhF,P_SY_KvarhP,P_SY_KvarhG, P_SY_HKvarhZ,P_SY_HKvarhJ,P_SY_HKvarhF,P_SY_HKvarhP,P_SY_HKvarhG, P_SSY_KwhZ,P_SSY_KwhJ,P_SSY_KwhF,P_SSY_KwhP,P_SSY_KwhG, P_SSY_HKwhZ,P_SSY_HKwhJ,P_SSY_HKwhF,P_SSY_HKwhP,P_SSY_HKwhG, P_SSY_KvarhZ,P_SSY_KvarhJ,P_SSY_KvarhF,P_SSY_KvarhP,P_SSY_KvarhG, P_SSY_HKvarhZ,P_SSY_HKvarhJ,P_SSY_HKvarhF,P_SSY_HKvarhP,P_SSY_HKvarhG,P_CODE,P_TIME,P_ZXYGDN,P_FXYGDN,P_ZXWGDN,P_FXWGDN)values(234.794,234.925,234.732,406.685,406.685,406.512,8.24,5.04,0,1280,960,0,2240,400,160,0,560,1920,1200,0,2320,0.664,0.808,0,0.97,49.763668,558.8,49.2,350.8,0,158.4,0,0,0,0,0,0.8,0,0.8,0,0,176.8,23.6,89.6,0,63.6,570.4,53.6,356,0,160,0,0,0,0,0,1.6,0,1.6,0,0,179.2,24,91.6,0,63.2,777.6,87.6,494.8,0,194.8,0,0,0,0,0,40.4,1.6,30.4,0,8,182.8,27.6,95.2,0,59.602962,1,20171128100710,106.956,0,35.535,16.814)
写入成功读取完毕一个
write:02 03 00 38 00 34 C5 E3
02 03 68
243 6A CE 56 43 6B 21 06 43 6B 04 DD 43 CB 78 F6 43 CB 8F 1B 43 CB 6D D3 40 19 99 9A 41 06 66 66 40 5C 28 F6 43 F0 00 00 44 D2 00 00 44 34 00 00 45 2F 00 00 00 00 00 00 00 00 00 00 00 00 00 00 00 00 00 00 44 0C 00 00 44 FA 00 00 44 48 00 00 45 2F 00 00 3F 50 20 C5 3F 56 45 A2 3F 62 4D D3 3F 7F BE 77 42 48 DF 95
write:02 03 07 CF 00 78 74 90
02 03 F0
2totalsize 240
44 B5 CC CD 43 32 66 66 44 59 B3 33 00 00 00 00 43 CA 66 66 00 00 00 00 00 00 00 00 00 00 00 00 00 00 00 00 00 00 00 00 43 01 99 9A 41 93 33 33 42 9C CC CD 00 00 00 00 42 01 99 9A 42 3E 66 66 40 33 33 33 42 0B 33 33 00 00 00 00 41 19 99 9A 44 8E D9 9A 43 18 CC CD 44 1F E6 66 00 00 00 00 43 AF 00 00 00 00 00 00 00 00 00 00 00 00 00 00 00 00 00 00 00 00 00 00 42 21 99 9A 41 20 00 00 41 A9 99 9A 00 00 00 00 41 0C CC CD 42 30 00 00 40 4C CC CD 41 F3 33 33 00 00 00 00 41 19 99 9A 45 2F 66 66 43 E3 99 9A 44 DC 33 33 00 00 00 00 44 13 4C CD 00 00 00 00 00 00 00 00 00 00 00 00 00 00 00 00 00 00 00 00 44 77 E6 66 43 2E CC CD 44 24 B3 33 00 00 00 00 43 1D 99 9A 42 13 33 33 40 00 00 00 41 D9 99 9A 00 00 00 00 40 E6 B9 9C
write:02 03 01 0F 00 08 75 C0
02 03 10
200 03 53 7C 00 00 00 05 00 01 34 D3 00 00 63 82
43 6A CE 56
234.806
43 6B 21 06
235.129
43 6B 04 DD
235.019
43 CB 78 F6
406.945
43 CB 8F 1B
407.118
43 CB 6D D3
406.858
40 19 99 9A
2.4
41 06 66 66
8.4
40 5C 28 F6
3.44
43 F0 00 00
480
44 D2 00 00
1680
44 34 00 00
720
45 2F 00 00
2800
00 00 00 00
0
00 00 00 00
0
00 00 00 00
0
00 00 00 00
0
44 0C 00 00
560
44 FA 00 00
2000
44 48 00 00
800
45 2F 00 00
2800
3F 50 20 C5
0.813
3F 56 45 A2
0.837
3F 62 4D D3
0.884
3F 7F BE 77
0.999
42 48 DF 95
50.21834
44 B5 CC CD
1454.4
43 32 66 66
178.4
44 59 B3 33
870.8
00 00 00 00
0
43 CA 66 66
404.8
00 00 00 00
0
00 00 00 00
0
00 00 00 00
0
00 00 00 00
0
00 00 00 00
0
43 01 99 9A
129.6
41 93 33 33
18.4
42 9C CC CD
78.4
00 00 00 00
0
42 01 99 9A
32.4
42 3E 66 66
47.6
40 33 33 33
2.8
42 0B 33 33
34.8
00 00 00 00
0
41 19 99 9A
9.6
44 8E D9 9A
1142.8
43 18 CC CD
152.8
44 1F E6 66
639.6
00 00 00 00
0
43 AF 00 00
350
00 00 00 00
0
00 00 00 00
0
00 00 00 00
0
00 00 00 00
0
00 00 00 00
0
42 21 99 9A
40.4
41 20 00 00
10
41 A9 99 9A
21.2
00 00 00 00
0
41 0C CC CD
8.8
42 30 00 00
44
40 4C CC CD
3.2
41 F3 33 33
30.4
00 00 00 00
0
41 19 99 9A
9.6
45 2F 66 66
2806.4
43 E3 99 9A
455.2
44 DC 33 33
1761.6
00 00 00 00
0
44 13 4C CD
589.2
00 00 00 00
0
00 00 00 00
0
00 00 00 00
0
00 00 00 00
0
00 00 00 00
0
44 77 E6 66
991.6
43 2E CC CD
174.8
44 24 B3 33
658.8
00 00 00 00
0
43 1D 99 9A
157.6
42 13 33 33
36.8
40 00 00 00
2
41 D9 99 9A
27.2
00 00 00 00
0
40 E6 B9 9C
7.2101574
00 03 53 7C
217980
00 00 00 05
5
00 01 34 D3
79059
00 00 63 82
25474
234.806235.129235.019406.945407.118406.8582.48.43.44480168072028000000560200080028000.8130.8370.8840.99950.218341454.4178.4870.80404.800000129.618.478.4032.447.62.834.809.61142.8152.8639.603500000040.41021.208.8443.230.409.62806.4455.21761.60589.200000991.6174.8658.80157.636.8227.207.2101574220171128100810217.980.00579.05925.474insert into tbl_power_info_v2(P_A_DIANYA,P_B_DIANYA,P_C_DIANYA,P_UAB_XIANDIANYA,P_UBC_XIANDIANYA,P_UCA_XIANDIANYA,P_A_DIANLIU,P_B_DIANLIU,P_C_DIANLIU,P_A_YGGL,P_B_YGGL,P_C_YGGL,P_HXYGGL,P_A_WGGL,P_B_WGGL,P_C_WGGL,P_HXWGGL,P_A_SZGL,P_B_SZGL,P_C_SZGL,P_HXSZGL,P_A_GLYS,P_B_GLYS,P_C_GLYS,P_HXGLYS,P_DWPL,P_BY_KwhZ,P_BY_KwhJ,P_BY_KwhF,P_BY_KwhP,P_BY_KwhG,P_BY_HKwhZ,P_BY_HKwhJ,P_BY_HKwhF,P_BY_HKwhP,P_BY_HKwhG, P_BY_KvarhZ,P_BY_KvarhJ,P_BY_KvarhF,P_BY_KvarhP,P_BY_KvarhG, P_BY_HKvarhZ,P_BY_HKvarhJ,P_BY_HKvarhF,P_BY_HKvarhP,P_BY_HKvarhG, P_SY_KwhZ,P_SY_KwhJ,P_SY_KwhF,P_SY_KwhP,P_SY_KwhG, P_SY_HKwhZ,P_SY_HKwhJ,P_SY_HKwhF,P_SY_HKwhP,P_SY_HKwhG, P_SY_KvarhZ,P_SY_KvarhJ,P_SY_KvarhF,P_SY_KvarhP,P_SY_KvarhG, P_SY_HKvarhZ,P_SY_HKvarhJ,P_SY_HKvarhF,P_SY_HKvarhP,P_SY_HKvarhG, P_SSY_KwhZ,P_SSY_KwhJ,P_SSY_KwhF,P_SSY_KwhP,P_SSY_KwhG, P_SSY_HKwhZ,P_SSY_HKwhJ,P_SSY_HKwhF,P_SSY_HKwhP,P_SSY_HKwhG, P_SSY_KvarhZ,P_SSY_KvarhJ,P_SSY_KvarhF,P_SSY_KvarhP,P_SSY_KvarhG, P_SSY_HKvarhZ,P_SSY_HKvarhJ,P_SSY_HKvarhF,P_SSY_HKvarhP,P_SSY_HKvarhG,P_CODE,P_TIME,P_ZXYGDN,P_FXYGDN,P_ZXWGDN,P_FXWGDN)values(234.806,235.129,235.019,406.945,407.118,406.858,2.4,8.4,3.44,480,1680,720,2800,0,0,0,0,560,2000,800,2800,0.813,0.837,0.884,0.999,50.21834,1454.4,178.4,870.8,0,404.8,0,0,0,0,0,129.6,18.4,78.4,0,32.4,47.6,2.8,34.8,0,9.6,1142.8,152.8,639.6,0,350,0,0,0,0,0,40.4,10,21.2,0,8.8,44,3.2,30.4,0,9.6,2806.4,455.2,1761.6,0,589.2,0,0,0,0,0,991.6,174.8,658.8,0,157.6,36.8,2,27.2,0,7.2101574,2,20171128100810,217.98,0.005,79.059,25.474)
写入成功读取完毕一个
write:03 03 00 38 00 34 C4 32
03 03 68
343 6B 12 6F 43 6B 0E 14 43 6B 22 8F 43 CB 83 F8 43 CB 8F 1B 43 CB 8F 1B 3F 30 A3 D7 3F CB 85 1F 3F 40 00 00 42 F0 00 00 43 16 00 00 42 B4 00 00 43 A5 00 00 42 F0 00 00 43 B4 00 00 43 16 00 00 44 1D 80 00 43 16 00 00 43 C3 00 00 43 34 00 00 44 2C 80 00 3F 2D 4F DF 3E C7 2B 02 3E E8 72 B0 3E F5 3F 7D 42 48 5F AE
write:03 03 07 CF 00 78 75 41
03 03 F0
3totalsize 240
43 CE 19 9A 42 A3 33 33 43 63 8C CD 00 00 00 00 42 CD CC CD 00 00 00 00 00 00 00 00 00 00 00 00 00 00 00 00 00 00 00 00 42 B4 99 9A 41 87 99 9A 42 6D 00 00 00 00 00 00 41 61 99 9A 40 9E 66 66 3F 66 66 66 40 5C CC CD 00 00 00 00 3F 19 99 9A 43 EF 2C CD 42 F0 00 00 43 7D 33 33 00 00 00 00 42 D1 B3 33 00 00 00 00 00 00 00 00 00 00 00 00 00 00 00 00 00 00 00 00 42 9C E6 66 40 E6 66 66 42 5B 99 9A 00 00 00 00 41 80 66 66 41 68 CC CD 40 A8 00 00 40 F9 99 9A 00 00 00 00 3F AC CC CD 43 D8 60 00 42 B5 80 00 43 81 86 66 00 00 00 00 42 A5 99 9A 00 00 00 00 00 00 00 00 00 00 00 00 00 00 00 00 00 00 00 00 42 F7 CC CD 41 90 00 00 42 A5 99 9A 00 00 00 00 41 B8 CC CD 40 EB 33 33 40 06 66 66 40 53 33 33 00 00 00 00 3F E6 90 CF
write:03 03 01 0F 00 08 74 11
03 03 10
300 00 C7 98 00 00 00 00 00 00 28 29 00 00 64 61
43 6B 12 6F
235.072
43 6B 0E 14
235.055
43 6B 22 8F
235.135
43 CB 83 F8
407.031
43 CB 8F 1B
407.118
43 CB 8F 1B
407.118
3F 30 A3 D7
0.69
3F CB 85 1F
1.59
3F 40 00 00
0.75
42 F0 00 00
120
43 16 00 00
150
42 B4 00 00
90
43 A5 00 00
330
42 F0 00 00
120
43 B4 00 00
360
43 16 00 00
150
44 1D 80 00
630
43 16 00 00
150
43 C3 00 00
390
43 34 00 00
180
44 2C 80 00
690
3F 2D 4F DF
0.677
3E C7 2B 02
0.389
3E E8 72 B0
0.454
3E F5 3F 7D
0.479
42 48 5F AE
50.093437
43 CE 19 9A
412.2
42 A3 33 33
81.6
43 63 8C CD
227.55
00 00 00 00
0
42 CD CC CD
102.9
00 00 00 00
0
00 00 00 00
0
00 00 00 00
0
00 00 00 00
0
00 00 00 00
0
42 B4 99 9A
90.3
41 87 99 9A
16.95
42 6D 00 00
59.25
00 00 00 00
0
41 61 99 9A
14.1
40 9E 66 66
4.95
3F 66 66 66
0.9
40 5C CC CD
3.45
00 00 00 00
0
3F 19 99 9A
0.6
43 EF 2C CD
478.35
42 F0 00 00
120
43 7D 33 33
253.2
00 00 00 00
0
42 D1 B3 33
104.85
00 00 00 00
0
00 00 00 00
0
00 00 00 00
0
00 00 00 00
0
00 00 00 00
0
42 9C E6 66
78.45
40 E6 66 66
7.2
42 5B 99 9A
54.9
00 00 00 00
0
41 80 66 66
16.05
41 68 CC CD
14.55
40 A8 00 00
5.25
40 F9 99 9A
7.8
00 00 00 00
0
3F AC CC CD
1.35
43 D8 60 00
432.75
42 B5 80 00
90.75
43 81 86 66
259.05
00 00 00 00
0
42 A5 99 9A
82.8
00 00 00 00
0
00 00 00 00
0
00 00 00 00
0
00 00 00 00
0
00 00 00 00
0
42 F7 CC CD
123.9
41 90 00 00
18
42 A5 99 9A
82.8
00 00 00 00
0
41 B8 CC CD
23.1
40 EB 33 33
7.35
40 06 66 66
2.1
40 53 33 33
3.3
00 00 00 00
0
3F E6 90 CF
1.8012942
00 00 C7 98
51096
00 00 00 00
0
00 00 28 29
10281
00 00 64 61
25697
235.072235.055235.135407.031407.118407.1180.691.590.75120150903301203601506301503901806900.6770.3890.4540.47950.093437412.281.6227.550102.90000090.316.9559.25014.14.950.93.4500.6478.35120253.20104.850000078.457.254.9016.0514.555.257.801.35432.7590.75259.05082.800000123.91882.8023.17.352.13.301.801294232017112810091051.096010.28125.697insert into tbl_power_info_v2(P_A_DIANYA,P_B_DIANYA,P_C_DIANYA,P_UAB_XIANDIANYA,P_UBC_XIANDIANYA,P_UCA_XIANDIANYA,P_A_DIANLIU,P_B_DIANLIU,P_C_DIANLIU,P_A_YGGL,P_B_YGGL,P_C_YGGL,P_HXYGGL,P_A_WGGL,P_B_WGGL,P_C_WGGL,P_HXWGGL,P_A_SZGL,P_B_SZGL,P_C_SZGL,P_HXSZGL,P_A_GLYS,P_B_GLYS,P_C_GLYS,P_HXGLYS,P_DWPL,P_BY_KwhZ,P_BY_KwhJ,P_BY_KwhF,P_BY_KwhP,P_BY_KwhG,P_BY_HKwhZ,P_BY_HKwhJ,P_BY_HKwhF,P_BY_HKwhP,P_BY_HKwhG, P_BY_KvarhZ,P_BY_KvarhJ,P_BY_KvarhF,P_BY_KvarhP,P_BY_KvarhG, P_BY_HKvarhZ,P_BY_HKvarhJ,P_BY_HKvarhF,P_BY_HKvarhP,P_BY_HKvarhG, P_SY_KwhZ,P_SY_KwhJ,P_SY_KwhF,P_SY_KwhP,P_SY_KwhG, P_SY_HKwhZ,P_SY_HKwhJ,P_SY_HKwhF,P_SY_HKwhP,P_SY_HKwhG, P_SY_KvarhZ,P_SY_KvarhJ,P_SY_KvarhF,P_SY_KvarhP,P_SY_KvarhG, P_SY_HKvarhZ,P_SY_HKvarhJ,P_SY_HKvarhF,P_SY_HKvarhP,P_SY_HKvarhG, P_SSY_KwhZ,P_SSY_KwhJ,P_SSY_KwhF,P_SSY_KwhP,P_SSY_KwhG, P_SSY_HKwhZ,P_SSY_HKwhJ,P_SSY_HKwhF,P_SSY_HKwhP,P_SSY_HKwhG, P_SSY_KvarhZ,P_SSY_KvarhJ,P_SSY_KvarhF,P_SSY_KvarhP,P_SSY_KvarhG, P_SSY_HKvarhZ,P_SSY_HKvarhJ,P_SSY_HKvarhF,P_SSY_HKvarhP,P_SSY_HKvarhG,P_CODE,P_TIME,P_ZXYGDN,P_FXYGDN,P_ZXWGDN,P_FXWGDN)values(235.072,235.055,235.135,407.031,407.118,407.118,0.69,1.59,0.75,120,150,90,330,120,360,150,630,150,390,180,690,0.677,0.389,0.454,0.479,50.093437,412.2,81.6,227.55,0,102.9,0,0,0,0,0,90.3,16.95,59.25,0,14.1,4.95,0.9,3.45,0,0.6,478.35,120,253.2,0,104.85,0,0,0,0,0,78.45,7.2,54.9,0,16.05,14.55,5.25,7.8,0,1.35,432.75,90.75,259.05,0,82.8,0,0,0,0,0,123.9,18,82.8,0,23.1,7.35,2.1,3.3,0,1.8012942,3,20171128100910,51.096,0,10.281,25.697)
写入成功读取完毕一个
write:04 03 00 38 00 34 C5 85
04 03 68
443 6B 01 48 43 6B 37 4C 43 6B 2B C7 43 CB 9A 3D 43 CB A5 3F 43 CB 8F 1B 3F C7 AE 14 00 00 00 00 40 33 33 33 43 48 00 00 00 00 00 00 44 16 00 00 44 52 00 00 42 A0 00 00 00 00 00 00 42 A0 00 00 00 00 00 00 00 00 00 00 00 00 00 00 00 00 00 00 00 00 00 00 00 00 00 00 00 00 00 00 00 00 00 00 00 00 00 00 00 00 00 00
43 B4 00
heart:43 B4 00 00 42 A0 00 00 44 20 00 00 44 48 00 00 3F 0B 02 0C 3F 18 10 62 3F 64 9B A6 3F 7F BE 77 42 48 55 0D
write:04 03 07 CF 00 78 74 F6
04 03 F0
4totalsize 240
44 2E 66 66 43 12 00 00 43 C5 E6 66 00 00 00 00 43 1B 99 9A 00 00 00 00 00 00 00 00 00 00 00 00 00 00 00 00 00 00 00 00 40 C6 66 66 3E 4C CC CD 3F CC CC CD 00 00 00 00 40 86 66 66 42 8E 00 00 41 70 00 00 42 0B 33 33 00 00 00 00 41 A9 99 9A 44 1B 00 00 42 CE CC CD 43 AE 00 00 00 00 00 00 43 28 66 66 00 00 00 00 00 00 00 00 00 00 00 00 00 00 00 00 00 00 00 00 41 B0 00 00 40 26 66 66 40 C0 00 00 00 00 00 00 41 53 33 33 42 48 CC CD 41 06 66 66 41 D0 00 00 00 00 00 00 41 76 66 66 44 21 8C CD 42 DE CC CD 43 B0 99 9A 00 00 00 00 43 35 33 33 00 00 00 00 00 00 00 00 00 00 00 00 00 00 00 00 00 00 00 00 41 E8 00 00 40 B9 99 9A 40 E0 00 00 00 00 00 00 41 81 99 9A 42 14 CC CD 40 8C CC CD 41 9B 33 33 00 00 00 00 41 50 1A A9
write:04 03 01 0F 00 08 75 A6
04 03 10
400 02 95 B9 00 00 00 00 00 00 42 42 00 00 2C 68
43 6B 01 48
235.005
43 6B 37 4C
235.216
43 6B 2B C7
235.171
43 CB 9A 3D
407.205
43 CB A5 3F
407.291
43 CB 8F 1B
407.118
3F C7 AE 14
1.56
00 00 00 00
0
40 33 33 33
2.8
43 48 00 00
200
00 00 00 00
0
44 16 00 00
600
44 52 00 00
840
42 A0 00 00
80
00 00 00 00
0
42 A0 00 00
80
00 00 00 00
0
00 00 00 00
0
00 00 00 00
0
00 00 00 00
0
00 00 00 00
0
00 00 00 00
0
00 00 00 00
0
00 00 00 00
0
00 00 00 00
0
00 00 00 00
0
44 2E 66 66
697.6
43 12 00 00
146
43 C5 E6 66
395.8
00 00 00 00
0
43 1B 99 9A
155.6
00 00 00 00
0
00 00 00 00
0
00 00 00 00
0
00 00 00 00
0
00 00 00 00
0
40 C6 66 66
6.2
3E 4C CC CD
0.2
3F CC CC CD
1.6
00 00 00 00
0
40 86 66 66
4.2
42 8E 00 00
71
41 70 00 00
15
42 0B 33 33
34.8
00 00 00 00
0
41 A9 99 9A
21.2
44 1B 00 00
620
42 CE CC CD
103.4
43 AE 00 00
348
00 00 00 00
0
43 28 66 66
168.4
00 00 00 00
0
00 00 00 00
0
00 00 00 00
0
00 00 00 00
0
00 00 00 00
0
41 B0 00 00
22
40 26 66 66
2.6
40 C0 00 00
6
00 00 00 00
0
41 53 33 33
13.2
42 48 CC CD
50.2
41 06 66 66
8.4
41 D0 00 00
26
00 00 00 00
0
41 76 66 66
15.4
44 21 8C CD
646.2
42 DE CC CD
111.4
43 B0 99 9A
353.2
00 00 00 00
0
43 35 33 33
181.2
00 00 00 00
0
00 00 00 00
0
00 00 00 00
0
00 00 00 00
0
00 00 00 00
0
41 E8 00 00
29
40 B9 99 9A
5.8
40 E0 00 00
7
00 00 00 00
0
41 81 99 9A
16.2
42 14 CC CD
37.2
40 8C CC CD
4.4
41 9B 33 33
19.4
00 00 00 00
0
41 50 1A A9
13.006509
00 02 95 B9
169401
00 00 00 00
0
00 00 42 42
16962
00 00 2C 68
11368
235.005235.216235.171407.205407.291407.1181.5602.82000600840800800000000000697.6146395.80155.6000006.20.21.604.2711534.8021.2620103.43480168.400000222.66013.250.28.426015.4646.2111.4353.20181.200000295.87016.237.24.419.4013.006509420171128101010169.401016.96211.368insert into tbl_power_info_v2(P_A_DIANYA,P_B_DIANYA,P_C_DIANYA,P_UAB_XIANDIANYA,P_UBC_XIANDIANYA,P_UCA_XIANDIANYA,P_A_DIANLIU,P_B_DIANLIU,P_C_DIANLIU,P_A_YGGL,P_B_YGGL,P_C_YGGL,P_HXYGGL,P_A_WGGL,P_B_WGGL,P_C_WGGL,P_HXWGGL,P_A_SZGL,P_B_SZGL,P_C_SZGL,P_HXSZGL,P_A_GLYS,P_B_GLYS,P_C_GLYS,P_HXGLYS,P_DWPL,P_BY_KwhZ,P_BY_KwhJ,P_BY_KwhF,P_BY_KwhP,P_BY_KwhG,P_BY_HKwhZ,P_BY_HKwhJ,P_BY_HKwhF,P_BY_HKwhP,P_BY_HKwhG, P_BY_KvarhZ,P_BY_KvarhJ,P_BY_KvarhF,P_BY_KvarhP,P_BY_KvarhG, P_BY_HKvarhZ,P_BY_HKvarhJ,P_BY_HKvarhF,P_BY_HKvarhP,P_BY_HKvarhG, P_SY_KwhZ,P_SY_KwhJ,P_SY_KwhF,P_SY_KwhP,P_SY_KwhG, P_SY_HKwhZ,P_SY_HKwhJ,P_SY_HKwhF,P_SY_HKwhP,P_SY_HKwhG, P_SY_KvarhZ,P_SY_KvarhJ,P_SY_KvarhF,P_SY_KvarhP,P_SY_KvarhG, P_SY_HKvarhZ,P_SY_HKvarhJ,P_SY_HKvarhF,P_SY_HKvarhP,P_SY_HKvarhG, P_SSY_KwhZ,P_SSY_KwhJ,P_SSY_KwhF,P_SSY_KwhP,P_SSY_KwhG, P_SSY_HKwhZ,P_SSY_HKwhJ,P_SSY_HKwhF,P_SSY_HKwhP,P_SSY_HKwhG, P_SSY_KvarhZ,P_SSY_KvarhJ,P_SSY_KvarhF,P_SSY_KvarhP,P_SSY_KvarhG, P_SSY_HKvarhZ,P_SSY_HKvarhJ,P_SSY_HKvarhF,P_SSY_HKvarhP,P_SSY_HKvarhG,P_CODE,P_TIME,P_ZXYGDN,P_FXYGDN,P_ZXWGDN,P_FXWGDN)values(235.005,235.216,235.171,407.205,407.291,407.118,1.56,0,2.8,200,0,600,840,80,0,80,0,0,0,0,0,0,0,0,0,0,697.6,146,395.8,0,155.6,0,0,0,0,0,6.2,0.2,1.6,0,4.2,71,15,34.8,0,21.2,620,103.4,348,0,168.4,0,0,0,0,0,22,2.6,6,0,13.2,50.2,8.4,26,0,15.4,646.2,111.4,353.2,0,181.2,0,0,0,0,0,29,5.8,7,0,16.2,37.2,4.4,19.4,0,13.006509,4,20171128101010,169.401,0,16.962,11.368)
写入成功读取完毕一个
write:05 03 00 38 00 34 C4 54
05 03 68
543 6A 66 66 43 6A F4 7B 43 6A EC 8B 43 CB 36 66 43 CB 6D D3 43 CB 36 66 40 AE 14 7B 40 21 47 AE 3F C2 8F 5C 44 82 00 00 44 02 00 00 43 A0 00 00 44 EB 00 00 43 70 00 00 00 00 00 00 00 00 00 00 43 8C 00 00 44 A0 00 00 44 16 00 00 43 B4 00 00 44 EB 00 00 3F 51 A9 FC 3F 5D B2 2D 3F 5E F9 DB 3F 7D 2F 1B 42 47 29 4F
write:05 03 07 CF 00 78 75 27
05 03 F0
5totalsize 240
44 BB C0 00 43 B5 66 66 44 50 80 00 00 00 00 00 43 98 99 9A 00 00 00 00 00 00 00 00 00 00 00 00 00 00 00 00 00 00 00 00 00 00 00 00 00 00 00 00 00 00 00 00 00 00 00 00 00 00 00 00 43 6C 66 66 42 4F 33 33 42 E4 66 66 00 00 00 00 42 8C 00 00 44 C1 06 66 43 AF 99 9A 44 5A 00 00 00 00 00 00 43 A0 66 66 00 00 00 00 00 00 00 00 00 00 00 00 00 00 00 00 00 00 00 00 3F CC CC CD 3F 19 99 9A 3F 4C CC CD 00 00 00 00 00 00 00 00 43 6F 99 9A 42 50 00 00 42 E7 33 33 00 00 00 00 42 8F 99 9A 44 D5 93 33 43 A4 B3 33 44 7E 19 9A 00 00 00 00 43 B5 33 33 00 00 00 00 00 00 00 00 00 00 00 00 00 00 00 00 00 00 00 00 42 A8 66 66 41 9B 33 33 42 69 99 9A 00 00 00 00 40 CC CC CD 43 26 33 33 41 FE 66 66 42 9E CC CD 00 00 00 00 42 5B 1D 05
write:05 03 01 0F 00 08 74 77
05 03 10
500 08 8C 15 00 00 00 00 00 00 D9 A8 00 00 E7 FF
43 6A 66 66
234.4
43 6A F4 7B
234.955
43 6A EC 8B
234.924
43 CB 36 66
406.425
43 CB 6D D3
406.858
43 CB 36 66
406.425
40 AE 14 7B
5.44
40 21 47 AE
2.52
3F C2 8F 5C
1.52
44 82 00 00
1040
44 02 00 00
520
43 A0 00 00
320
44 EB 00 00
1880
43 70 00 00
240
00 00 00 00
0
00 00 00 00
0
43 8C 00 00
280
44 A0 00 00
1280
44 16 00 00
600
43 B4 00 00
360
44 EB 00 00
1880
3F 51 A9 FC
0.819
3F 5D B2 2D
0.866
3F 5E F9 DB
0.871
3F 7D 2F 1B
0.989
42 47 29 4F
49.79034
44 BB C0 00
1502
43 B5 66 66
362.8
44 50 80 00
834
00 00 00 00
0
43 98 99 9A
305.2
00 00 00 00
0
00 00 00 00
0
00 00 00 00
0
00 00 00 00
0
00 00 00 00
0
00 00 00 00
0
00 00 00 00
0
00 00 00 00
0
00 00 00 00
0
00 00 00 00
0
43 6C 66 66
236.4
42 4F 33 33
51.8
42 E4 66 66
114.2
00 00 00 00
0
42 8C 00 00
70
44 C1 06 66
1544.2
43 AF 99 9A
351.2
44 5A 00 00
872
00 00 00 00
0
43 A0 66 66
320.8
00 00 00 00
0
00 00 00 00
0
00 00 00 00
0
00 00 00 00
0
00 00 00 00
0
3F CC CC CD
1.6
3F 19 99 9A
0.6
3F 4C CC CD
0.8
00 00 00 00
0
00 00 00 00
0
43 6F 99 9A
239.6
42 50 00 00
52
42 E7 33 33
115.6
00 00 00 00
0
42 8F 99 9A
71.8
44 D5 93 33
1708.6
43 A4 B3 33
329.4
44 7E 19 9A
1016.4
00 00 00 00
0
43 B5 33 33
362.4
00 00 00 00
0
00 00 00 00
0
00 00 00 00
0
00 00 00 00
0
00 00 00 00
0
42 A8 66 66
84.2
41 9B 33 33
19.4
42 69 99 9A
58.4
00 00 00 00
0
40 CC CC CD
6.4
43 26 33 33
166.2
41 FE 66 66
31.8
42 9E CC CD
79.4
00 00 00 00
0
42 5B 1D 05
54.77834
00 08 8C 15
560149
00 00 00 00
0
00 00 D9 A8
55720
00 00 E7 FF
59391
234.4234.955234.924406.425406.858406.4255.442.521.521040520320188024000280128060036018800.8190.8660.8710.98949.790341502362.88340305.20000000000236.451.8114.20701544.2351.28720320.8000001.60.60.800239.652115.6071.81708.6329.41016.40362.40000084.219.458.406.4166.231.879.4054.77834520171128101110560.149055.7259.391insert into tbl_power_info_v2(P_A_DIANYA,P_B_DIANYA,P_C_DIANYA,P_UAB_XIANDIANYA,P_UBC_XIANDIANYA,P_UCA_XIANDIANYA,P_A_DIANLIU,P_B_DIANLIU,P_C_DIANLIU,P_A_YGGL,P_B_YGGL,P_C_YGGL,P_HXYGGL,P_A_WGGL,P_B_WGGL,P_C_WGGL,P_HXWGGL,P_A_SZGL,P_B_SZGL,P_C_SZGL,P_HXSZGL,P_A_GLYS,P_B_GLYS,P_C_GLYS,P_HXGLYS,P_DWPL,P_BY_KwhZ,P_BY_KwhJ,P_BY_KwhF,P_BY_KwhP,P_BY_KwhG,P_BY_HKwhZ,P_BY_HKwhJ,P_BY_HKwhF,P_BY_HKwhP,P_BY_HKwhG, P_BY_KvarhZ,P_BY_KvarhJ,P_BY_KvarhF,P_BY_KvarhP,P_BY_KvarhG, P_BY_HKvarhZ,P_BY_HKvarhJ,P_BY_HKvarhF,P_BY_HKvarhP,P_BY_HKvarhG, P_SY_KwhZ,P_SY_KwhJ,P_SY_KwhF,P_SY_KwhP,P_SY_KwhG, P_SY_HKwhZ,P_SY_HKwhJ,P_SY_HKwhF,P_SY_HKwhP,P_SY_HKwhG, P_SY_KvarhZ,P_SY_KvarhJ,P_SY_KvarhF,P_SY_KvarhP,P_SY_KvarhG, P_SY_HKvarhZ,P_SY_HKvarhJ,P_SY_HKvarhF,P_SY_HKvarhP,P_SY_HKvarhG, P_SSY_KwhZ,P_SSY_KwhJ,P_SSY_KwhF,P_SSY_KwhP,P_SSY_KwhG, P_SSY_HKwhZ,P_SSY_HKwhJ,P_SSY_HKwhF,P_SSY_HKwhP,P_SSY_HKwhG, P_SSY_KvarhZ,P_SSY_KvarhJ,P_SSY_KvarhF,P_SSY_KvarhP,P_SSY_KvarhG, P_SSY_HKvarhZ,P_SSY_HKvarhJ,P_SSY_HKvarhF,P_SSY_HKvarhP,P_SSY_HKvarhG,P_CODE,P_TIME,P_ZXYGDN,P_FXYGDN,P_ZXWGDN,P_FXWGDN)values(234.4,234.955,234.924,406.425,406.858,406.425,5.44,2.52,1.52,1040,520,320,1880,240,0,0,280,1280,600,360,1880,0.819,0.866,0.871,0.989,49.79034,1502,362.8,834,0,305.2,0,0,0,0,0,0,0,0,0,0,236.4,51.8,114.2,0,70,1544.2,351.2,872,0,320.8,0,0,0,0,0,1.6,0.6,0.8,0,0,239.6,52,115.6,0,71.8,1708.6,329.4,1016.4,0,362.4,0,0,0,0,0,84.2,19.4,58.4,0,6.4,166.2,31.8,79.4,0,54.77834,5,20171128101110,560.149,0,55.72,59.391)
写入成功读取完毕一个
write:06 03 00 38 00 34 C4 67
06 03 68
643 6A 43 D7 43 6A AF 9E 43 6A 77 8D 43 CA FE FA 43 CB 15 1F 43 CA E8 D5 40 90 A3 D7 40 3D 70 A4 40 C8 F5 C3 44 52 00 00 43 DC 00 00 44 91 00 00 45 18 80 00 43 20 00 00 00 00 00 00 00 00 00 00 43 20 00 00 44 87 00 00 44 2A 00 00 44 B9 00 00 45 18 80 00 3F 46 E9 79 3F 21 CA C1 3F 4A 7E FA 3F 7F 3B 64 42 48 FF BA
write:06 03 07 CF 00 78 75 14
06 03 F0
6totalsize 240
44 E5 26 66 43 AE 19 9A 44 89 E6 66 00 00 00 00 43 BE CC CD 00 00 00 00 00 00 00 00 00 00 00 00 00 00 00 00 00 00 00 00 40 00 00 00 3E 4C CC CD 3F B3 33 33 00 00 00 00 3E 4C CC CD 43 25 66 66 42 00 CC CD 42 97 99 9A 00 00 00 00 42 64 00 00 44 F8 A6 66 43 BF 33 33 44 93 80 00 00 00 00 00 43 D5 4C CD 00 00 00 00 00 00 00 00 00 00 00 00 00 00 00 00 00 00 00 00 40 C6 66 66 3E CC CC CD 40 A0 00 00 00 00 00 00 3F 19 99 9A 43 47 99 9A 42 16 66 66 42 BB 99 9A 00 00 00 00 42 88 00 00 45 15 00 00 43 EA 66 66 44 AC 53 33 00 00 00 00 44 06 0C CD 00 00 00 00 00 00 00 00 00 00 00 00 00 00 00 00 00 00 00 00 41 53 33 33 40 66 66 66 40 CC CC CD 00 00 00 00 40 40 00 00 43 38 33 33 42 10 00 00 42 A8 CC CD 00 00 00 00 42 7D 7F 7C
write:06 03 01 0F 00 08 74 44
06 03 10
600 0B 3E D7 00 00 00 00 00 00 17 9C 00 00 95 1C
43 6A 43 D7
234.265
43 6A AF 9E
234.686
43 6A 77 8D
234.467
43 CA FE FA
405.992
43 CB 15 1F
406.165
43 CA E8 D5
405.819
40 90 A3 D7
4.52
40 3D 70 A4
2.96
40 C8 F5 C3
6.28
44 52 00 00
840
43 DC 00 00
440
44 91 00 00
1160
45 18 80 00
2440
43 20 00 00
160
00 00 00 00
0
00 00 00 00
0
43 20 00 00
160
44 87 00 00
1080
44 2A 00 00
680
44 B9 00 00
1480
45 18 80 00
2440
3F 46 E9 79
0.777
3F 21 CA C1
0.632
3F 4A 7E FA
0.791
3F 7F 3B 64
0.997
42 48 FF BA
50.249733
44 E5 26 66
1833.2
43 AE 19 9A
348.2
44 89 E6 66
1103.2
00 00 00 00
0
43 BE CC CD
381.6
00 00 00 00
0
00 00 00 00
0
00 00 00 00
0
00 00 00 00
0
00 00 00 00
0
40 00 00 00
2
3E 4C CC CD
0.2
3F B3 33 33
1.4
00 00 00 00
0
3E 4C CC CD
0.2
43 25 66 66
165.4
42 00 CC CD
32.2
42 97 99 9A
75.8
00 00 00 00
0
42 64 00 00
57
44 F8 A6 66
1989.2
43 BF 33 33
382.4
44 93 80 00
1180
00 00 00 00
0
43 D5 4C CD
426.6
00 00 00 00
0
00 00 00 00
0
00 00 00 00
0
00 00 00 00
0
00 00 00 00
0
40 C6 66 66
6.2
3E CC CC CD
0.4
40 A0 00 00
5
00 00 00 00
0
3F 19 99 9A
0.6
43 47 99 9A
199.6
42 16 66 66
37.6
42 BB 99 9A
93.8
00 00 00 00
0
42 88 00 00
68
45 15 00 00
2384
43 EA 66 66
468.8
44 AC 53 33
1378.6
00 00 00 00
0
44 06 0C CD
536.2
00 00 00 00
0
00 00 00 00
0
00 00 00 00
0
00 00 00 00
0
00 00 00 00
0
41 53 33 33
13.2
40 66 66 66
3.6
40 CC CC CD
6.4
00 00 00 00
0
40 40 00 00
3
43 38 33 33
184.2
42 10 00 00
36
42 A8 CC CD
84.4
00 00 00 00
0
42 7D 7F 7C
63.374496
00 0B 3E D7
736983
00 00 00 00
0
00 00 17 9C
6044
00 00 95 1C
38172
234.265234.686234.467405.992406.165405.8194.522.966.2884044011602440160001601080680148024400.7770.6320.7910.99750.2497331833.2348.21103.20381.60000020.21.400.2165.432.275.80571989.2382.411800426.6000006.20.4500.6199.637.693.80682384468.81378.60536.20000013.23.66.403184.23684.4063.374496620171128101210736.98306.04438.172insert into tbl_power_info_v2(P_A_DIANYA,P_B_DIANYA,P_C_DIANYA,P_UAB_XIANDIANYA,P_UBC_XIANDIANYA,P_UCA_XIANDIANYA,P_A_DIANLIU,P_B_DIANLIU,P_C_DIANLIU,P_A_YGGL,P_B_YGGL,P_C_YGGL,P_HXYGGL,P_A_WGGL,P_B_WGGL,P_C_WGGL,P_HXWGGL,P_A_SZGL,P_B_SZGL,P_C_SZGL,P_HXSZGL,P_A_GLYS,P_B_GLYS,P_C_GLYS,P_HXGLYS,P_DWPL,P_BY_KwhZ,P_BY_KwhJ,P_BY_KwhF,P_BY_KwhP,P_BY_KwhG,P_BY_HKwhZ,P_BY_HKwhJ,P_BY_HKwhF,P_BY_HKwhP,P_BY_HKwhG, P_BY_KvarhZ,P_BY_KvarhJ,P_BY_KvarhF,P_BY_KvarhP,P_BY_KvarhG, P_BY_HKvarhZ,P_BY_HKvarhJ,P_BY_HKvarhF,P_BY_HKvarhP,P_BY_HKvarhG, P_SY_KwhZ,P_SY_KwhJ,P_SY_KwhF,P_SY_KwhP,P_SY_KwhG, P_SY_HKwhZ,P_SY_HKwhJ,P_SY_HKwhF,P_SY_HKwhP,P_SY_HKwhG, P_SY_KvarhZ,P_SY_KvarhJ,P_SY_KvarhF,P_SY_KvarhP,P_SY_KvarhG, P_SY_HKvarhZ,P_SY_HKvarhJ,P_SY_HKvarhF,P_SY_HKvarhP,P_SY_HKvarhG, P_SSY_KwhZ,P_SSY_KwhJ,P_SSY_KwhF,P_SSY_KwhP,P_SSY_KwhG, P_SSY_HKwhZ,P_SSY_HKwhJ,P_SSY_HKwhF,P_SSY_HKwhP,P_SSY_HKwhG, P_SSY_KvarhZ,P_SSY_KvarhJ,P_SSY_KvarhF,P_SSY_KvarhP,P_SSY_KvarhG, P_SSY_HKvarhZ,P_SSY_HKvarhJ,P_SSY_HKvarhF,P_SSY_HKvarhP,P_SSY_HKvarhG,P_CODE,P_TIME,P_ZXYGDN,P_FXYGDN,P_ZXWGDN,P_FXWGDN)values(234.265,234.686,234.467,405.992,406.165,405.819,4.52,2.96,6.28,840,440,1160,2440,160,0,0,160,1080,680,1480,2440,0.777,0.632,0.791,0.997,50.249733,1833.2,348.2,1103.2,0,381.6,0,0,0,0,0,2,0.2,1.4,0,0.2,165.4,32.2,75.8,0,57,1989.2,382.4,1180,0,426.6,0,0,0,0,0,6.2,0.4,5,0,0.6,199.6,37.6,93.8,0,68,2384,468.8,1378.6,0,536.2,0,0,0,0,0,13.2,3.6,6.4,0,3,184.2,36,84.4,0,63.374496,6,20171128101210,736.983,0,6.044,38.172)
写入成功读取完毕一个
write:07 03 00 38 00 34 C5 B6
write:07 03 07 CF 00 78 74 C5
write:07 03 01 0F 00 08 75 95
write:08 03 00 38 00 34 C5 49
08 03 68
843 6B 45 A2 43 6B B8 93 43 6B 66 E9 43 CB E7 CF 43 CB FD F4 43 CB C6 87 40 6A 3D 71 00 00 00 00 00 00 00 00 44 43 00 00 42 70 00 00 00 00 00 00 44 52 00 00 42 B4 00 00 00 00 00 00 00 00 00 00 42 70 00 00 44 59 80 00 42 70 00 00 00 00 00 00 44 52 00 00 3F 6C 8B 44 3F 46 24 DD 00 00 00 00 3F 7E F9 DB 42 48 E3 E2
write:08 03 07 CF 00 78 74 3A
08 03 F0
8totalsize 240
42 84 99 9A 00 00 00 00 42 2F CC CD 00 00 00 00 41 B2 CC CD 00 00 00 00 00 00 00 00 00 00 00 00 00 00 00 00 00 00 00 00 00 00 00 00 00 00 00 00 00 00 00 00 00 00 00 00 00 00 00 00 41 42 66 66 00 00 00 00 40 F4 CC CD 00 00 00 00 40 90 00 00 42 67 00 00 00 00 00 00 42 28 00 00 00 00 00 00 41 79 99 9A 00 00 00 00 00 00 00 00 00 00 00 00 00 00 00 00 00 00 00 00 00 00 00 00 00 00 00 00 00 00 00 00 00 00 00 00 00 00 00 00 41 1E 66 66 00 00 00 00 40 DC CC CD 00 00 00 00 40 40 00 00 42 95 19 9A 00 00 00 00 42 3B CC CD 00 00 00 00 41 DB 99 9A 00 00 00 00 00 00 00 00 00 00 00 00 00 00 00 00 00 00 00 00 00 00 00 00 00 00 00 00 00 00 00 00 00 00 00 00 00 00 00 00 41 4E 66 66 00 00 00 00 41 06 66 66 00 00 00 00 40 8B 31 D2
write:08 03 01 0F 00 08 75 6A
08 03 10
800 00 49 DC 00 00 00 00 00 00 00 00 00 00 B1 74
43 6B 45 A2
235.272
43 6B B8 93
235.721
43 6B 66 E9
235.402
43 CB E7 CF
407.811
43 CB FD F4
407.984
43 CB C6 87
407.551
40 6A 3D 71
3.66
00 00 00 00
0
00 00 00 00
0
44 43 00 00
780
42 70 00 00
60
00 00 00 00
0
44 52 00 00
840
42 B4 00 00
90
00 00 00 00
0
00 00 00 00
0
42 70 00 00
60
44 59 80 00
870
42 70 00 00
60
00 00 00 00
0
44 52 00 00
840
3F 6C 8B 44
0.924
3F 46 24 DD
0.774
00 00 00 00
0
3F 7E F9 DB
0.996
42 48 E3 E2
50.22254
42 84 99 9A
66.3
00 00 00 00
0
42 2F CC CD
43.95
00 00 00 00
0
41 B2 CC CD
22.35
00 00 00 00
0
00 00 00 00
0
00 00 00 00
0
00 00 00 00
0
00 00 00 00
0
00 00 00 00
0
00 00 00 00
0
00 00 00 00
0
00 00 00 00
0
00 00 00 00
0
41 42 66 66
12.15
00 00 00 00
0
40 F4 CC CD
7.65
00 00 00 00
0
40 90 00 00
4.5
42 67 00 00
57.75
00 00 00 00
0
42 28 00 00
42
00 00 00 00
0
41 79 99 9A
15.6
00 00 00 00
0
00 00 00 00
0
00 00 00 00
0
00 00 00 00
0
00 00 00 00
0
00 00 00 00
0
00 00 00 00
0
00 00 00 00
0
00 00 00 00
0
00 00 00 00
0
41 1E 66 66
9.9
00 00 00 00
0
40 DC CC CD
6.9
00 00 00 00
0
40 40 00 00
3
42 95 19 9A
74.55
00 00 00 00
0
42 3B CC CD
46.95
00 00 00 00
0
41 DB 99 9A
27.45
00 00 00 00
0
00 00 00 00
0
00 00 00 00
0
00 00 00 00
0
00 00 00 00
0
00 00 00 00
0
00 00 00 00
0
00 00 00 00
0
00 00 00 00
0
00 00 00 00
0
41 4E 66 66
12.9
00 00 00 00
0
41 06 66 66
8.4
00 00 00 00
0
40 8B 31 D2
4.3498316
00 00 49 DC
18908
00 00 00 00
0
00 00 00 00
0
00 00 B1 74
45428
235.272235.721235.402407.811407.984407.5513.66007806008409000608706008400.9240.77400.99650.2225466.3043.95022.35000000000012.1507.6504.557.75042015.600000000009.906.90374.55046.95027.45000000000012.908.404.349831682017112810141018.9080045.428insert into tbl_power_info_v2(P_A_DIANYA,P_B_DIANYA,P_C_DIANYA,P_UAB_XIANDIANYA,P_UBC_XIANDIANYA,P_UCA_XIANDIANYA,P_A_DIANLIU,P_B_DIANLIU,P_C_DIANLIU,P_A_YGGL,P_B_YGGL,P_C_YGGL,P_HXYGGL,P_A_WGGL,P_B_WGGL,P_C_WGGL,P_HXWGGL,P_A_SZGL,P_B_SZGL,P_C_SZGL,P_HXSZGL,P_A_GLYS,P_B_GLYS,P_C_GLYS,P_HXGLYS,P_DWPL,P_BY_KwhZ,P_BY_KwhJ,P_BY_KwhF,P_BY_KwhP,P_BY_KwhG,P_BY_HKwhZ,P_BY_HKwhJ,P_BY_HKwhF,P_BY_HKwhP,P_BY_HKwhG, P_BY_KvarhZ,P_BY_KvarhJ,P_BY_KvarhF,P_BY_KvarhP,P_BY_KvarhG, P_BY_HKvarhZ,P_BY_HKvarhJ,P_BY_HKvarhF,P_BY_HKvarhP,P_BY_HKvarhG, P_SY_KwhZ,P_SY_KwhJ,P_SY_KwhF,P_SY_KwhP,P_SY_KwhG, P_SY_HKwhZ,P_SY_HKwhJ,P_SY_HKwhF,P_SY_HKwhP,P_SY_HKwhG, P_SY_KvarhZ,P_SY_KvarhJ,P_SY_KvarhF,P_SY_KvarhP,P_SY_KvarhG, P_SY_HKvarhZ,P_SY_HKvarhJ,P_SY_HKvarhF,P_SY_HKvarhP,P_SY_HKvarhG, P_SSY_KwhZ,P_SSY_KwhJ,P_SSY_KwhF,P_SSY_KwhP,P_SSY_KwhG, P_SSY_HKwhZ,P_SSY_HKwhJ,P_SSY_HKwhF,P_SSY_HKwhP,P_SSY_HKwhG, P_SSY_KvarhZ,P_SSY_KvarhJ,P_SSY_KvarhF,P_SSY_KvarhP,P_SSY_KvarhG, P_SSY_HKvarhZ,P_SSY_HKvarhJ,P_SSY_HKvarhF,P_SSY_HKvarhP,P_SSY_HKvarhG,P_CODE,P_TIME,P_ZXYGDN,P_FXYGDN,P_ZXWGDN,P_FXWGDN)values(235.272,235.721,235.402,407.811,407.984,407.551,3.66,0,0,780,60,0,840,90,0,0,60,870,60,0,840,0.924,0.774,0,0.996,50.22254,66.3,0,43.95,0,22.35,0,0,0,0,0,0,0,0,0,0,12.15,0,7.65,0,4.5,57.75,0,42,0,15.6,0,0,0,0,0,0,0,0,0,0,9.9,0,6.9,0,3,74.55,0,46.95,0,27.45,0,0,0,0,0,0,0,0,0,0,12.9,0,8.4,0,4.3498316,8,20171128101410,18.908,0,0,45.428)
写入成功读取完毕一个
write:09 03 00 38 00 34 C4 98
09 03 68
