nohup: ignoring input
Listening on :6005
received messag ?->? 
 124.160.213.110:43278 172.16.246.153:6005
write:01 03 00 38 00 34 C5 D0
34 30 36
heart:34 30 36 36 32 33 30 31 30 31 30 35 30 32
01 03 68
143 69 BD F4 43 69 BD F4 43 69 68 73 43 CA 6E D9 43 CA 4D B2 43 CA 42 8F 40 C5 1E B8 40 B5 C2 8F 00 00 00 00 44 70 00 00 44 8C 00 00 00 00 00 00 44 FA 00 00 43 A0 00 00 43 20 00 00 00 00 00 00 43 F0 00 00 44 B4 00 00 44 AA 00 00 00 00 00 00 45 02 00 00 3F 23 D7 0A 3F 51 68 73 00 00 00 00 3F 78 D4 FE 42 48 AA 13
write:01 03 07 CF 00 78 74 A3
01 03 F0
1totalsize 240
44 04 99 9A 42 2E 66 66 43 A7 00 00 00 00 00 00 43 18 66 66 00 00 00 00 00 00 00 00 00 00 00 00 00 00 00 00 00 00 00 00 3F 4C CC CD 00 00 00 00 3F 4C CC CD 00 00 00 00 00 00 00 00 43 2A 00 00 41 B0 00 00 42 AC 00 00 00 00 00 00 42 76 66 66 44 0E 99 9A 42 56 66 66 43 B2 00 00 00 00 00 00 43 20 00 00 00 00 00 00 00 00 00 00 00 00 00 00 00 00 00 00 00 00 00 00 3F CC CC CD 00 00 00 00 3F CC CC CD 00 00 00 00 00 00 00 00 43 33 33 33 41 C0 00 00 42 B7 33 33 00 00 00 00 42 7C CC CD 44 42 66 66 42 AF 33 33 43 F7 66 66 00 00 00 00 43 42 CC CD 00 00 00 00 00 00 00 00 00 00 00 00 00 00 00 00 00 00 00 00 42 21 99 9A 3F CC CC CD 41 F3 33 33 00 00 00 00 41 00 00 00 43 36 CC CD 41 DC CC CD 42 BE 66 66 00 00 00 00 42 6E 70 BF
write:01 03 01 0F 00 08 75 F3
01 03 10
100 01 A0 6A 00 00 00 00 00 00 8A CF 00 00 A0 E7
43 69 BD F4
233.742
43 69 BD F4
233.742
43 69 68 73
233.408
43 CA 6E D9
404.866
43 CA 4D B2
404.607
43 CA 42 8F
404.52
40 C5 1E B8
6.16
40 B5 C2 8F
5.68
00 00 00 00
0
44 70 00 00
960
44 8C 00 00
1120
00 00 00 00
0
44 FA 00 00
2000
43 A0 00 00
320
43 20 00 00
160
00 00 00 00
0
43 F0 00 00
480
44 B4 00 00
1440
44 AA 00 00
1360
00 00 00 00
0
45 02 00 00
2080
3F 23 D7 0A
0.64
3F 51 68 73
0.818
00 00 00 00
0
3F 78 D4 FE
0.972
42 48 AA 13
50.16609
44 04 99 9A
530.4
42 2E 66 66
43.6
43 A7 00 00
334
00 00 00 00
0
43 18 66 66
152.4
00 00 00 00
0
00 00 00 00
0
00 00 00 00
0
00 00 00 00
0
00 00 00 00
0
3F 4C CC CD
0.8
00 00 00 00
0
3F 4C CC CD
0.8
00 00 00 00
0
00 00 00 00
0
43 2A 00 00
170
41 B0 00 00
22
42 AC 00 00
86
00 00 00 00
0
42 76 66 66
61.6
44 0E 99 9A
570.4
42 56 66 66
53.6
43 B2 00 00
356
00 00 00 00
0
43 20 00 00
160
00 00 00 00
0
00 00 00 00
0
00 00 00 00
0
00 00 00 00
0
00 00 00 00
0
3F CC CC CD
1.6
00 00 00 00
0
3F CC CC CD
1.6
00 00 00 00
0
00 00 00 00
0
43 33 33 33
179.2
41 C0 00 00
24
42 B7 33 33
91.6
00 00 00 00
0
42 7C CC CD
63.2
44 42 66 66
777.6
42 AF 33 33
87.6
43 F7 66 66
494.8
00 00 00 00
0
43 42 CC CD
194.8
00 00 00 00
0
00 00 00 00
0
00 00 00 00
0
00 00 00 00
0
00 00 00 00
0
42 21 99 9A
40.4
3F CC CC CD
1.6
41 F3 33 33
30.4
00 00 00 00
0
41 00 00 00
8
43 36 CC CD
182.8
41 DC CC CD
27.6
42 BE 66 66
95.2
00 00 00 00
0
42 6E 70 BF
59.610104
00 01 A0 6A
106602
00 00 00 00
0
00 00 8A CF
35535
00 00 A0 E7
41191
233.742233.742233.408404.866404.607404.526.165.680960112002000320160048014401360020800.640.81800.97250.16609530.443.63340152.4000000.800.8001702286061.6570.453.63560160000001.601.600179.22491.6063.2777.687.6494.80194.80000040.41.630.408182.827.695.2059.610104120171127135818106.602035.53541.191insert into tbl_power_info_v2(P_A_DIANYA,P_B_DIANYA,P_C_DIANYA,P_UAB_XIANDIANYA,P_UBC_XIANDIANYA,P_UCA_XIANDIANYA,P_A_DIANLIU,P_B_DIANLIU,P_C_DIANLIU,P_A_YGGL,P_B_YGGL,P_C_YGGL,P_HXYGGL,P_A_WGGL,P_B_WGGL,P_C_WGGL,P_HXWGGL,P_A_SZGL,P_B_SZGL,P_C_SZGL,P_HXSZGL,P_A_GLYS,P_B_GLYS,P_C_GLYS,P_HXGLYS,P_DWPL,P_BY_KwhZ,P_BY_KwhJ,P_BY_KwhF,P_BY_KwhP,P_BY_KwhG,P_BY_HKwhZ,P_BY_HKwhJ,P_BY_HKwhF,P_BY_HKwhP,P_BY_HKwhG, P_BY_KvarhZ,P_BY_KvarhJ,P_BY_KvarhF,P_BY_KvarhP,P_BY_KvarhG, P_BY_HKvarhZ,P_BY_HKvarhJ,P_BY_HKvarhF,P_BY_HKvarhP,P_BY_HKvarhG, P_SY_KwhZ,P_SY_KwhJ,P_SY_KwhF,P_SY_KwhP,P_SY_KwhG, P_SY_HKwhZ,P_SY_HKwhJ,P_SY_HKwhF,P_SY_HKwhP,P_SY_HKwhG, P_SY_KvarhZ,P_SY_KvarhJ,P_SY_KvarhF,P_SY_KvarhP,P_SY_KvarhG, P_SY_HKvarhZ,P_SY_HKvarhJ,P_SY_HKvarhF,P_SY_HKvarhP,P_SY_HKvarhG, P_SSY_KwhZ,P_SSY_KwhJ,P_SSY_KwhF,P_SSY_KwhP,P_SSY_KwhG, P_SSY_HKwhZ,P_SSY_HKwhJ,P_SSY_HKwhF,P_SSY_HKwhP,P_SSY_HKwhG, P_SSY_KvarhZ,P_SSY_KvarhJ,P_SSY_KvarhF,P_SSY_KvarhP,P_SSY_KvarhG, P_SSY_HKvarhZ,P_SSY_HKvarhJ,P_SSY_HKvarhF,P_SSY_HKvarhP,P_SSY_HKvarhG,P_CODE,P_TIME,P_ZXYGDN,P_FXYGDN,P_ZXWGDN,P_FXWGDN)values(233.742,233.742,233.408,404.866,404.607,404.52,6.16,5.68,0,960,1120,0,2000,320,160,0,480,1440,1360,0,2080,0.64,0.818,0,0.972,50.16609,530.4,43.6,334,0,152.4,0,0,0,0,0,0.8,0,0.8,0,0,170,22,86,0,61.6,570.4,53.6,356,0,160,0,0,0,0,0,1.6,0,1.6,0,0,179.2,24,91.6,0,63.2,777.6,87.6,494.8,0,194.8,0,0,0,0,0,40.4,1.6,30.4,0,8,182.8,27.6,95.2,0,59.610104,1,20171127135818,106.602,0,35.535,41.191)
写入成功读取完毕一个
write:02 03 00 38 00 34 C5 E3
02 03 68
243 6A 0A 3D 43 6A 08 31 43 69 6F 1B 43 CA A6 46 43 CA 63 D7 43 CA 63 D7 41 55 C2 8F 41 5D 70 A4 41 62 8F 5C 45 2A 00 00 45 34 00 00 45 39 00 00 46 05 C0 00 43 70 00 00 00 00 00 00 43 C8 00 00 44 0C 00 00 45 43 00 00 45 4D 00 00 45 4D 00 00 46 07 00 00 3F 61 47 AE 3F 64 5A 1D 3F 64 18 93 3F 7F 7C EE 42 47 93 2A
write:02 03 07 CF 00 78 74 90
02 03 F0
2totalsize 240
44 AE C0 00 43 1D 99 9A 44 52 66 66 00 00 00 00 43 C7 33 33 00 00 00 00 00 00 00 00 00 00 00 00 00 00 00 00 00 00 00 00 42 F6 66 66 41 53 33 33 42 9C CC CD 00 00 00 00 41 F9 99 9A 42 38 00 00 40 33 33 33 42 04 CC CD 00 00 00 00 41 19 99 9A 44 8E D9 9A 43 18 CC CD 44 1F E6 66 00 00 00 00 43 AF 00 00 00 00 00 00 00 00 00 00 00 00 00 00 00 00 00 00 00 00 00 00 42 21 99 9A 41 20 00 00 41 A9 99 9A 00 00 00 00 41 0C CC CD 42 30 00 00 40 4C CC CD 41 F3 33 33 00 00 00 00 41 19 99 9A 45 2F 66 66 43 E3 99 9A 44 DC 33 33 00 00 00 00 44 13 4C CD 00 00 00 00 00 00 00 00 00 00 00 00 00 00 00 00 00 00 00 00 44 77 E6 66 43 2E CC CD 44 24 B3 33 00 00 00 00 43 1D 99 9A 42 13 33 33 40 00 00 00 41 D9 99 9A 00 00 00 00 40 E6 7E 5A
write:02 03 01 0F 00 08 75 C0
02 03 10
200 03 50 B7 00 00 00 05 00 01 34 84 00 00 0F 71
43 6A 0A 3D
234.04
43 6A 08 31
234.032
43 69 6F 1B
233.434
43 CA A6 46
405.299
43 CA 63 D7
404.78
43 CA 63 D7
404.78
41 55 C2 8F
13.36
41 5D 70 A4
13.84
41 62 8F 5C
14.16
45 2A 00 00
2720
45 34 00 00
2880
45 39 00 00
2960
46 05 C0 00
8560
43 70 00 00
240
00 00 00 00
0
43 C8 00 00
400
44 0C 00 00
560
45 43 00 00
3120
45 4D 00 00
3280
45 4D 00 00
3280
46 07 00 00
8640
3F 61 47 AE
0.88
3F 64 5A 1D
0.892
3F 64 18 93
0.891
3F 7F 7C EE
0.998
42 47 93 2A
49.893715
44 AE C0 00
1398
43 1D 99 9A
157.6
44 52 66 66
841.6
00 00 00 00
0
43 C7 33 33
398.4
00 00 00 00
0
00 00 00 00
0
00 00 00 00
0
00 00 00 00
0
00 00 00 00
0
42 F6 66 66
123.2
41 53 33 33
13.2
42 9C CC CD
78.4
00 00 00 00
0
41 F9 99 9A
31.2
42 38 00 00
46
40 33 33 33
2.8
42 04 CC CD
33.2
00 00 00 00
0
41 19 99 9A
9.6
44 8E D9 9A
1142.8
43 18 CC CD
152.8
44 1F E6 66
639.6
00 00 00 00
0
43 AF 00 00
350
00 00 00 00
0
00 00 00 00
0
00 00 00 00
0
00 00 00 00
0
00 00 00 00
0
42 21 99 9A
40.4
41 20 00 00
10
41 A9 99 9A
21.2
00 00 00 00
0
41 0C CC CD
8.8
42 30 00 00
44
40 4C CC CD
3.2
41 F3 33 33
30.4
00 00 00 00
0
41 19 99 9A
9.6
45 2F 66 66
2806.4
43 E3 99 9A
455.2
44 DC 33 33
1761.6
00 00 00 00
0
44 13 4C CD
589.2
00 00 00 00
0
00 00 00 00
0
00 00 00 00
0
00 00 00 00
0
00 00 00 00
0
44 77 E6 66
991.6
43 2E CC CD
174.8
44 24 B3 33
658.8
00 00 00 00
0
43 1D 99 9A
157.6
42 13 33 33
36.8
40 00 00 00
2
41 D9 99 9A
27.2
00 00 00 00
0
40 E6 7E 5A
7.202924
00 03 50 B7
217271
00 00 00 05
5
00 01 34 84
78980
00 00 0F 71
3953
234.04234.032233.434405.299404.78404.7813.3613.8414.162720288029608560240040056031203280328086400.880.8920.8910.99849.8937151398157.6841.60398.400000123.213.278.4031.2462.833.209.61142.8152.8639.603500000040.41021.208.8443.230.409.62806.4455.21761.60589.200000991.6174.8658.80157.636.8227.207.202924220171127135918217.2710.00578.983.953insert into tbl_power_info_v2(P_A_DIANYA,P_B_DIANYA,P_C_DIANYA,P_UAB_XIANDIANYA,P_UBC_XIANDIANYA,P_UCA_XIANDIANYA,P_A_DIANLIU,P_B_DIANLIU,P_C_DIANLIU,P_A_YGGL,P_B_YGGL,P_C_YGGL,P_HXYGGL,P_A_WGGL,P_B_WGGL,P_C_WGGL,P_HXWGGL,P_A_SZGL,P_B_SZGL,P_C_SZGL,P_HXSZGL,P_A_GLYS,P_B_GLYS,P_C_GLYS,P_HXGLYS,P_DWPL,P_BY_KwhZ,P_BY_KwhJ,P_BY_KwhF,P_BY_KwhP,P_BY_KwhG,P_BY_HKwhZ,P_BY_HKwhJ,P_BY_HKwhF,P_BY_HKwhP,P_BY_HKwhG, P_BY_KvarhZ,P_BY_KvarhJ,P_BY_KvarhF,P_BY_KvarhP,P_BY_KvarhG, P_BY_HKvarhZ,P_BY_HKvarhJ,P_BY_HKvarhF,P_BY_HKvarhP,P_BY_HKvarhG, P_SY_KwhZ,P_SY_KwhJ,P_SY_KwhF,P_SY_KwhP,P_SY_KwhG, P_SY_HKwhZ,P_SY_HKwhJ,P_SY_HKwhF,P_SY_HKwhP,P_SY_HKwhG, P_SY_KvarhZ,P_SY_KvarhJ,P_SY_KvarhF,P_SY_KvarhP,P_SY_KvarhG, P_SY_HKvarhZ,P_SY_HKvarhJ,P_SY_HKvarhF,P_SY_HKvarhP,P_SY_HKvarhG, P_SSY_KwhZ,P_SSY_KwhJ,P_SSY_KwhF,P_SSY_KwhP,P_SSY_KwhG, P_SSY_HKwhZ,P_SSY_HKwhJ,P_SSY_HKwhF,P_SSY_HKwhP,P_SSY_HKwhG, P_SSY_KvarhZ,P_SSY_KvarhJ,P_SSY_KvarhF,P_SSY_KvarhP,P_SSY_KvarhG, P_SSY_HKvarhZ,P_SSY_HKvarhJ,P_SSY_HKvarhF,P_SSY_HKvarhP,P_SSY_HKvarhG,P_CODE,P_TIME,P_ZXYGDN,P_FXYGDN,P_ZXWGDN,P_FXWGDN)values(234.04,234.032,233.434,405.299,404.78,404.78,13.36,13.84,14.16,2720,2880,2960,8560,240,0,400,560,3120,3280,3280,8640,0.88,0.892,0.891,0.998,49.893715,1398,157.6,841.6,0,398.4,0,0,0,0,0,123.2,13.2,78.4,0,31.2,46,2.8,33.2,0,9.6,1142.8,152.8,639.6,0,350,0,0,0,0,0,40.4,10,21.2,0,8.8,44,3.2,30.4,0,9.6,2806.4,455.2,1761.6,0,589.2,0,0,0,0,0,991.6,174.8,658.8,0,157.6,36.8,2,27.2,0,7.202924,2,20171127135918,217.271,0.005,78.98,3.953)
写入成功读取完毕一个
write:03 03 00 38 00 34 C4 32
write:03 03 07 CF 00 78 75 41
write:03 03 01 0F 00 08 74 11
F9 F1 ED
heart:F9 F1 ED FF C5 ED FF DF F7 6A 97 4C 43 6A 48 73 43 CB 2B 64 43 CA F3 F8 43 CB 0A 1D 3F A8 F5 C3 3F EE 14 7B 3F EA 3D 71 43 52 00 00 43 A5 00 00 43 B4 00 00 44 61 00 00 42 F0 00 00 43 52 00 00 43 70 00 00 44 0E 80 00 43 96 00 00 43 E1 00 00 43 D2 00 00 44 87 00 00 3F 30 62 4E 3F 45 60 42 3F 52 B0 21 3F 58 D4 FE 42 48 D2 EE
write:04 03 00 38 00 34 C5 85
04 03 68
443 6A 27 F0 43 6A 34 BC 43 69 BC EE 43 CA C7 8D 43 CA 9B 44 43 CA 90 21 40 14 7A E1 40 11 EB 85 40 E7 AE 14 43 C8 00 00 44 02 00 00 44 CD 00 00 45 20 00 00 42 F0 00 00 00 00 00 00 42 F0 00 00 43 48 00 00 44 02 00 00 44 02 00 00 44 D2 00 00 45 20 00 00 3F 3D B2 2D 3F 75 3F 7D 3F 77 CE D9 3F 7F 3B 64 42 48 DA 77
write:04 03 07 CF 00 78 74 F6
04 03 F0
4totalsize 240
44 2A 19 9A 43 0D 99 9A 43 C0 CC CD 00 00 00 00 43 18 CC CD 00 00 00 00 00 00 00 00 00 00 00 00 00 00 00 00 00 00 00 00 40 C0 00 00 3E 4C CC CD 3F CC CC CD 00 00 00 00 40 86 66 66 42 8A 66 66 41 66 66 66 42 07 33 33 00 00 00 00 41 A6 66 66 44 1B 00 00 42 CE CC CD 43 AE 00 00 00 00 00 00 43 28 66 66 00 00 00 00 00 00 00 00 00 00 00 00 00 00 00 00 00 00 00 00 41 B0 00 00 40 26 66 66 40 C0 00 00 00 00 00 00 41 53 33 33 42 48 CC CD 41 06 66 66 41 D0 00 00 00 00 00 00 41 76 66 66 44 21 8C CD 42 DE CC CD 43 B0 99 9A 00 00 00 00 43 35 33 33 00 00 00 00 00 00 00 00 00 00 00 00 00 00 00 00 00 00 00 00 41 E8 00 00 40 B9 99 9A 40 E0 00 00 00 00 00 00 41 81 99 9A 42 14 CC CD 40 8C CC CD 41 9B 33 33 00 00 00 00 41 50 DE 2C
write:04 03 01 0F 00 08 75 A6
04 03 10
400 02 94 07 00 00 00 00 00 00 42 3E 00 00 72 59
43 6A 27 F0
234.156
43 6A 34 BC
234.206
43 69 BC EE
233.738
43 CA C7 8D
405.559
43 CA 9B 44
405.213
43 CA 90 21
405.126
40 14 7A E1
2.32
40 11 EB 85
2.28
40 E7 AE 14
7.24
43 C8 00 00
400
44 02 00 00
520
44 CD 00 00
1640
45 20 00 00
2560
42 F0 00 00
120
00 00 00 00
0
42 F0 00 00
120
43 48 00 00
200
44 02 00 00
520
44 02 00 00
520
44 D2 00 00
1680
45 20 00 00
2560
3F 3D B2 2D
0.741
3F 75 3F 7D
0.958
3F 77 CE D9
0.968
3F 7F 3B 64
0.997
42 48 DA 77
50.213345
44 2A 19 9A
680.4
43 0D 99 9A
141.6
43 C0 CC CD
385.6
00 00 00 00
0
43 18 CC CD
152.8
00 00 00 00
0
00 00 00 00
0
00 00 00 00
0
00 00 00 00
0
00 00 00 00
0
40 C0 00 00
6
3E 4C CC CD
0.2
3F CC CC CD
1.6
00 00 00 00
0
40 86 66 66
4.2
42 8A 66 66
69.2
41 66 66 66
14.4
42 07 33 33
33.8
00 00 00 00
0
41 A6 66 66
20.8
44 1B 00 00
620
42 CE CC CD
103.4
43 AE 00 00
348
00 00 00 00
0
43 28 66 66
168.4
00 00 00 00
0
00 00 00 00
0
00 00 00 00
0
00 00 00 00
0
00 00 00 00
0
41 B0 00 00
22
40 26 66 66
2.6
40 C0 00 00
6
00 00 00 00
0
41 53 33 33
13.2
42 48 CC CD
50.2
41 06 66 66
8.4
41 D0 00 00
26
00 00 00 00
0
41 76 66 66
15.4
44 21 8C CD
646.2
42 DE CC CD
111.4
43 B0 99 9A
353.2
00 00 00 00
0
43 35 33 33
181.2
00 00 00 00
0
00 00 00 00
0
00 00 00 00
0
00 00 00 00
0
00 00 00 00
0
41 E8 00 00
29
40 B9 99 9A
5.8
40 E0 00 00
7
00 00 00 00
0
41 81 99 9A
16.2
42 14 CC CD
37.2
40 8C CC CD
4.4
41 9B 33 33
19.4
00 00 00 00
0
41 50 DE 2C
13.054241
00 02 94 07
168967
00 00 00 00
0
00 00 42 3E
16958
00 00 72 59
29273
234.156234.206233.738405.559405.213405.1262.322.287.24400520164025601200120200520520168025600.7410.9580.9680.99750.213345680.4141.6385.60152.80000060.21.604.269.214.433.8020.8620103.43480168.400000222.66013.250.28.426015.4646.2111.4353.20181.200000295.87016.237.24.419.4013.054241420171127140119168.967016.95829.273insert into tbl_power_info_v2(P_A_DIANYA,P_B_DIANYA,P_C_DIANYA,P_UAB_XIANDIANYA,P_UBC_XIANDIANYA,P_UCA_XIANDIANYA,P_A_DIANLIU,P_B_DIANLIU,P_C_DIANLIU,P_A_YGGL,P_B_YGGL,P_C_YGGL,P_HXYGGL,P_A_WGGL,P_B_WGGL,P_C_WGGL,P_HXWGGL,P_A_SZGL,P_B_SZGL,P_C_SZGL,P_HXSZGL,P_A_GLYS,P_B_GLYS,P_C_GLYS,P_HXGLYS,P_DWPL,P_BY_KwhZ,P_BY_KwhJ,P_BY_KwhF,P_BY_KwhP,P_BY_KwhG,P_BY_HKwhZ,P_BY_HKwhJ,P_BY_HKwhF,P_BY_HKwhP,P_BY_HKwhG, P_BY_KvarhZ,P_BY_KvarhJ,P_BY_KvarhF,P_BY_KvarhP,P_BY_KvarhG, P_BY_HKvarhZ,P_BY_HKvarhJ,P_BY_HKvarhF,P_BY_HKvarhP,P_BY_HKvarhG, P_SY_KwhZ,P_SY_KwhJ,P_SY_KwhF,P_SY_KwhP,P_SY_KwhG, P_SY_HKwhZ,P_SY_HKwhJ,P_SY_HKwhF,P_SY_HKwhP,P_SY_HKwhG, P_SY_KvarhZ,P_SY_KvarhJ,P_SY_KvarhF,P_SY_KvarhP,P_SY_KvarhG, P_SY_HKvarhZ,P_SY_HKvarhJ,P_SY_HKvarhF,P_SY_HKvarhP,P_SY_HKvarhG, P_SSY_KwhZ,P_SSY_KwhJ,P_SSY_KwhF,P_SSY_KwhP,P_SSY_KwhG, P_SSY_HKwhZ,P_SSY_HKwhJ,P_SSY_HKwhF,P_SSY_HKwhP,P_SSY_HKwhG, P_SSY_KvarhZ,P_SSY_KvarhJ,P_SSY_KvarhF,P_SSY_KvarhP,P_SSY_KvarhG, P_SSY_HKvarhZ,P_SSY_HKvarhJ,P_SSY_HKvarhF,P_SSY_HKvarhP,P_SSY_HKvarhG,P_CODE,P_TIME,P_ZXYGDN,P_FXYGDN,P_ZXWGDN,P_FXWGDN)values(234.156,234.206,233.738,405.559,405.213,405.126,2.32,2.28,7.24,400,520,1640,2560,120,0,120,200,520,520,1680,2560,0.741,0.958,0.968,0.997,50.213345,680.4,141.6,385.6,0,152.8,0,0,0,0,0,6,0.2,1.6,0,4.2,69.2,14.4,33.8,0,20.8,620,103.4,348,0,168.4,0,0,0,0,0,22,2.6,6,0,13.2,50.2,8.4,26,0,15.4,646.2,111.4,353.2,0,181.2,0,0,0,0,0,29,5.8,7,0,16.2,37.2,4.4,19.4,0,13.054241,4,20171127140119,168.967,0,16.958,29.273)
写入成功读取完毕一个
write:05 03 00 38 00 34 C4 54
05 03 68
543 6A 33 33 43 6A 3A 1D 43 69 A7 F0 43 CA D2 B0 43 CA 90 21 43 CA 90 21 40 C5 1E B8 40 8E 14 7B 41 04 7A E1 44 96 00 00 44 70 00 00 44 D7 00 00 45 72 80 00 43 48 00 00 42 F0 00 00 42 A0 00 00 43 C8 00 00 44 B4 00 00 44 82 00 00 44 F0 00 00 45 72 80 00 3F 51 A9 FC 3F 6B 85 1F 3F 63 53 F8 3F 7E B8 52 42 48 11 6E
write:05 03 07 CF 00 78 75 27
05 03 F0
5totalsize 240
44 B6 06 66 43 AF 66 66 44 49 B3 33 00 00 00 00 43 95 4C CD 00 00 00 00 00 00 00 00 00 00 00 00 00 00 00 00 00 00 00 00 00 00 00 00 00 00 00 00 00 00 00 00 00 00 00 00 00 00 00 00 43 65 00 00 42 48 00 00 42 DD 33 33 00 00 00 00 42 88 66 66 44 C1 06 66 43 AF 99 9A 44 5A 00 00 00 00 00 00 43 A0 66 66 00 00 00 00 00 00 00 00 00 00 00 00 00 00 00 00 00 00 00 00 3F CC CC CD 3F 19 99 9A 3F 4C CC CD 00 00 00 00 00 00 00 00 43 6F 99 9A 42 50 00 00 42 E7 33 33 00 00 00 00 42 8F 99 9A 44 D5 93 33 43 A4 B3 33 44 7E 19 9A 00 00 00 00 43 B5 33 33 00 00 00 00 00 00 00 00 00 00 00 00 00 00 00 00 00 00 00 00 42 A8 66 66 41 9B 33 33 42 69 99 9A 00 00 00 00 40 CC CC CD 43 26 33 33 41 FE 66 66 42 9E CC CD 00 00 00 00 42 5B AD EF
write:05 03 01 0F 00 08 74 77
05 03 10
500 08 87 9A 00 00 00 00 00 00 D9 A8 00 00 9B F2
43 6A 33 33
234.2
43 6A 3A 1D
234.227
43 69 A7 F0
233.656
43 CA D2 B0
405.646
43 CA 90 21
405.126
43 CA 90 21
405.126
40 C5 1E B8
6.16
40 8E 14 7B
4.44
41 04 7A E1
8.28
44 96 00 00
1200
44 70 00 00
960
44 D7 00 00
1720
45 72 80 00
3880
43 48 00 00
200
42 F0 00 00
120
42 A0 00 00
80
43 C8 00 00
400
44 B4 00 00
1440
44 82 00 00
1040
44 F0 00 00
1920
45 72 80 00
3880
3F 51 A9 FC
0.819
3F 6B 85 1F
0.92
3F 63 53 F8
0.888
3F 7E B8 52
0.995
42 48 11 6E
50.01702
44 B6 06 66
1456.2
43 AF 66 66
350.8
44 49 B3 33
806.8
00 00 00 00
0
43 95 4C CD
298.6
00 00 00 00
0
00 00 00 00
0
00 00 00 00
0
00 00 00 00
0
00 00 00 00
0
00 00 00 00
0
00 00 00 00
0
00 00 00 00
0
00 00 00 00
0
00 00 00 00
0
43 65 00 00
229
42 48 00 00
50
42 DD 33 33
110.6
00 00 00 00
0
42 88 66 66
68.2
44 C1 06 66
1544.2
43 AF 99 9A
351.2
44 5A 00 00
872
00 00 00 00
0
43 A0 66 66
320.8
00 00 00 00
0
00 00 00 00
0
00 00 00 00
0
00 00 00 00
0
00 00 00 00
0
3F CC CC CD
1.6
3F 19 99 9A
0.6
3F 4C CC CD
0.8
00 00 00 00
0
00 00 00 00
0
43 6F 99 9A
239.6
42 50 00 00
52
42 E7 33 33
115.6
00 00 00 00
0
42 8F 99 9A
71.8
44 D5 93 33
1708.6
43 A4 B3 33
329.4
44 7E 19 9A
1016.4
00 00 00 00
0
43 B5 33 33
362.4
00 00 00 00
0
00 00 00 00
0
00 00 00 00
0
00 00 00 00
0
00 00 00 00
0
42 A8 66 66
84.2
41 9B 33 33
19.4
42 69 99 9A
58.4
00 00 00 00
0
40 CC CC CD
6.4
43 26 33 33
166.2
41 FE 66 66
31.8
42 9E CC CD
79.4
00 00 00 00
0
42 5B AD EF
54.919857
00 08 87 9A
559002
00 00 00 00
0
00 00 D9 A8
55720
00 00 9B F2
39922
234.2234.227233.656405.646405.126405.1266.164.448.281200960172038802001208040014401040192038800.8190.920.8880.99550.017021456.2350.8806.80298.6000000000022950110.6068.21544.2351.28720320.8000001.60.60.800239.652115.6071.81708.6329.41016.40362.40000084.219.458.406.4166.231.879.4054.919857520171127140225559.002055.7239.922insert into tbl_power_info_v2(P_A_DIANYA,P_B_DIANYA,P_C_DIANYA,P_UAB_XIANDIANYA,P_UBC_XIANDIANYA,P_UCA_XIANDIANYA,P_A_DIANLIU,P_B_DIANLIU,P_C_DIANLIU,P_A_YGGL,P_B_YGGL,P_C_YGGL,P_HXYGGL,P_A_WGGL,P_B_WGGL,P_C_WGGL,P_HXWGGL,P_A_SZGL,P_B_SZGL,P_C_SZGL,P_HXSZGL,P_A_GLYS,P_B_GLYS,P_C_GLYS,P_HXGLYS,P_DWPL,P_BY_KwhZ,P_BY_KwhJ,P_BY_KwhF,P_BY_KwhP,P_BY_KwhG,P_BY_HKwhZ,P_BY_HKwhJ,P_BY_HKwhF,P_BY_HKwhP,P_BY_HKwhG, P_BY_KvarhZ,P_BY_KvarhJ,P_BY_KvarhF,P_BY_KvarhP,P_BY_KvarhG, P_BY_HKvarhZ,P_BY_HKvarhJ,P_BY_HKvarhF,P_BY_HKvarhP,P_BY_HKvarhG, P_SY_KwhZ,P_SY_KwhJ,P_SY_KwhF,P_SY_KwhP,P_SY_KwhG, P_SY_HKwhZ,P_SY_HKwhJ,P_SY_HKwhF,P_SY_HKwhP,P_SY_HKwhG, P_SY_KvarhZ,P_SY_KvarhJ,P_SY_KvarhF,P_SY_KvarhP,P_SY_KvarhG, P_SY_HKvarhZ,P_SY_HKvarhJ,P_SY_HKvarhF,P_SY_HKvarhP,P_SY_HKvarhG, P_SSY_KwhZ,P_SSY_KwhJ,P_SSY_KwhF,P_SSY_KwhP,P_SSY_KwhG, P_SSY_HKwhZ,P_SSY_HKwhJ,P_SSY_HKwhF,P_SSY_HKwhP,P_SSY_HKwhG, P_SSY_KvarhZ,P_SSY_KvarhJ,P_SSY_KvarhF,P_SSY_KvarhP,P_SSY_KvarhG, P_SSY_HKvarhZ,P_SSY_HKvarhJ,P_SSY_HKvarhF,P_SSY_HKvarhP,P_SSY_HKvarhG,P_CODE,P_TIME,P_ZXYGDN,P_FXYGDN,P_ZXWGDN,P_FXWGDN)values(234.2,234.227,233.656,405.646,405.126,405.126,6.16,4.44,8.28,1200,960,1720,3880,200,120,80,400,1440,1040,1920,3880,0.819,0.92,0.888,0.995,50.01702,1456.2,350.8,806.8,0,298.6,0,0,0,0,0,0,0,0,0,0,229,50,110.6,0,68.2,1544.2,351.2,872,0,320.8,0,0,0,0,0,1.6,0.6,0.8,0,0,239.6,52,115.6,0,71.8,1708.6,329.4,1016.4,0,362.4,0,0,0,0,0,84.2,19.4,58.4,0,6.4,166.2,31.8,79.4,0,54.919857,5,20171127140225,559.002,0,55.72,39.922)
写入成功读取完毕一个
write:06 03 00 38 00 34 C4 67
write:06 03 07 CF 00 78 75 14
06 03 68
643 6A 75 C3 43 6A A4 19 43 6A 1B 64 43 CB 15 1F 43 CA F3 F8 43 CA DD B2 41 90 51 EC 41 82 3D 71 41 A6 66 66 45 82 00 00 45 6D 80 00 45 94 C0 00 46 46 C0 00 43 48 00 00 00 00 00 00 42 F0 00 00 42 A0 00 00 45 84 80 00 45 70 00 00 45 98 80 00 46 46 C0 00 3F 7C 6A 7F 3F 7D 70 A4 3F 7A E1 48 3F 80 00 00 42 47 C2 4F
06 03 F0
6totalsize 240
44 DD A0 00 43 A8 33 33 44 84 93 33 00 00 00 00 43 BB E6 66 00 00 00 00 00 00 00 00 00 00 00 00 00 00 00 00 00 00 00 00 40 00 00 00 3E 4C CC CD 3F B3 33 33 00 00 00 00 3E 4C CC CD 43 20 CC CD 41 F8 00 00 42 94 66 66 00 00 00 00 42 5D 99 9A 44 F8 A6 66 43 BF 33 33 44 93 80 00 00 00 00 00 43 D5 4C CD 00 00 00 00 00 00 00 00 00 00 00 00 00 00 00 00 00 00 00 00 40 C6 66 66 3E CC CC CD 40 A0 00 00 00 00 00 00 3F 19 99 9A 43 47 99 9A 42 16 66 66 42 BB 99 9A 00 00 00 00 42 88 00 00 45 15 00 00 43 EA 66 66 44 AC 53 33 00 00 00 00 44 06 0C CD 00 00 00 00 00 00 00 00 00 00 00 00 00 00 00 00 00 00 00 00 41 53 33 33 40 66 66 66 40 CC CC CD 00 00 00 00 40 40 00 00 43 38 33 33 42 10 00 00 42 A8 CC CD 00 00 00 00 42 7D 2C 0B
write:06 03 01 0F 00 08 74 44
write:07 03 00 38 00 34 C5 B6
write:07 03 07 CF 00 78 74 C5
06 03 10
600 0B 38 F6 00 00 00 00 00 00 17 9C 00 00 32 28
43 6A 75 C3
234.46
43 6A A4 19
234.641
43 6A 1B 64
234.107
43 CB 15 1F
406.165
43 CA F3 F8
405.906
43 CA DD B2
405.732
41 90 51 EC
18.04
41 82 3D 71
16.28
41 A6 66 66
20.8
45 82 00 00
4160
45 6D 80 00
3800
45 94 C0 00
4760
46 46 C0 00
12720
43 48 00 00
200
00 00 00 00
0
42 F0 00 00
120
42 A0 00 00
80
45 84 80 00
4240
45 70 00 00
3840
45 98 80 00
4880
46 46 C0 00
12720
3F 7C 6A 7F
0.986
3F 7D 70 A4
0.99
3F 7A E1 48
0.98
3F 80 00 00
1
42 47 C2 4F
49.939754
44 DD A0 00
1773
43 A8 33 33
336.4
44 84 93 33
1060.6
00 00 00 00
0
43 BB E6 66
375.8
00 00 00 00
0
00 00 00 00
0
00 00 00 00
0
00 00 00 00
0
00 00 00 00
0
40 00 00 00
2
3E 4C CC CD
0.2
3F B3 33 33
1.4
00 00 00 00
0
3E 4C CC CD
0.2
43 20 CC CD
160.8
41 F8 00 00
31
42 94 66 66
74.2
00 00 00 00
0
42 5D 99 9A
55.4
44 F8 A6 66
1989.2
43 BF 33 33
382.4
44 93 80 00
1180
00 00 00 00
0
43 D5 4C CD
426.6
00 00 00 00
0
00 00 00 00
0
00 00 00 00
0
00 00 00 00
0
00 00 00 00
0
40 C6 66 66
6.2
3E CC CC CD
0.4
40 A0 00 00
5
00 00 00 00
0
3F 19 99 9A
0.6
43 47 99 9A
199.6
42 16 66 66
37.6
42 BB 99 9A
93.8
00 00 00 00
0
42 88 00 00
68
45 15 00 00
2384
43 EA 66 66
468.8
44 AC 53 33
1378.6
00 00 00 00
0
44 06 0C CD
536.2
00 00 00 00
0
00 00 00 00
0
00 00 00 00
0
00 00 00 00
0
00 00 00 00
0
41 53 33 33
13.2
40 66 66 66
3.6
40 CC CC CD
6.4
00 00 00 00
0
40 40 00 00
3
43 38 33 33
184.2
42 10 00 00
36
42 A8 CC CD
84.4
00 00 00 00
0
42 7D 2C 0B
63.29301
00 0B 38 F6
735478
00 00 00 00
0
00 00 17 9C
6044
00 00 32 28
12840
234.46234.641234.107406.165405.906405.73218.0416.2820.841603800476012720200012080424038404880127200.9860.990.98149.9397541773336.41060.60375.80000020.21.400.2160.83174.2055.41989.2382.411800426.6000006.20.4500.6199.637.693.80682384468.81378.60536.20000013.23.66.403184.23684.4063.29301620171127140406735.47806.04412.84insert into tbl_power_info_v2(P_A_DIANYA,P_B_DIANYA,P_C_DIANYA,P_UAB_XIANDIANYA,P_UBC_XIANDIANYA,P_UCA_XIANDIANYA,P_A_DIANLIU,P_B_DIANLIU,P_C_DIANLIU,P_A_YGGL,P_B_YGGL,P_C_YGGL,P_HXYGGL,P_A_WGGL,P_B_WGGL,P_C_WGGL,P_HXWGGL,P_A_SZGL,P_B_SZGL,P_C_SZGL,P_HXSZGL,P_A_GLYS,P_B_GLYS,P_C_GLYS,P_HXGLYS,P_DWPL,P_BY_KwhZ,P_BY_KwhJ,P_BY_KwhF,P_BY_KwhP,P_BY_KwhG,P_BY_HKwhZ,P_BY_HKwhJ,P_BY_HKwhF,P_BY_HKwhP,P_BY_HKwhG, P_BY_KvarhZ,P_BY_KvarhJ,P_BY_KvarhF,P_BY_KvarhP,P_BY_KvarhG, P_BY_HKvarhZ,P_BY_HKvarhJ,P_BY_HKvarhF,P_BY_HKvarhP,P_BY_HKvarhG, P_SY_KwhZ,P_SY_KwhJ,P_SY_KwhF,P_SY_KwhP,P_SY_KwhG, P_SY_HKwhZ,P_SY_HKwhJ,P_SY_HKwhF,P_SY_HKwhP,P_SY_HKwhG, P_SY_KvarhZ,P_SY_KvarhJ,P_SY_KvarhF,P_SY_KvarhP,P_SY_KvarhG, P_SY_HKvarhZ,P_SY_HKvarhJ,P_SY_HKvarhF,P_SY_HKvarhP,P_SY_HKvarhG, P_SSY_KwhZ,P_SSY_KwhJ,P_SSY_KwhF,P_SSY_KwhP,P_SSY_KwhG, P_SSY_HKwhZ,P_SSY_HKwhJ,P_SSY_HKwhF,P_SSY_HKwhP,P_SSY_HKwhG, P_SSY_KvarhZ,P_SSY_KvarhJ,P_SSY_KvarhF,P_SSY_KvarhP,P_SSY_KvarhG, P_SSY_HKvarhZ,P_SSY_HKvarhJ,P_SSY_HKvarhF,P_SSY_HKvarhP,P_SSY_HKvarhG,P_CODE,P_TIME,P_ZXYGDN,P_FXYGDN,P_ZXWGDN,P_FXWGDN)values(234.46,234.641,234.107,406.165,405.906,405.732,18.04,16.28,20.8,4160,3800,4760,12720,200,0,120,80,4240,3840,4880,12720,0.986,0.99,0.98,1,49.939754,1773,336.4,1060.6,0,375.8,0,0,0,0,0,2,0.2,1.4,0,0.2,160.8,31,74.2,0,55.4,1989.2,382.4,1180,0,426.6,0,0,0,0,0,6.2,0.4,5,0,0.6,199.6,37.6,93.8,0,68,2384,468.8,1378.6,0,536.2,0,0,0,0,0,13.2,3.6,6.4,0,3,184.2,36,84.4,0,63.29301,6,20171127140406,735.478,0,6.044,12.84)
写入成功读取完毕一个
write:07 03 01 0F 00 08 75 95
write:08 03 00 38 00 34 C5 49
08 03 68
843 6A DE 35 43 6A 9C AC 43 6A 1B E7 43 CB 41 89 43 CA F3 F8 43 CB 0A 1D 3F 21 47 AE 00 00 00 00 00 00 00 00 42 70 00 00 00 00 00 00 00 00 00 00 42 F0 00 00 00 00 00 00 00 00 00 00 00 00 00 00 00 00 00 00 43 16 00 00 42 70 00 00 00 00 00 00 42 F0 00 00 3E FE F9 DB 3F 1D 2F 1B 00 00 00 00 3F 7A 5E 35 42 48 0A E8
write:08 03 07 CF 00 78 74 3A
08 03 F0
8totalsize 240
42 81 00 00 00 00 00 00 42 2A 66 66 00 00 00 00 41 AF 33 33 00 00 00 00 00 00 00 00 00 00 00 00 00 00 00 00 00 00 00 00 00 00 00 00 00 00 00 00 00 00 00 00 00 00 00 00 00 00 00 00 41 3D 99 9A 00 00 00 00 40 EB 33 33 00 00 00 00 40 90 00 00 42 67 00 00 00 00 00 00 42 28 00 00 00 00 00 00 41 79 99 9A 00 00 00 00 00 00 00 00 00 00 00 00 00 00 00 00 00 00 00 00 00 00 00 00 00 00 00 00 00 00 00 00 00 00 00 00 00 00 00 00 41 1E 66 66 00 00 00 00 40 DC CC CD 00 00 00 00 40 40 00 00 42 95 19 9A 00 00 00 00 42 3B CC CD 00 00 00 00 41 DB 99 9A 00 00 00 00 00 00 00 00 00 00 00 00 00 00 00 00 00 00 00 00 00 00 00 00 00 00 00 00 00 00 00 00 00 00 00 00 00 00 00 00 41 4E 66 66 00 00 00 00 41 06 66 66 00 00 00 00 40 8B AF F6
write:08 03 01 0F 00 08 75 6A
write:09 03 00 38 00 34 C4 98
08 03 10
800 00 49 9E 00 00 00 00 00 00 00 00 00 00 EF 0D
43 6A DE 35
234.868
43 6A 9C AC
234.612
43 6A 1B E7
234.109
43 CB 41 89
406.512
43 CA F3 F8
405.906
43 CB 0A 1D
406.079
3F 21 47 AE
0.63
00 00 00 00
0
00 00 00 00
0
42 70 00 00
60
00 00 00 00
0
00 00 00 00
0
42 F0 00 00
120
00 00 00 00
0
00 00 00 00
0
00 00 00 00
0
00 00 00 00
0
43 16 00 00
150
42 70 00 00
60
00 00 00 00
0
42 F0 00 00
120
3E FE F9 DB
0.498
3F 1D 2F 1B
0.614
00 00 00 00
0
3F 7A 5E 35
0.978
42 48 0A E8
50.01065
42 81 00 00
64.5
00 00 00 00
0
42 2A 66 66
42.6
00 00 00 00
0
41 AF 33 33
21.9
00 00 00 00
0
00 00 00 00
0
00 00 00 00
0
00 00 00 00
0
00 00 00 00
0
00 00 00 00
0
00 00 00 00
0
00 00 00 00
0
00 00 00 00
0
00 00 00 00
0
41 3D 99 9A
11.85
00 00 00 00
0
40 EB 33 33
7.35
00 00 00 00
0
40 90 00 00
4.5
42 67 00 00
57.75
00 00 00 00
0
42 28 00 00
42
00 00 00 00
0
41 79 99 9A
15.6
00 00 00 00
0
00 00 00 00
0
00 00 00 00
0
00 00 00 00
0
00 00 00 00
0
00 00 00 00
0
00 00 00 00
0
00 00 00 00
0
00 00 00 00
0
00 00 00 00
0
41 1E 66 66
9.9
00 00 00 00
0
40 DC CC CD
6.9
00 00 00 00
0
40 40 00 00
3
42 95 19 9A
74.55
00 00 00 00
0
42 3B CC CD
46.95
00 00 00 00
0
41 DB 99 9A
27.45
00 00 00 00
0
00 00 00 00
0
00 00 00 00
0
00 00 00 00
0
00 00 00 00
0
00 00 00 00
0
00 00 00 00
0
00 00 00 00
0
00 00 00 00
0
00 00 00 00
0
41 4E 66 66
12.9
00 00 00 00
0
41 06 66 66
8.4
00 00 00 00
0
40 8B AF F6
4.3652296
00 00 49 9E
18846
00 00 00 00
0
00 00 00 00
0
00 00 EF 0D
61197
234.868234.612234.109406.512405.906406.0790.6300600012000001506001200.4980.61400.97850.0106564.5042.6021.9000000000011.8507.3504.557.75042015.600000000009.906.90374.55046.95027.45000000000012.908.404.365229682017112714054018.8460061.197insert into tbl_power_info_v2(P_A_DIANYA,P_B_DIANYA,P_C_DIANYA,P_UAB_XIANDIANYA,P_UBC_XIANDIANYA,P_UCA_XIANDIANYA,P_A_DIANLIU,P_B_DIANLIU,P_C_DIANLIU,P_A_YGGL,P_B_YGGL,P_C_YGGL,P_HXYGGL,P_A_WGGL,P_B_WGGL,P_C_WGGL,P_HXWGGL,P_A_SZGL,P_B_SZGL,P_C_SZGL,P_HXSZGL,P_A_GLYS,P_B_GLYS,P_C_GLYS,P_HXGLYS,P_DWPL,P_BY_KwhZ,P_BY_KwhJ,P_BY_KwhF,P_BY_KwhP,P_BY_KwhG,P_BY_HKwhZ,P_BY_HKwhJ,P_BY_HKwhF,P_BY_HKwhP,P_BY_HKwhG, P_BY_KvarhZ,P_BY_KvarhJ,P_BY_KvarhF,P_BY_KvarhP,P_BY_KvarhG, P_BY_HKvarhZ,P_BY_HKvarhJ,P_BY_HKvarhF,P_BY_HKvarhP,P_BY_HKvarhG, P_SY_KwhZ,P_SY_KwhJ,P_SY_KwhF,P_SY_KwhP,P_SY_KwhG, P_SY_HKwhZ,P_SY_HKwhJ,P_SY_HKwhF,P_SY_HKwhP,P_SY_HKwhG, P_SY_KvarhZ,P_SY_KvarhJ,P_SY_KvarhF,P_SY_KvarhP,P_SY_KvarhG, P_SY_HKvarhZ,P_SY_HKvarhJ,P_SY_HKvarhF,P_SY_HKvarhP,P_SY_HKvarhG, P_SSY_KwhZ,P_SSY_KwhJ,P_SSY_KwhF,P_SSY_KwhP,P_SSY_KwhG, P_SSY_HKwhZ,P_SSY_HKwhJ,P_SSY_HKwhF,P_SSY_HKwhP,P_SSY_HKwhG, P_SSY_KvarhZ,P_SSY_KvarhJ,P_SSY_KvarhF,P_SSY_KvarhP,P_SSY_KvarhG, P_SSY_HKvarhZ,P_SSY_HKvarhJ,P_SSY_HKvarhF,P_SSY_HKvarhP,P_SSY_HKvarhG,P_CODE,P_TIME,P_ZXYGDN,P_FXYGDN,P_ZXWGDN,P_FXWGDN)values(234.868,234.612,234.109,406.512,405.906,406.079,0.63,0,0,60,0,0,120,0,0,0,0,150,60,0,120,0.498,0.614,0,0.978,50.01065,64.5,0,42.6,0,21.9,0,0,0,0,0,0,0,0,0,0,11.85,0,7.35,0,4.5,57.75,0,42,0,15.6,0,0,0,0,0,0,0,0,0,0,9.9,0,6.9,0,3,74.55,0,46.95,0,27.45,0,0,0,0,0,0,0,0,0,0,12.9,0,8.4,0,4.3652296,8,20171127140540,18.846,0,0,61.197)
写入成功读取完毕一个
write:09 03 07 CF 00 78 75 EB
F9 F1 ED
heart:F9 F1 ED FF C5 43 6B 39 58 43 6B 11 68 43 6A BA 1D 43 CB 9A 3D 43 CB 62 D1 43 CB 78 F6 00 00 00 00 00 00 00 00 3F 75 C2 8F 00 00 00 00 00 00 00 00 43 52 00 00 43 87 00 00 42 70 00 00 42 70 00 00 42 70 00 00 43 34 00 00 42 B4 00 00 42 70 00 00 43 52 00 00 43 A5 00 00 3E F6 45 A2 3E 2D 0E 56 3F 6D D2 F2 3F 50 E5 60 42 48 F9 C6
write:09 03 01 0F 00 08 74 BB
09 03 10
900 00 96 66 00 00 00 00 00 00 18 DA 00 00 0A 63
write:01 03 00 38 00 34 C5 D0
01 03 68
143 6A 64 9C 43 6A 43 12 43 69 D5 C3 43 CA DD B2 43 CA A6 46 43 CA B1 68 40 C0 00 00 40 C0 00 00 00 00 00 00 44 5C 00 00 44 96 00 00 00 00 00 00 45 02 00 00 43 A0 00 00 43 20 00 00 00 00 00 00 43 F0 00 00 44 B4 00 00 44 B4 00 00 00 00 00 00 45 07 00 00 3F 26 24 DD 3F 55 C2 8F 00 00 00 00 3F 79 99 9A 42 48 0F 3E
write:01 03 07 CF 00 78 74 A3
01 03 F0
1totalsize 240
44 04 B3 33 42 2E 66 66 43 A7 33 33 00 00 00 00 43 18 66 66 00 00 00 00 00 00 00 00 00 00 00 00 00 00 00 00 00 00 00 00 3F 4C CC CD 00 00 00 00 3F 4C CC CD 00 00 00 00 00 00 00 00 43 2A 00 00 41 B0 00 00 42 AC 00 00 00 00 00 00 42 76 66 66 44 0E 99 9A 42 56 66 66 43 B2 00 00 00 00 00 00 43 20 00 00 00 00 00 00 00 00 00 00 00 00 00 00 00 00 00 00 00 00 00 00 3F CC CC CD 00 00 00 00 3F CC CC CD 00 00 00 00 00 00 00 00 43 33 33 33 41 C0 00 00 42 B7 33 33 00 00 00 00 42 7C CC CD 44 42 66 66 42 AF 33 33 43 F7 66 66 00 00 00 00 43 42 CC CD 00 00 00 00 00 00 00 00 00 00 00 00 00 00 00 00 00 00 00 00 42 21 99 9A 3F CC CC CD 41 F3 33 33 00 00 00 00 41 00 00 00 43 36 CC CD 41 DC CC CD 42 BE 66 66 00 00 00 00 42 6E A2 ED
write:01 03 01 0F 00 08 75 F3
01 03 10
100 01 A0 6E 00 00 00 00 00 00 8A CF 00 00 B5 D7
43 6A 64 9C
234.393
43 6A 43 12
234.262
43 69 D5 C3
233.835
43 CA DD B2
405.732
43 CA A6 46
405.299
43 CA B1 68
405.386
40 C0 00 00
6
40 C0 00 00
6
00 00 00 00
0
44 5C 00 00
880
44 96 00 00
1200
00 00 00 00
0
45 02 00 00
2080
43 A0 00 00
320
43 20 00 00
160
00 00 00 00
0
43 F0 00 00
480
44 B4 00 00
1440
44 B4 00 00
1440
00 00 00 00
0
45 07 00 00
2160
3F 26 24 DD
0.649
3F 55 C2 8F
0.835
00 00 00 00
0
3F 79 99 9A
0.975
42 48 0F 3E
50.014885
44 04 B3 33
530.8
42 2E 66 66
43.6
43 A7 33 33
334.4
00 00 00 00
0
43 18 66 66
152.4
00 00 00 00
0
00 00 00 00
0
00 00 00 00
0
00 00 00 00
0
00 00 00 00
0
3F 4C CC CD
0.8
00 00 00 00
0
3F 4C CC CD
0.8
00 00 00 00
0
00 00 00 00
0
43 2A 00 00
170
41 B0 00 00
22
42 AC 00 00
86
00 00 00 00
0
42 76 66 66
61.6
44 0E 99 9A
570.4
42 56 66 66
53.6
43 B2 00 00
356
00 00 00 00
0
43 20 00 00
160
00 00 00 00
0
00 00 00 00
0
00 00 00 00
0
00 00 00 00
0
00 00 00 00
0
3F CC CC CD
1.6
00 00 00 00
0
3F CC CC CD
1.6
00 00 00 00
0
00 00 00 00
0
43 33 33 33
179.2
41 C0 00 00
24
42 B7 33 33
91.6
00 00 00 00
0
42 7C CC CD
63.2
44 42 66 66
777.6
42 AF 33 33
87.6
43 F7 66 66
494.8
00 00 00 00
0
43 42 CC CD
194.8
00 00 00 00
0
00 00 00 00
0
00 00 00 00
0
00 00 00 00
0
00 00 00 00
0
42 21 99 9A
40.4
3F CC CC CD
1.6
41 F3 33 33
30.4
00 00 00 00
0
41 00 00 00
8
43 36 CC CD
182.8
41 DC CC CD
27.6
42 BE 66 66
95.2
00 00 00 00
0
42 6E A2 ED
59.659107
00 01 A0 6E
106606
00 00 00 00
0
00 00 8A CF
35535
00 00 B5 D7
46551
234.393234.262233.835405.732405.299405.386660880120002080320160048014401440021600.6490.83500.97550.014885530.843.6334.40152.4000000.800.8001702286061.6570.453.63560160000001.601.600179.22491.6063.2777.687.6494.80194.80000040.41.630.408182.827.695.2059.659107120171127140723106.606035.53546.551insert into tbl_power_info_v2(P_A_DIANYA,P_B_DIANYA,P_C_DIANYA,P_UAB_XIANDIANYA,P_UBC_XIANDIANYA,P_UCA_XIANDIANYA,P_A_DIANLIU,P_B_DIANLIU,P_C_DIANLIU,P_A_YGGL,P_B_YGGL,P_C_YGGL,P_HXYGGL,P_A_WGGL,P_B_WGGL,P_C_WGGL,P_HXWGGL,P_A_SZGL,P_B_SZGL,P_C_SZGL,P_HXSZGL,P_A_GLYS,P_B_GLYS,P_C_GLYS,P_HXGLYS,P_DWPL,P_BY_KwhZ,P_BY_KwhJ,P_BY_KwhF,P_BY_KwhP,P_BY_KwhG,P_BY_HKwhZ,P_BY_HKwhJ,P_BY_HKwhF,P_BY_HKwhP,P_BY_HKwhG, P_BY_KvarhZ,P_BY_KvarhJ,P_BY_KvarhF,P_BY_KvarhP,P_BY_KvarhG, P_BY_HKvarhZ,P_BY_HKvarhJ,P_BY_HKvarhF,P_BY_HKvarhP,P_BY_HKvarhG, P_SY_KwhZ,P_SY_KwhJ,P_SY_KwhF,P_SY_KwhP,P_SY_KwhG, P_SY_HKwhZ,P_SY_HKwhJ,P_SY_HKwhF,P_SY_HKwhP,P_SY_HKwhG, P_SY_KvarhZ,P_SY_KvarhJ,P_SY_KvarhF,P_SY_KvarhP,P_SY_KvarhG, P_SY_HKvarhZ,P_SY_HKvarhJ,P_SY_HKvarhF,P_SY_HKvarhP,P_SY_HKvarhG, P_SSY_KwhZ,P_SSY_KwhJ,P_SSY_KwhF,P_SSY_KwhP,P_SSY_KwhG, P_SSY_HKwhZ,P_SSY_HKwhJ,P_SSY_HKwhF,P_SSY_HKwhP,P_SSY_HKwhG, P_SSY_KvarhZ,P_SSY_KvarhJ,P_SSY_KvarhF,P_SSY_KvarhP,P_SSY_KvarhG, P_SSY_HKvarhZ,P_SSY_HKvarhJ,P_SSY_HKvarhF,P_SSY_HKvarhP,P_SSY_HKvarhG,P_CODE,P_TIME,P_ZXYGDN,P_FXYGDN,P_ZXWGDN,P_FXWGDN)values(234.393,234.262,233.835,405.732,405.299,405.386,6,6,0,880,1200,0,2080,320,160,0,480,1440,1440,0,2160,0.649,0.835,0,0.975,50.014885,530.8,43.6,334.4,0,152.4,0,0,0,0,0,0.8,0,0.8,0,0,170,22,86,0,61.6,570.4,53.6,356,0,160,0,0,0,0,0,1.6,0,1.6,0,0,179.2,24,91.6,0,63.2,777.6,87.6,494.8,0,194.8,0,0,0,0,0,40.4,1.6,30.4,0,8,182.8,27.6,95.2,0,59.659107,1,20171127140723,106.606,0,35.535,46.551)
写入成功读取完毕一个
write:02 03 00 38 00 34 C5 E3
02 03 68
243 69 F6 46 43 6A 36 04 43 69 85 60 43 CA B1 68 43 CA 85 1F 43 CA 63 D7 40 94 7A E1 40 D9 99 9A 40 AE 14 7B 44 48 00 00 44 96 00 00 44 96 00 00 45 48 00 00 00 00 00 00 00 00 00 00 43 20 00 00 43 70 00 00 44 8C 00 00 44 C8 00 00 44 A0 00 00 45 48 00 00 3F 3C ED 91 3F 45 60 42 3F 6E 14 7B 3F 7F 3B 64 42 48 FB 28
write:02 03 07 CF 00 78 74 90
02 03 F0
2totalsize 240
44 AE CC CD 43 1D 99 9A 44 52 80 00 00 00 00 00 43 C7 33 33 00 00 00 00 00 00 00 00 00 00 00 00 00 00 00 00 00 00 00 00 42 F6 66 66 41 53 33 33 42 9C CC CD 00 00 00 00 41 F9 99 9A 42 38 00 00 40 33 33 33 42 04 CC CD 00 00 00 00 41 19 99 9A 44 8E D9 9A 43 18 CC CD 44 1F E6 66 00 00 00 00 43 AF 00 00 00 00 00 00 00 00 00 00 00 00 00 00 00 00 00 00 00 00 00 00 42 21 99 9A 41 20 00 00 41 A9 99 9A 00 00 00 00 41 0C CC CD 42 30 00 00 40 4C CC CD 41 F3 33 33 00 00 00 00 41 19 99 9A 45 2F 66 66 43 E3 99 9A 44 DC 33 33 00 00 00 00 44 13 4C CD 00 00 00 00 00 00 00 00 00 00 00 00 00 00 00 00 00 00 00 00 44 77 E6 66 43 2E CC CD 44 24 B3 33 00 00 00 00 43 1D 99 9A 42 13 33 33 40 00 00 00 41 D9 99 9A 00 00 00 00 40 E6 48 65
write:02 03 01 0F 00 08 75 C0
02 03 10
200 03 50 BD 00 00 00 05 00 01 34 84 00 00 2E A9
43 69 F6 46
233.962
43 6A 36 04
234.211
43 69 85 60
233.521
43 CA B1 68
405.386
43 CA 85 1F
405.04
43 CA 63 D7
404.78
40 94 7A E1
4.64
40 D9 99 9A
6.8
40 AE 14 7B
5.44
44 48 00 00
800
44 96 00 00
1200
44 96 00 00
1200
45 48 00 00
3200
00 00 00 00
0
00 00 00 00
0
43 20 00 00
160
43 70 00 00
240
44 8C 00 00
1120
44 C8 00 00
1600
44 A0 00 00
1280
45 48 00 00
3200
3F 3C ED 91
0.738
3F 45 60 42
0.771
3F 6E 14 7B
0.93
3F 7F 3B 64
0.997
42 48 FB 28
50.24527
44 AE CC CD
1398.4
43 1D 99 9A
157.6
44 52 80 00
842
00 00 00 00
0
43 C7 33 33
398.4
00 00 00 00
0
00 00 00 00
0
00 00 00 00
0
00 00 00 00
0
00 00 00 00
0
42 F6 66 66
123.2
41 53 33 33
13.2
42 9C CC CD
78.4
00 00 00 00
0
41 F9 99 9A
31.2
42 38 00 00
46
40 33 33 33
2.8
42 04 CC CD
33.2
00 00 00 00
0
41 19 99 9A
9.6
44 8E D9 9A
1142.8
43 18 CC CD
152.8
44 1F E6 66
639.6
00 00 00 00
0
43 AF 00 00
350
00 00 00 00
0
00 00 00 00
0
00 00 00 00
0
00 00 00 00
0
00 00 00 00
0
42 21 99 9A
40.4
41 20 00 00
10
41 A9 99 9A
21.2
00 00 00 00
0
41 0C CC CD
8.8
42 30 00 00
44
40 4C CC CD
3.2
41 F3 33 33
30.4
00 00 00 00
0
41 19 99 9A
9.6
45 2F 66 66
2806.4
43 E3 99 9A
455.2
44 DC 33 33
1761.6
00 00 00 00
0
44 13 4C CD
589.2
00 00 00 00
0
00 00 00 00
0
00 00 00 00
0
00 00 00 00
0
00 00 00 00
0
44 77 E6 66
991.6
43 2E CC CD
174.8
44 24 B3 33
658.8
00 00 00 00
0
43 1D 99 9A
157.6
42 13 33 33
36.8
40 00 00 00
2
41 D9 99 9A
27.2
00 00 00 00
0
40 E6 48 65
7.196337
00 03 50 BD
217277
00 00 00 05
5
00 01 34 84
78980
00 00 2E A9
11945
233.962234.211233.521405.386405.04404.784.646.85.448001200120032000016024011201600128032000.7380.7710.930.99750.245271398.4157.68420398.400000123.213.278.4031.2462.833.209.61142.8152.8639.603500000040.41021.208.8443.230.409.62806.4455.21761.60589.200000991.6174.8658.80157.636.8227.207.196337220171127140824217.2770.00578.9811.945insert into tbl_power_info_v2(P_A_DIANYA,P_B_DIANYA,P_C_DIANYA,P_UAB_XIANDIANYA,P_UBC_XIANDIANYA,P_UCA_XIANDIANYA,P_A_DIANLIU,P_B_DIANLIU,P_C_DIANLIU,P_A_YGGL,P_B_YGGL,P_C_YGGL,P_HXYGGL,P_A_WGGL,P_B_WGGL,P_C_WGGL,P_HXWGGL,P_A_SZGL,P_B_SZGL,P_C_SZGL,P_HXSZGL,P_A_GLYS,P_B_GLYS,P_C_GLYS,P_HXGLYS,P_DWPL,P_BY_KwhZ,P_BY_KwhJ,P_BY_KwhF,P_BY_KwhP,P_BY_KwhG,P_BY_HKwhZ,P_BY_HKwhJ,P_BY_HKwhF,P_BY_HKwhP,P_BY_HKwhG, P_BY_KvarhZ,P_BY_KvarhJ,P_BY_KvarhF,P_BY_KvarhP,P_BY_KvarhG, P_BY_HKvarhZ,P_BY_HKvarhJ,P_BY_HKvarhF,P_BY_HKvarhP,P_BY_HKvarhG, P_SY_KwhZ,P_SY_KwhJ,P_SY_KwhF,P_SY_KwhP,P_SY_KwhG, P_SY_HKwhZ,P_SY_HKwhJ,P_SY_HKwhF,P_SY_HKwhP,P_SY_HKwhG, P_SY_KvarhZ,P_SY_KvarhJ,P_SY_KvarhF,P_SY_KvarhP,P_SY_KvarhG, P_SY_HKvarhZ,P_SY_HKvarhJ,P_SY_HKvarhF,P_SY_HKvarhP,P_SY_HKvarhG, P_SSY_KwhZ,P_SSY_KwhJ,P_SSY_KwhF,P_SSY_KwhP,P_SSY_KwhG, P_SSY_HKwhZ,P_SSY_HKwhJ,P_SSY_HKwhF,P_SSY_HKwhP,P_SSY_HKwhG, P_SSY_KvarhZ,P_SSY_KvarhJ,P_SSY_KvarhF,P_SSY_KvarhP,P_SSY_KvarhG, P_SSY_HKvarhZ,P_SSY_HKvarhJ,P_SSY_HKvarhF,P_SSY_HKvarhP,P_SSY_HKvarhG,P_CODE,P_TIME,P_ZXYGDN,P_FXYGDN,P_ZXWGDN,P_FXWGDN)values(233.962,234.211,233.521,405.386,405.04,404.78,4.64,6.8,5.44,800,1200,1200,3200,0,0,160,240,1120,1600,1280,3200,0.738,0.771,0.93,0.997,50.24527,1398.4,157.6,842,0,398.4,0,0,0,0,0,123.2,13.2,78.4,0,31.2,46,2.8,33.2,0,9.6,1142.8,152.8,639.6,0,350,0,0,0,0,0,40.4,10,21.2,0,8.8,44,3.2,30.4,0,9.6,2806.4,455.2,1761.6,0,589.2,0,0,0,0,0,991.6,174.8,658.8,0,157.6,36.8,2,27.2,0,7.196337,2,20171127140824,217.277,0.005,78.98,11.945)
写入成功读取完毕一个
write:03 03 00 38 00 34 C4 32
03 03 68
343 69 E6 25 43 6A 0D 91 43 69 88 73 43 CA 90 21 43 CA 6E D9 43 CA 58 B4 40 38 51 EC 40 6A 3D 71 40 62 8F 5C 43 F0 00 00 44 34 00 00 44 16 00 00 44 E1 00 00 43 D2 00 00 43 E1 00 00 44 0E 80 00 44 B0 40 00 44 25 00 00 44 59 80 00 44 52 00 00 45 10 60 00 3F 37 4B C7 3F 56 87 2B 3F 3C 6A 7F 3F 49 37 4C 42 48 5C DD
write:03 03 07 CF 00 78 75 41
03 03 F0
3totalsize 240
43 C8 79 9A 42 9E 19 9A 43 5C A6 66 00 00 00 00 42 CA 33 33 00 00 00 00 00 00 00 00 00 00 00 00 00 00 00 00 00 00 00 00 42 AF 80 00 41 80 66 66 42 65 CC CD 00 00 00 00 41 61 99 9A 40 9E 66 66 3F 66 66 66 40 53 33 33 00 00 00 00 3F 19 99 9A 43 EF 2C CD 42 F0 00 00 43 7D 33 33 00 00 00 00 42 D1 B3 33 00 00 00 00 00 00 00 00 00 00 00 00 00 00 00 00 00 00 00 00 42 9C E6 66 40 E6 66 66 42 5B 99 9A 00 00 00 00 41 80 66 66 41 68 CC CD 40 A8 00 00 40 F9 99 9A 00 00 00 00 3F AC CC CD 43 D8 60 00 42 B5 80 00 43 81 86 66 00 00 00 00 42 A5 99 9A 00 00 00 00 00 00 00 00 00 00 00 00 00 00 00 00 00 00 00 00 42 F7 CC CD 41 90 00 00 42 A5 99 9A 00 00 00 00 41 B8 CC CD 40 EB 33 33 40 06 66 66 40 53 33 33 00 00 00 00 3F E6 DE EA
write:03 03 01 0F 00 08 74 11
03 03 10
300 00 C6 20 00 00 00 00 00 00 27 D1 00 00 67 E5
43 69 E6 25
233.899
43 6A 0D 91
234.053
43 69 88 73
233.533
43 CA 90 21
405.126
43 CA 6E D9
404.866
43 CA 58 B4
404.693
40 38 51 EC
2.88
40 6A 3D 71
3.66
40 62 8F 5C
3.54
43 F0 00 00
480
44 34 00 00
720
44 16 00 00
600
44 E1 00 00
1800
43 D2 00 00
420
43 E1 00 00
450
44 0E 80 00
570
44 B0 40 00
1410
44 25 00 00
660
44 59 80 00
870
44 52 00 00
840
45 10 60 00
2310
3F 37 4B C7
0.716
3F 56 87 2B
0.838
3F 3C 6A 7F
0.736
3F 49 37 4C
0.786
42 48 5C DD
50.090687
43 C8 79 9A
400.95
42 9E 19 9A
79.05
43 5C A6 66
220.65
00 00 00 00
0
42 CA 33 33
101.1
00 00 00 00
0
00 00 00 00
0
00 00 00 00
0
00 00 00 00
0
00 00 00 00
0
42 AF 80 00
87.75
41 80 66 66
16.05
42 65 CC CD
57.45
00 00 00 00
0
41 61 99 9A
14.1
40 9E 66 66
4.95
3F 66 66 66
0.9
40 53 33 33
3.3
00 00 00 00
0
3F 19 99 9A
0.6
43 EF 2C CD
478.35
42 F0 00 00
120
43 7D 33 33
253.2
00 00 00 00
0
42 D1 B3 33
104.85
00 00 00 00
0
00 00 00 00
0
00 00 00 00
0
00 00 00 00
0
00 00 00 00
0
42 9C E6 66
78.45
40 E6 66 66
7.2
42 5B 99 9A
54.9
00 00 00 00
0
41 80 66 66
16.05
41 68 CC CD
14.55
40 A8 00 00
5.25
40 F9 99 9A
7.8
00 00 00 00
0
3F AC CC CD
1.35
43 D8 60 00
432.75
42 B5 80 00
90.75
43 81 86 66
259.05
00 00 00 00
0
42 A5 99 9A
82.8
00 00 00 00
0
00 00 00 00
0
00 00 00 00
0
00 00 00 00
0
00 00 00 00
0
42 F7 CC CD
123.9
41 90 00 00
18
42 A5 99 9A
82.8
00 00 00 00
0
41 B8 CC CD
23.1
40 EB 33 33
7.35
40 06 66 66
2.1
40 53 33 33
3.3
00 00 00 00
0
3F E6 DE EA
1.8036778
00 00 C6 20
50720
00 00 00 00
0
00 00 27 D1
10193
00 00 67 E5
26597
233.899234.053233.533405.126404.866404.6932.883.663.544807206001800420450570141066087084023100.7160.8380.7360.78650.090687400.9579.05220.650101.10000087.7516.0557.45014.14.950.93.300.6478.35120253.20104.850000078.457.254.9016.0514.555.257.801.35432.7590.75259.05082.800000123.91882.8023.17.352.13.301.803677832017112714092250.72010.19326.597insert into tbl_power_info_v2(P_A_DIANYA,P_B_DIANYA,P_C_DIANYA,P_UAB_XIANDIANYA,P_UBC_XIANDIANYA,P_UCA_XIANDIANYA,P_A_DIANLIU,P_B_DIANLIU,P_C_DIANLIU,P_A_YGGL,P_B_YGGL,P_C_YGGL,P_HXYGGL,P_A_WGGL,P_B_WGGL,P_C_WGGL,P_HXWGGL,P_A_SZGL,P_B_SZGL,P_C_SZGL,P_HXSZGL,P_A_GLYS,P_B_GLYS,P_C_GLYS,P_HXGLYS,P_DWPL,P_BY_KwhZ,P_BY_KwhJ,P_BY_KwhF,P_BY_KwhP,P_BY_KwhG,P_BY_HKwhZ,P_BY_HKwhJ,P_BY_HKwhF,P_BY_HKwhP,P_BY_HKwhG, P_BY_KvarhZ,P_BY_KvarhJ,P_BY_KvarhF,P_BY_KvarhP,P_BY_KvarhG, P_BY_HKvarhZ,P_BY_HKvarhJ,P_BY_HKvarhF,P_BY_HKvarhP,P_BY_HKvarhG, P_SY_KwhZ,P_SY_KwhJ,P_SY_KwhF,P_SY_KwhP,P_SY_KwhG, P_SY_HKwhZ,P_SY_HKwhJ,P_SY_HKwhF,P_SY_HKwhP,P_SY_HKwhG, P_SY_KvarhZ,P_SY_KvarhJ,P_SY_KvarhF,P_SY_KvarhP,P_SY_KvarhG, P_SY_HKvarhZ,P_SY_HKvarhJ,P_SY_HKvarhF,P_SY_HKvarhP,P_SY_HKvarhG, P_SSY_KwhZ,P_SSY_KwhJ,P_SSY_KwhF,P_SSY_KwhP,P_SSY_KwhG, P_SSY_HKwhZ,P_SSY_HKwhJ,P_SSY_HKwhF,P_SSY_HKwhP,P_SSY_HKwhG, P_SSY_KvarhZ,P_SSY_KvarhJ,P_SSY_KvarhF,P_SSY_KvarhP,P_SSY_KvarhG, P_SSY_HKvarhZ,P_SSY_HKvarhJ,P_SSY_HKvarhF,P_SSY_HKvarhP,P_SSY_HKvarhG,P_CODE,P_TIME,P_ZXYGDN,P_FXYGDN,P_ZXWGDN,P_FXWGDN)values(233.899,234.053,233.533,405.126,404.866,404.693,2.88,3.66,3.54,480,720,600,1800,420,450,570,1410,660,870,840,2310,0.716,0.838,0.736,0.786,50.090687,400.95,79.05,220.65,0,101.1,0,0,0,0,0,87.75,16.05,57.45,0,14.1,4.95,0.9,3.3,0,0.6,478.35,120,253.2,0,104.85,0,0,0,0,0,78.45,7.2,54.9,0,16.05,14.55,5.25,7.8,0,1.35,432.75,90.75,259.05,0,82.8,0,0,0,0,0,123.9,18,82.8,0,23.1,7.35,2.1,3.3,0,1.8036778,3,20171127140922,50.72,0,10.193,26.597)
写入成功读取完毕一个
write:04 03 00 38 00 34 C5 85
04 03 68
443 6A D6 C9 43 6A D2 6F 43 6A 2D 50 43 CB 57 AE 43 CB 0A 1D 43 CB 0A 1D 40 02 8F 5C 3F FA E1 48 40 D0 A3 D7 43 B4 00 00 43 DC 00 00 44 B4 00 00 45 09 80 00 42 A0 00 00 00 00 00 00 43 48 00 00 43 A0 00 00 43 F0 00 00 43 DC 00 00 44 BE 00 00 45 0C 00 00 3F 40 41 89 3F 71 26 E9 3F 6F 5C 29 3F 7D 2F 1B 42 48 32 F1
write:04 03 07 CF 00 78 74 F6
04 03 F0
4totalsize 240
44 2A 33 33 43 0D 99 9A 43 C1 00 00 00 00 00 00 43 18 CC CD 00 00 00 00 00 00 00 00 00 00 00 00 00 00 00 00 00 00 00 00 40 C0 00 00 3E 4C CC CD 3F CC CC CD 00 00 00 00 40 86 66 66 42 8A 66 66 41 66 66 66 42 07 33 33 00 00 00 00 41 A6 66 66 44 1B 00 00 42 CE CC CD 43 AE 00 00 00 00 00 00 43 28 66 66 00 00 00 00 00 00 00 00 00 00 00 00 00 00 00 00 00 00 00 00 41 B0 00 00 40 26 66 66 40 C0 00 00 00 00 00 00 41 53 33 33 42 48 CC CD 41 06 66 66 41 D0 00 00 00 00 00 00 41 76 66 66 44 21 8C CD 42 DE CC CD 43 B0 99 9A 00 00 00 00 43 35 33 33 00 00 00 00 00 00 00 00 00 00 00 00 00 00 00 00 00 00 00 00 41 E8 00 00 40 B9 99 9A 40 E0 00 00 00 00 00 00 41 81 99 9A 42 14 CC CD 40 8C CC CD 41 9B 33 33 00 00 00 00 41 50 71 FA
write:04 03 01 0F 00 08 75 A6
04 03 10
400 02 94 11 00 00 00 00 00 00 42 3E 00 00 38 11
43 6A D6 C9
234.839
43 6A D2 6F
234.822
43 6A 2D 50
234.177
43 CB 57 AE
406.685
43 CB 0A 1D
406.079
43 CB 0A 1D
406.079
40 02 8F 5C
2.04
3F FA E1 48
1.96
40 D0 A3 D7
6.52
43 B4 00 00
360
43 DC 00 00
440
44 B4 00 00
1440
45 09 80 00
2200
42 A0 00 00
80
00 00 00 00
0
43 48 00 00
200
43 A0 00 00
320
43 F0 00 00
480
43 DC 00 00
440
44 BE 00 00
1520
45 0C 00 00
2240
3F 40 41 89
0.751
3F 71 26 E9
0.942
3F 6F 5C 29
0.935
3F 7D 2F 1B
0.989
42 48 32 F1
50.049747
44 2A 33 33
680.8
43 0D 99 9A
141.6
43 C1 00 00
386
00 00 00 00
0
43 18 CC CD
152.8
00 00 00 00
0
00 00 00 00
0
00 00 00 00
0
00 00 00 00
0
00 00 00 00
0
40 C0 00 00
6
3E 4C CC CD
0.2
3F CC CC CD
1.6
00 00 00 00
0
40 86 66 66
4.2
42 8A 66 66
69.2
41 66 66 66
14.4
42 07 33 33
33.8
00 00 00 00
0
41 A6 66 66
20.8
44 1B 00 00
620
42 CE CC CD
103.4
43 AE 00 00
348
00 00 00 00
0
43 28 66 66
168.4
00 00 00 00
0
00 00 00 00
0
00 00 00 00
0
00 00 00 00
0
00 00 00 00
0
41 B0 00 00
22
40 26 66 66
2.6
40 C0 00 00
6
00 00 00 00
0
41 53 33 33
13.2
42 48 CC CD
50.2
41 06 66 66
8.4
41 D0 00 00
26
00 00 00 00
0
41 76 66 66
15.4
44 21 8C CD
646.2
42 DE CC CD
111.4
43 B0 99 9A
353.2
00 00 00 00
0
43 35 33 33
181.2
00 00 00 00
0
00 00 00 00
0
00 00 00 00
0
00 00 00 00
0
00 00 00 00
0
41 E8 00 00
29
40 B9 99 9A
5.8
40 E0 00 00
7
00 00 00 00
0
41 81 99 9A
16.2
42 14 CC CD
37.2
40 8C CC CD
4.4
41 9B 33 33
19.4
00 00 00 00
0
41 50 71 FA
13.027826
00 02 94 11
168977
00 00 00 00
0
00 00 42 3E
16958
00 00 38 11
14353
234.839234.822234.177406.685406.079406.0792.041.966.5236044014402200800200320480440152022400.7510.9420.9350.98950.049747680.8141.63860152.80000060.21.604.269.214.433.8020.8620103.43480168.400000222.66013.250.28.426015.4646.2111.4353.20181.200000295.87016.237.24.419.4013.027826420171127141025168.977016.95814.353insert into tbl_power_info_v2(P_A_DIANYA,P_B_DIANYA,P_C_DIANYA,P_UAB_XIANDIANYA,P_UBC_XIANDIANYA,P_UCA_XIANDIANYA,P_A_DIANLIU,P_B_DIANLIU,P_C_DIANLIU,P_A_YGGL,P_B_YGGL,P_C_YGGL,P_HXYGGL,P_A_WGGL,P_B_WGGL,P_C_WGGL,P_HXWGGL,P_A_SZGL,P_B_SZGL,P_C_SZGL,P_HXSZGL,P_A_GLYS,P_B_GLYS,P_C_GLYS,P_HXGLYS,P_DWPL,P_BY_KwhZ,P_BY_KwhJ,P_BY_KwhF,P_BY_KwhP,P_BY_KwhG,P_BY_HKwhZ,P_BY_HKwhJ,P_BY_HKwhF,P_BY_HKwhP,P_BY_HKwhG, P_BY_KvarhZ,P_BY_KvarhJ,P_BY_KvarhF,P_BY_KvarhP,P_BY_KvarhG, P_BY_HKvarhZ,P_BY_HKvarhJ,P_BY_HKvarhF,P_BY_HKvarhP,P_BY_HKvarhG, P_SY_KwhZ,P_SY_KwhJ,P_SY_KwhF,P_SY_KwhP,P_SY_KwhG, P_SY_HKwhZ,P_SY_HKwhJ,P_SY_HKwhF,P_SY_HKwhP,P_SY_HKwhG, P_SY_KvarhZ,P_SY_KvarhJ,P_SY_KvarhF,P_SY_KvarhP,P_SY_KvarhG, P_SY_HKvarhZ,P_SY_HKvarhJ,P_SY_HKvarhF,P_SY_HKvarhP,P_SY_HKvarhG, P_SSY_KwhZ,P_SSY_KwhJ,P_SSY_KwhF,P_SSY_KwhP,P_SSY_KwhG, P_SSY_HKwhZ,P_SSY_HKwhJ,P_SSY_HKwhF,P_SSY_HKwhP,P_SSY_HKwhG, P_SSY_KvarhZ,P_SSY_KvarhJ,P_SSY_KvarhF,P_SSY_KvarhP,P_SSY_KvarhG, P_SSY_HKvarhZ,P_SSY_HKvarhJ,P_SSY_HKvarhF,P_SSY_HKvarhP,P_SSY_HKvarhG,P_CODE,P_TIME,P_ZXYGDN,P_FXYGDN,P_ZXWGDN,P_FXWGDN)values(234.839,234.822,234.177,406.685,406.079,406.079,2.04,1.96,6.52,360,440,1440,2200,80,0,200,320,480,440,1520,2240,0.751,0.942,0.935,0.989,50.049747,680.8,141.6,386,0,152.8,0,0,0,0,0,6,0.2,1.6,0,4.2,69.2,14.4,33.8,0,20.8,620,103.4,348,0,168.4,0,0,0,0,0,22,2.6,6,0,13.2,50.2,8.4,26,0,15.4,646.2,111.4,353.2,0,181.2,0,0,0,0,0,29,5.8,7,0,16.2,37.2,4.4,19.4,0,13.027826,4,20171127141025,168.977,0,16.958,14.353)
写入成功读取完毕一个
write:05 03 00 38 00 34 C4 54
05 03 68
543 6A 87 6D 43 6A 90 E5 43 6A 05 60 43 CB 15 1F 43 CA DD B2 43 CA DD B2 40 8A 3D 71 40 90 A3 D7 40 FD 70 A4 44 20 00 00 44 70 00 00 44 C8 00 00 45 4A 80 00 43 20 00 00 42 F0 00 00 43 48 00 00 44 02 00 00 44 7A 00 00 44 82 00 00 44 E6 00 00 45 4D 00 00 3F 22 D0 E5 3F 6C 08 31 3F 5C ED 91 3F 7C ED 91 42 48 AF 93
write:05 03 07 CF 00 78 75 27
05 03 F0
5totalsize 240
44 B6 19 9A 43 AF 66 66 44 49 D9 9A 00 00 00 00 43 95 4C CD 00 00 00 00 00 00 00 00 00 00 00 00 00 00 00 00 00 00 00 00 00 00 00 00 00 00 00 00 00 00 00 00 00 00 00 00 00 00 00 00 43 65 00 00 42 48 00 00 42 DD 33 33 00 00 00 00 42 88 66 66 44 C1 06 66 43 AF 99 9A 44 5A 00 00 00 00 00 00 43 A0 66 66 00 00 00 00 00 00 00 00 00 00 00 00 00 00 00 00 00 00 00 00 3F CC CC CD 3F 19 99 9A 3F 4C CC CD 00 00 00 00 00 00 00 00 43 6F 99 9A 42 50 00 00 42 E7 33 33 00 00 00 00 42 8F 99 9A 44 D5 93 33 43 A4 B3 33 44 7E 19 9A 00 00 00 00 43 B5 33 33 00 00 00 00 00 00 00 00 00 00 00 00 00 00 00 00 00 00 00 00 42 A8 66 66 41 9B 33 33 42 69 99 9A 00 00 00 00 40 CC CC CD 43 26 33 33 41 FE 66 66 42 9E CC CD 00 00 00 00 42 5B F0 E9
write:05 03 01 0F 00 08 74 77
05 03 10
500 08 87 A9 00 00 00 00 00 00 D9 A8 00 00 6B B6
43 6A 87 6D
234.529
43 6A 90 E5
234.566
43 6A 05 60
234.021
43 CB 15 1F
406.165
43 CA DD B2
405.732
43 CA DD B2
405.732
40 8A 3D 71
4.32
40 90 A3 D7
4.52
40 FD 70 A4
7.92
44 20 00 00
640
44 70 00 00
960
44 C8 00 00
1600
45 4A 80 00
3240
43 20 00 00
160
42 F0 00 00
120
43 48 00 00
200
44 02 00 00
520
44 7A 00 00
1000
44 82 00 00
1040
44 E6 00 00
1840
45 4D 00 00
3280
3F 22 D0 E5
0.636
3F 6C 08 31
0.922
3F 5C ED 91
0.863
3F 7C ED 91
0.988
42 48 AF 93
50.17146
44 B6 19 9A
1456.8
43 AF 66 66
350.8
44 49 D9 9A
807.4
00 00 00 00
0
43 95 4C CD
298.6
00 00 00 00
0
00 00 00 00
0
00 00 00 00
0
00 00 00 00
0
00 00 00 00
0
00 00 00 00
0
00 00 00 00
0
00 00 00 00
0
00 00 00 00
0
00 00 00 00
0
43 65 00 00
229
42 48 00 00
50
42 DD 33 33
110.6
00 00 00 00
0
42 88 66 66
68.2
44 C1 06 66
1544.2
43 AF 99 9A
351.2
44 5A 00 00
872
00 00 00 00
0
43 A0 66 66
320.8
00 00 00 00
0
00 00 00 00
0
00 00 00 00
0
00 00 00 00
0
00 00 00 00
0
3F CC CC CD
1.6
3F 19 99 9A
0.6
3F 4C CC CD
0.8
00 00 00 00
0
00 00 00 00
0
43 6F 99 9A
239.6
42 50 00 00
52
42 E7 33 33
115.6
00 00 00 00
0
42 8F 99 9A
71.8
44 D5 93 33
1708.6
43 A4 B3 33
329.4
44 7E 19 9A
1016.4
00 00 00 00
0
43 B5 33 33
362.4
00 00 00 00
0
00 00 00 00
0
00 00 00 00
0
00 00 00 00
0
00 00 00 00
0
42 A8 66 66
84.2
41 9B 33 33
19.4
42 69 99 9A
58.4
00 00 00 00
0
40 CC CC CD
6.4
43 26 33 33
166.2
41 FE 66 66
31.8
42 9E CC CD
79.4
00 00 00 00
0
42 5B F0 E9
54.985264
00 08 87 A9
559017
00 00 00 00
0
00 00 D9 A8
55720
00 00 6B B6
27574
234.529234.566234.021406.165405.732405.7324.324.527.926409601600324016012020052010001040184032800.6360.9220.8630.98850.171461456.8350.8807.40298.6000000000022950110.6068.21544.2351.28720320.8000001.60.60.800239.652115.6071.81708.6329.41016.40362.40000084.219.458.406.4166.231.879.4054.985264520171127141135559.017055.7227.574insert into tbl_power_info_v2(P_A_DIANYA,P_B_DIANYA,P_C_DIANYA,P_UAB_XIANDIANYA,P_UBC_XIANDIANYA,P_UCA_XIANDIANYA,P_A_DIANLIU,P_B_DIANLIU,P_C_DIANLIU,P_A_YGGL,P_B_YGGL,P_C_YGGL,P_HXYGGL,P_A_WGGL,P_B_WGGL,P_C_WGGL,P_HXWGGL,P_A_SZGL,P_B_SZGL,P_C_SZGL,P_HXSZGL,P_A_GLYS,P_B_GLYS,P_C_GLYS,P_HXGLYS,P_DWPL,P_BY_KwhZ,P_BY_KwhJ,P_BY_KwhF,P_BY_KwhP,P_BY_KwhG,P_BY_HKwhZ,P_BY_HKwhJ,P_BY_HKwhF,P_BY_HKwhP,P_BY_HKwhG, P_BY_KvarhZ,P_BY_KvarhJ,P_BY_KvarhF,P_BY_KvarhP,P_BY_KvarhG, P_BY_HKvarhZ,P_BY_HKvarhJ,P_BY_HKvarhF,P_BY_HKvarhP,P_BY_HKvarhG, P_SY_KwhZ,P_SY_KwhJ,P_SY_KwhF,P_SY_KwhP,P_SY_KwhG, P_SY_HKwhZ,P_SY_HKwhJ,P_SY_HKwhF,P_SY_HKwhP,P_SY_HKwhG, P_SY_KvarhZ,P_SY_KvarhJ,P_SY_KvarhF,P_SY_KvarhP,P_SY_KvarhG, P_SY_HKvarhZ,P_SY_HKvarhJ,P_SY_HKvarhF,P_SY_HKvarhP,P_SY_HKvarhG, P_SSY_KwhZ,P_SSY_KwhJ,P_SSY_KwhF,P_SSY_KwhP,P_SSY_KwhG, P_SSY_HKwhZ,P_SSY_HKwhJ,P_SSY_HKwhF,P_SSY_HKwhP,P_SSY_HKwhG, P_SSY_KvarhZ,P_SSY_KvarhJ,P_SSY_KvarhF,P_SSY_KvarhP,P_SSY_KvarhG, P_SSY_HKvarhZ,P_SSY_HKvarhJ,P_SSY_HKvarhF,P_SSY_HKvarhP,P_SSY_HKvarhG,P_CODE,P_TIME,P_ZXYGDN,P_FXYGDN,P_ZXWGDN,P_FXWGDN)values(234.529,234.566,234.021,406.165,405.732,405.732,4.32,4.52,7.92,640,960,1600,3240,160,120,200,520,1000,1040,1840,3280,0.636,0.922,0.863,0.988,50.17146,1456.8,350.8,807.4,0,298.6,0,0,0,0,0,0,0,0,0,0,229,50,110.6,0,68.2,1544.2,351.2,872,0,320.8,0,0,0,0,0,1.6,0.6,0.8,0,0,239.6,52,115.6,0,71.8,1708.6,329.4,1016.4,0,362.4,0,0,0,0,0,84.2,19.4,58.4,0,6.4,166.2,31.8,79.4,0,54.985264,5,20171127141135,559.017,0,55.72,27.574)
写入成功读取完毕一个
write:06 03 00 38 00 34 C4 67
06 03 68
643 6A 73 75 43 6A 81 CB 43 69 F5 C3 43 CB 0A 1D 43 CA D2 B0 43 CA C7 8D 41 8D C2 8F 41 81 EB 85 41 A4 7A E1 45 80 C0 00 45 6B 00 00 45 93 80 00 46 44 E0 00 43 20 00 00 00 00 00 00 42 F0 00 00 00 00 00 00 45 82 00 00 45 6D 80 00 45 96 00 00 46 44 E0 00 3F 7C ED 91 3F 7D 70 A4 3F 7B 64 5A 3F 80 00 00 42 48 2A C5
write:06 03 07 CF 00 78 75 14
06 03 F0
6totalsize 240
44 DD C0 00 43 A8 33 33 44 84 B9 9A 00 00 00 00 43 BB E6 66 00 00 00 00 00 00 00 00 00 00 00 00 00 00 00 00 00 00 00 00 40 00 00 00 3E 4C CC CD 3F B3 33 33 00 00 00 00 3E 4C CC CD 43 20 CC CD 41 F8 00 00 42 94 66 66 00 00 00 00 42 5D 99 9A 44 F8 A6 66 43 BF 33 33 44 93 80 00 00 00 00 00 43 D5 4C CD 00 00 00 00 00 00 00 00 00 00 00 00 00 00 00 00 00 00 00 00 40 C6 66 66 3E CC CC CD 40 A0 00 00 00 00 00 00 3F 19 99 9A 43 47 99 9A 42 16 66 66 42 BB 99 9A 00 00 00 00 42 88 00 00 45 15 00 00 43 EA 66 66 44 AC 53 33 00 00 00 00 44 06 0C CD 00 00 00 00 00 00 00 00 00 00 00 00 00 00 00 00 00 00 00 00 41 53 33 33 40 66 66 66 40 CC CC CD 00 00 00 00 40 40 00 00 43 38 33 33 42 10 00 00 42 A8 CC CD 00 00 00 00 42 7D 55 F2
write:06 03 01 0F 00 08 74 44
write:07 03 00 38 00 34 C5 B6
write:07 03 07 CF 00 78 74 C5
06 03 10
600 0B 39 11 00 00 00 00 00 00 17 9C 00 00 82 5C
43 6A 73 75
234.451
43 6A 81 CB
234.507
43 69 F5 C3
233.96
43 CB 0A 1D
406.079
43 CA D2 B0
405.646
43 CA C7 8D
405.559
41 8D C2 8F
17.72
41 81 EB 85
16.24
41 A4 7A E1
20.56
45 80 C0 00
4120
45 6B 00 00
3760
45 93 80 00
4720
46 44 E0 00
12600
43 20 00 00
160
00 00 00 00
0
42 F0 00 00
120
00 00 00 00
0
45 82 00 00
4160
45 6D 80 00
3800
45 96 00 00
4800
46 44 E0 00
12600
3F 7C ED 91
0.988
3F 7D 70 A4
0.99
3F 7B 64 5A
0.982
3F 80 00 00
1
42 48 2A C5
50.041767
44 DD C0 00
1774
43 A8 33 33
336.4
44 84 B9 9A
1061.8
00 00 00 00
0
43 BB E6 66
375.8
00 00 00 00
0
00 00 00 00
0
00 00 00 00
0
00 00 00 00
0
00 00 00 00
0
40 00 00 00
2
3E 4C CC CD
0.2
3F B3 33 33
1.4
00 00 00 00
0
3E 4C CC CD
0.2
43 20 CC CD
160.8
41 F8 00 00
31
42 94 66 66
74.2
00 00 00 00
0
42 5D 99 9A
55.4
44 F8 A6 66
1989.2
43 BF 33 33
382.4
44 93 80 00
1180
00 00 00 00
0
43 D5 4C CD
426.6
00 00 00 00
0
00 00 00 00
0
00 00 00 00
0
00 00 00 00
0
00 00 00 00
0
40 C6 66 66
6.2
3E CC CC CD
0.4
40 A0 00 00
5
00 00 00 00
0
3F 19 99 9A
0.6
43 47 99 9A
199.6
42 16 66 66
37.6
42 BB 99 9A
93.8
00 00 00 00
0
42 88 00 00
68
45 15 00 00
2384
43 EA 66 66
468.8
44 AC 53 33
1378.6
00 00 00 00
0
44 06 0C CD
536.2
00 00 00 00
0
00 00 00 00
0
00 00 00 00
0
00 00 00 00
0
00 00 00 00
0
41 53 33 33
13.2
40 66 66 66
3.6
40 CC CC CD
6.4
00 00 00 00
0
40 40 00 00
3
43 38 33 33
184.2
42 10 00 00
36
42 A8 CC CD
84.4
00 00 00 00
0
42 7D 55 F2
63.33393
00 0B 39 11
735505
00 00 00 00
0
00 00 17 9C
6044
00 00 82 5C
33372
234.451234.507233.96406.079405.646405.55917.7216.2420.564120376047201260016001200416038004800126000.9880.990.982150.0417671774336.41061.80375.80000020.21.400.2160.83174.2055.41989.2382.411800426.6000006.20.4500.6199.637.693.80682384468.81378.60536.20000013.23.66.403184.23684.4063.33393620171127141306735.50506.04433.372insert into tbl_power_info_v2(P_A_DIANYA,P_B_DIANYA,P_C_DIANYA,P_UAB_XIANDIANYA,P_UBC_XIANDIANYA,P_UCA_XIANDIANYA,P_A_DIANLIU,P_B_DIANLIU,P_C_DIANLIU,P_A_YGGL,P_B_YGGL,P_C_YGGL,P_HXYGGL,P_A_WGGL,P_B_WGGL,P_C_WGGL,P_HXWGGL,P_A_SZGL,P_B_SZGL,P_C_SZGL,P_HXSZGL,P_A_GLYS,P_B_GLYS,P_C_GLYS,P_HXGLYS,P_DWPL,P_BY_KwhZ,P_BY_KwhJ,P_BY_KwhF,P_BY_KwhP,P_BY_KwhG,P_BY_HKwhZ,P_BY_HKwhJ,P_BY_HKwhF,P_BY_HKwhP,P_BY_HKwhG, P_BY_KvarhZ,P_BY_KvarhJ,P_BY_KvarhF,P_BY_KvarhP,P_BY_KvarhG, P_BY_HKvarhZ,P_BY_HKvarhJ,P_BY_HKvarhF,P_BY_HKvarhP,P_BY_HKvarhG, P_SY_KwhZ,P_SY_KwhJ,P_SY_KwhF,P_SY_KwhP,P_SY_KwhG, P_SY_HKwhZ,P_SY_HKwhJ,P_SY_HKwhF,P_SY_HKwhP,P_SY_HKwhG, P_SY_KvarhZ,P_SY_KvarhJ,P_SY_KvarhF,P_SY_KvarhP,P_SY_KvarhG, P_SY_HKvarhZ,P_SY_HKvarhJ,P_SY_HKvarhF,P_SY_HKvarhP,P_SY_HKvarhG, P_SSY_KwhZ,P_SSY_KwhJ,P_SSY_KwhF,P_SSY_KwhP,P_SSY_KwhG, P_SSY_HKwhZ,P_SSY_HKwhJ,P_SSY_HKwhF,P_SSY_HKwhP,P_SSY_HKwhG, P_SSY_KvarhZ,P_SSY_KvarhJ,P_SSY_KvarhF,P_SSY_KvarhP,P_SSY_KvarhG, P_SSY_HKvarhZ,P_SSY_HKvarhJ,P_SSY_HKvarhF,P_SSY_HKvarhP,P_SSY_HKvarhG,P_CODE,P_TIME,P_ZXYGDN,P_FXYGDN,P_ZXWGDN,P_FXWGDN)values(234.451,234.507,233.96,406.079,405.646,405.559,17.72,16.24,20.56,4120,3760,4720,12600,160,0,120,0,4160,3800,4800,12600,0.988,0.99,0.982,1,50.041767,1774,336.4,1061.8,0,375.8,0,0,0,0,0,2,0.2,1.4,0,0.2,160.8,31,74.2,0,55.4,1989.2,382.4,1180,0,426.6,0,0,0,0,0,6.2,0.4,5,0,0.6,199.6,37.6,93.8,0,68,2384,468.8,1378.6,0,536.2,0,0,0,0,0,13.2,3.6,6.4,0,3,184.2,36,84.4,0,63.33393,6,20171127141306,735.505,0,6.044,33.372)
写入成功读取完毕一个
write:07 03 01 0F 00 08 75 95
write:08 03 00 38 00 34 C5 49
write:08 03 07 CF 00 78 74 3A
write:08 03 01 0F 00 08 75 6A
34 30 36
heart:34 30 36 36 32 33 30 31 30 31 30 35 30 32
write:09 03 00 38 00 34 C4 98
08 03 68
843 6A E1 48 43 6A A7 2B 43 6A 46 25 43 CB 41 89 43 CA FE FA 43 CB 15 3F 3F 11 EB 85 00 00 00 00 00 00 00 00 42 70 00 00 00 00 00 00 00 00 00 00 42 B4 00 00 00 00 00 00 00 00 00 00 00 00 00 00 00 00 00 00 43 16 00 00 42 70 00 00 00 00 00 00 42 B4 00 00 3E F8 51 EC 3F 1B A5 E3 00 00 00 00 3F 79 99 9A 42 48 AF 86
FB 7F FF
heart:FB 7F FF EF 5A F9 FF F7 BC 00 00
00 00 42
heart:00 00 42 2A 66 66 00 00 00 00 41 AF 33 33 00 00 00 00 00 00 00 00 00 00 00 00 00 00 00 00 00 00 00 00 00 00 00 00 00 00 00 00 00 00 00 00 00 00 00 00 00 00 00 00 41 3D 99 9A 00 00 00 00 40 EB 33 33 00 00 00 00 40 90 00 00 42 67 00 00 00 00 00 00 42 28 00 00 00 00 00 00 41 79 99 9A 00 00 00 00 00 00 00 00 00 00 00 00 00 00 00 00 00 00 00 00 00 00 00 00 00 00 00 00 00 00 00 00 00 00 00 00 00 00 00 00 41 1E 66 66 00 00 00 00 40 DC CC CD 00 00 00 00 40 40 00 00 42 95 19 9A 00 00 00 00 42 3B CC CD 00 00 00 00 41 DB 99 9A 00 00 00 00 00 00 00 00 00 00 00 00 00 00 00 00 00 00 00 00 00 00 00 00 00 00 00 00 00 00 00 00 00 00 00 00 00 00 00 00 41 4E 66 66 00 00 00 00 41 06 66 66 00 00 00 00 40 8B AF F6
write:09 03 07 CF 00 78 75 EB
09 03 F0
9totalsize 240
43 26 CC CD 41 B1 99 9A 42 A3 80 00 00 00 00 00 42 7B 66 66 00 00 00 00 00 00 00 00 00 00 00 00 00 00 00 00 00 00 00 00 00 00 00 00 00 00 00 00 00 00 00 00 00 00 00 00 00 00 00 00 43 0A 4C CD 41 B1 99 9A 42 66 66 66 00 00 00 00 42 6A 00 00 43 BC 2C CD 41 E7 99 9A 43 4D CC CD 00 00 00 00 43 0D 73 33 00 00 00 00 00 00 00 00 00 00 00 00 00 00 00 00 00 00 00 00 40 A3 33 33 00 00 00 00 40 19 99 9A 00 00 00 00 40 23 33 33 43 2C 33 33 41 D6 CC CD 42 95 19 9A 00 00 00 00 42 8D 4C CD 43 CA B9 9A 42 5D 66 66 43 44 33 33 00 00 00 00 43 19 C0 00 00 00 00 00 00 00 00 00 00 00 00 00 00 00 00 00 00 00 00 00 43 18 B3 33 41 B1 99 9A 42 8B 80 00 00 00 00 00 42 72 66 66 43 0F 8C CD 41 BC 66 66 42 72 66 66 00 00 00 00 42 6D FD 04
write:09 03 01 0F 00 08 74 BB
write:01 03 00 38 00 34 C5 D0
09 03 10
900 00 96 67 00 00 00 00 00 00 18 DA 00 00 0E 9F
01 03 68
143 6A D2 6F 43 6A ED 0E 43 6A 7C AC 43 CB 62 D1 43 CB 36 66 43 CB 2B 64 40 C0 00 00 40 AB 85 1F 00 00 00 00 44 70 00 00 44 82 00 00 00 00 00 00 44 FA 00 00 43 70 00 00 43 20 00 00 00 00 00 00 43 F0 00 00 44 B4 00 00 44 A0 00 00 00 00 00 00 45 02 00 00 3F 29 FB E7 3F 52 B0 21 00 00 00 00 3F 79 16 87 42 47 75 D9
write:01 03 07 CF 00 78 74 A3
01 03 F0
1totalsize 240
44 04 CC CD 42 2E 66 66 43 A7 66 66 00 00 00 00 43 18 66 66 00 00 00 00 00 00 00 00 00 00 00 00 00 00 00 00 00 00 00 00 3F 4C CC CD 00 00 00 00 3F 4C CC CD 00 00 00 00 00 00 00 00 43 2A 00 00 41 B0 00 00 42 AC 00 00 00 00 00 00 42 76 66 66 44 0E 99 9A 42 56 66 66 43 B2 00 00 00 00 00 00 43 20 00 00 00 00 00 00 00 00 00 00 00 00 00 00 00 00 00 00 00 00 00 00 3F CC CC CD 00 00 00 00 3F CC CC CD 00 00 00 00 00 00 00 00 43 33 33 33 41 C0 00 00 42 B7 33 33 00 00 00 00 42 7C CC CD 44 42 66 66 42 AF 33 33 43 F7 66 66 00 00 00 00 43 42 CC CD 00 00 00 00 00 00 00 00 00 00 00 00 00 00 00 00 00 00 00 00 42 21 99 9A 3F CC CC CD 41 F3 33 33 00 00 00 00 41 00 00 00 43 36 CC CD 41 DC CC CD 42 BE 66 66 00 00 00 00 42 6E 34 55
write:01 03 01 0F 00 08 75 F3
01 03 10
100 01 A0 72 00 00 00 00 00 00 8A CF 00 00 DE 47
43 6A D2 6F
234.822
43 6A ED 0E
234.926
43 6A 7C AC
234.487
43 CB 62 D1
406.772
43 CB 36 66
406.425
43 CB 2B 64
406.339
40 C0 00 00
6
40 AB 85 1F
5.36
00 00 00 00
0
44 70 00 00
960
44 82 00 00
1040
00 00 00 00
0
44 FA 00 00
2000
43 70 00 00
240
43 20 00 00
160
00 00 00 00
0
43 F0 00 00
480
44 B4 00 00
1440
44 A0 00 00
1280
00 00 00 00
0
45 02 00 00
2080
3F 29 FB E7
0.664
3F 52 B0 21
0.823
00 00 00 00
0
3F 79 16 87
0.973
42 47 75 D9
49.865086
44 04 CC CD
531.2
42 2E 66 66
43.6
43 A7 66 66
334.8
00 00 00 00
0
43 18 66 66
152.4
00 00 00 00
0
00 00 00 00
0
00 00 00 00
0
00 00 00 00
0
00 00 00 00
0
3F 4C CC CD
0.8
00 00 00 00
0
3F 4C CC CD
0.8
00 00 00 00
0
00 00 00 00
0
43 2A 00 00
170
41 B0 00 00
22
42 AC 00 00
86
00 00 00 00
0
42 76 66 66
61.6
44 0E 99 9A
570.4
42 56 66 66
53.6
43 B2 00 00
356
00 00 00 00
0
43 20 00 00
160
00 00 00 00
0
00 00 00 00
0
00 00 00 00
0
00 00 00 00
0
00 00 00 00
0
3F CC CC CD
1.6
00 00 00 00
0
3F CC CC CD
1.6
00 00 00 00
0
00 00 00 00
0
43 33 33 33
179.2
41 C0 00 00
24
42 B7 33 33
91.6
00 00 00 00
0
42 7C CC CD
63.2
44 42 66 66
777.6
42 AF 33 33
87.6
43 F7 66 66
494.8
00 00 00 00
0
43 42 CC CD
194.8
00 00 00 00
0
00 00 00 00
0
00 00 00 00
0
00 00 00 00
0
00 00 00 00
0
42 21 99 9A
40.4
3F CC CC CD
1.6
41 F3 33 33
30.4
00 00 00 00
0
41 00 00 00
8
43 36 CC CD
182.8
41 DC CC CD
27.6
42 BE 66 66
95.2
00 00 00 00
0
42 6E 34 55
59.551105
00 01 A0 72
106610
00 00 00 00
0
00 00 8A CF
35535
00 00 DE 47
56903
234.822234.926234.487406.772406.425406.33965.360960104002000240160048014401280020800.6640.82300.97349.865086531.243.6334.80152.4000000.800.8001702286061.6570.453.63560160000001.601.600179.22491.6063.2777.687.6494.80194.80000040.41.630.408182.827.695.2059.551105120171127141643106.61035.53556.903insert into tbl_power_info_v2(P_A_DIANYA,P_B_DIANYA,P_C_DIANYA,P_UAB_XIANDIANYA,P_UBC_XIANDIANYA,P_UCA_XIANDIANYA,P_A_DIANLIU,P_B_DIANLIU,P_C_DIANLIU,P_A_YGGL,P_B_YGGL,P_C_YGGL,P_HXYGGL,P_A_WGGL,P_B_WGGL,P_C_WGGL,P_HXWGGL,P_A_SZGL,P_B_SZGL,P_C_SZGL,P_HXSZGL,P_A_GLYS,P_B_GLYS,P_C_GLYS,P_HXGLYS,P_DWPL,P_BY_KwhZ,P_BY_KwhJ,P_BY_KwhF,P_BY_KwhP,P_BY_KwhG,P_BY_HKwhZ,P_BY_HKwhJ,P_BY_HKwhF,P_BY_HKwhP,P_BY_HKwhG, P_BY_KvarhZ,P_BY_KvarhJ,P_BY_KvarhF,P_BY_KvarhP,P_BY_KvarhG, P_BY_HKvarhZ,P_BY_HKvarhJ,P_BY_HKvarhF,P_BY_HKvarhP,P_BY_HKvarhG, P_SY_KwhZ,P_SY_KwhJ,P_SY_KwhF,P_SY_KwhP,P_SY_KwhG, P_SY_HKwhZ,P_SY_HKwhJ,P_SY_HKwhF,P_SY_HKwhP,P_SY_HKwhG, P_SY_KvarhZ,P_SY_KvarhJ,P_SY_KvarhF,P_SY_KvarhP,P_SY_KvarhG, P_SY_HKvarhZ,P_SY_HKvarhJ,P_SY_HKvarhF,P_SY_HKvarhP,P_SY_HKvarhG, P_SSY_KwhZ,P_SSY_KwhJ,P_SSY_KwhF,P_SSY_KwhP,P_SSY_KwhG, P_SSY_HKwhZ,P_SSY_HKwhJ,P_SSY_HKwhF,P_SSY_HKwhP,P_SSY_HKwhG, P_SSY_KvarhZ,P_SSY_KvarhJ,P_SSY_KvarhF,P_SSY_KvarhP,P_SSY_KvarhG, P_SSY_HKvarhZ,P_SSY_HKvarhJ,P_SSY_HKvarhF,P_SSY_HKvarhP,P_SSY_HKvarhG,P_CODE,P_TIME,P_ZXYGDN,P_FXYGDN,P_ZXWGDN,P_FXWGDN)values(234.822,234.926,234.487,406.772,406.425,406.339,6,5.36,0,960,1040,0,2000,240,160,0,480,1440,1280,0,2080,0.664,0.823,0,0.973,49.865086,531.2,43.6,334.8,0,152.4,0,0,0,0,0,0.8,0,0.8,0,0,170,22,86,0,61.6,570.4,53.6,356,0,160,0,0,0,0,0,1.6,0,1.6,0,0,179.2,24,91.6,0,63.2,777.6,87.6,494.8,0,194.8,0,0,0,0,0,40.4,1.6,30.4,0,8,182.8,27.6,95.2,0,59.551105,1,20171127141643,106.61,0,35.535,56.903)
写入成功读取完毕一个
write:02 03 00 38 00 34 C5 E3
02 03 68
243 6A A2 0C 43 6A BE 35 43 6A 54 BC 43 CB 36 66 43 CB 15 1F 43 CB 0A 1D 40 8F 5C 29 40 D7 0A 3D 41 3D 70 A4 44 48 00 00 44 96 00 00 45 2A 00 00 45 93 80 00 00 00 00 00 00 00 00 00 43 00 00 00 00 00 00 00 00 00 00 00 00 00 00 00 00 00 00 00 00 00 00 00 00 00 00 00 00 00 00 00 00 00 00 00 00 00 00 00 00 00 00 00
70 00 00
heart:70 00 00 43 70 00 00 44 82 00 00 44 C8 00 00 45 2A 00 00 45 93 80 00 3F 40 83 12 3F 47 2B 02 3F 7B A5 E3 3F 7F BE 77 42 48 AD 0D
write:02 03 07 CF 00 78 74 90
02 03 F0
2totalsize 240
44 AE D9 9A 43 1D 99 9A 44 52 99 9A 00 00 00 00 43 C7 33 33 00 00 00 00 00 00 00 00 00 00 00 00 00 00 00 00 00 00 00 00 42 F6 66 66 41 53 33 33 42 9C CC CD 00 00 00 00 41 F9 99 9A 42 38 00 00 40 33 33 33 42 06 66 66 00 00 00 00 41 19 99 9A 44 8E D9 9A 43 18 CC CD 44 1F E6 66 00 00 00 00 43 AF 00 00 00 00 00 00 00 00 00 00 00 00 00 00 00 00 00 00 00 00 00 00 42 21 99 9A 41 20 00 00 41 A9 99 9A 00 00 00 00 41 0C CC CD 42 30 00 00 40 4C CC CD 41 F3 33 33 00 00 00 00 41 19 99 9A 45 2F 66 66 43 E3 99 9A 44 DC 33 33 00 00 00 00 44 13 4C CD 00 00 00 00 00 00 00 00 00 00 00 00 00 00 00 00 00 00 00 00 44 77 E6 66 43 2E CC CD 44 24 B3 33 00 00 00 00 43 1D 99 9A 42 13 33 33 40 00 00 00 41 D9 99 9A 00 00 00 00 40 E6 96 D3
write:02 03 01 0F 00 08 75 C0
02 03 10
200 03 50 C4 00 00 00 05 00 01 34 84 00 00 AA F4
43 6A A2 0C
234.633
43 6A BE 35
234.743
43 6A 54 BC
234.331
43 CB 36 66
406.425
43 CB 15 1F
406.165
43 CB 0A 1D
406.079
40 8F 5C 29
4.48
40 D7 0A 3D
6.72
41 3D 70 A4
11.84
44 48 00 00
800
44 96 00 00
1200
45 2A 00 00
2720
45 93 80 00
4720
00 00 00 00
0
00 00 00 00
0
43 00 00 00
128
00 00 00 00
0
00 00 00 00
0
00 00 00 00
0
00 00 00 00
0
00 00 00 00
0
00 00 00 00
0
00 00 00 00
0
00 00 00 00
0
00 00 00 00
0
00 00 00 00
0
44 AE D9 9A
1398.8
43 1D 99 9A
157.6
44 52 99 9A
842.4
00 00 00 00
0
43 C7 33 33
398.4
00 00 00 00
0
00 00 00 00
0
00 00 00 00
0
00 00 00 00
0
00 00 00 00
0
42 F6 66 66
123.2
41 53 33 33
13.2
42 9C CC CD
78.4
00 00 00 00
0
41 F9 99 9A
31.2
42 38 00 00
46
40 33 33 33
2.8
42 06 66 66
33.6
00 00 00 00
0
41 19 99 9A
9.6
44 8E D9 9A
1142.8
43 18 CC CD
152.8
44 1F E6 66
639.6
00 00 00 00
0
43 AF 00 00
350
00 00 00 00
0
00 00 00 00
0
00 00 00 00
0
00 00 00 00
0
00 00 00 00
0
42 21 99 9A
40.4
41 20 00 00
10
41 A9 99 9A
21.2
00 00 00 00
0
41 0C CC CD
8.8
42 30 00 00
44
40 4C CC CD
3.2
41 F3 33 33
30.4
00 00 00 00
0
41 19 99 9A
9.6
45 2F 66 66
2806.4
43 E3 99 9A
455.2
44 DC 33 33
1761.6
00 00 00 00
0
44 13 4C CD
589.2
00 00 00 00
0
00 00 00 00
0
00 00 00 00
0
00 00 00 00
0
00 00 00 00
0
44 77 E6 66
991.6
43 2E CC CD
174.8
44 24 B3 33
658.8
00 00 00 00
0
43 1D 99 9A
157.6
42 13 33 33
36.8
40 00 00 00
2
41 D9 99 9A
27.2
00 00 00 00
0
40 E6 96 D3
7.205911
00 03 50 C4
217284
00 00 00 05
5
00 01 34 84
78980
00 00 AA F4
43764
234.633234.743234.331406.425406.165406.0794.486.7211.848001200272047200012800000000001398.8157.6842.40398.400000123.213.278.4031.2462.833.609.61142.8152.8639.603500000040.41021.208.8443.230.409.62806.4455.21761.60589.200000991.6174.8658.80157.636.8227.207.205911220171127141728217.2840.00578.9843.764insert into tbl_power_info_v2(P_A_DIANYA,P_B_DIANYA,P_C_DIANYA,P_UAB_XIANDIANYA,P_UBC_XIANDIANYA,P_UCA_XIANDIANYA,P_A_DIANLIU,P_B_DIANLIU,P_C_DIANLIU,P_A_YGGL,P_B_YGGL,P_C_YGGL,P_HXYGGL,P_A_WGGL,P_B_WGGL,P_C_WGGL,P_HXWGGL,P_A_SZGL,P_B_SZGL,P_C_SZGL,P_HXSZGL,P_A_GLYS,P_B_GLYS,P_C_GLYS,P_HXGLYS,P_DWPL,P_BY_KwhZ,P_BY_KwhJ,P_BY_KwhF,P_BY_KwhP,P_BY_KwhG,P_BY_HKwhZ,P_BY_HKwhJ,P_BY_HKwhF,P_BY_HKwhP,P_BY_HKwhG, P_BY_KvarhZ,P_BY_KvarhJ,P_BY_KvarhF,P_BY_KvarhP,P_BY_KvarhG, P_BY_HKvarhZ,P_BY_HKvarhJ,P_BY_HKvarhF,P_BY_HKvarhP,P_BY_HKvarhG, P_SY_KwhZ,P_SY_KwhJ,P_SY_KwhF,P_SY_KwhP,P_SY_KwhG, P_SY_HKwhZ,P_SY_HKwhJ,P_SY_HKwhF,P_SY_HKwhP,P_SY_HKwhG, P_SY_KvarhZ,P_SY_KvarhJ,P_SY_KvarhF,P_SY_KvarhP,P_SY_KvarhG, P_SY_HKvarhZ,P_SY_HKvarhJ,P_SY_HKvarhF,P_SY_HKvarhP,P_SY_HKvarhG, P_SSY_KwhZ,P_SSY_KwhJ,P_SSY_KwhF,P_SSY_KwhP,P_SSY_KwhG, P_SSY_HKwhZ,P_SSY_HKwhJ,P_SSY_HKwhF,P_SSY_HKwhP,P_SSY_HKwhG, P_SSY_KvarhZ,P_SSY_KvarhJ,P_SSY_KvarhF,P_SSY_KvarhP,P_SSY_KvarhG, P_SSY_HKvarhZ,P_SSY_HKvarhJ,P_SSY_HKvarhF,P_SSY_HKvarhP,P_SSY_HKvarhG,P_CODE,P_TIME,P_ZXYGDN,P_FXYGDN,P_ZXWGDN,P_FXWGDN)values(234.633,234.743,234.331,406.425,406.165,406.079,4.48,6.72,11.84,800,1200,2720,4720,0,0,128,0,0,0,0,0,0,0,0,0,0,1398.8,157.6,842.4,0,398.4,0,0,0,0,0,123.2,13.2,78.4,0,31.2,46,2.8,33.6,0,9.6,1142.8,152.8,639.6,0,350,0,0,0,0,0,40.4,10,21.2,0,8.8,44,3.2,30.4,0,9.6,2806.4,455.2,1761.6,0,589.2,0,0,0,0,0,991.6,174.8,658.8,0,157.6,36.8,2,27.2,0,7.205911,2,20171127141728,217.284,0.005,78.98,43.764)
写入成功读取完毕一个
write:03 03 00 38 00 34 C4 32
03 03 68
343 6A 3E 77 43 6A 35 3F 43 69 E2 8F 43 CA D2 B0 43 CA A6 46 43 CA A6 46 40 27 0A 3D 40 30 A3 D7 40 51 47 AE 43 E1 00 00 43 FF 00 00 44 16 00 00 44 C3 00 00 43 B4 00 00 43 B4 00 00 43 F0 00 00 44 96 00 00 44 16 00 00 44 1D 80 00 44 43 00 00 44 F7 80 00 3F 41 89 37 3F 47 EF 9E 3F 45 E3 54 3F 4A C0 83 42 48 4F 10
write:03 03 07 CF 00 78 75 41
03 03 F0
3totalsize 240
43 C8 8C CD 42 9E 19 9A 43 5C CC CD 00 00 00 00 42 CA 33 33 00 00 00 00 00 00 00 00 00 00 00 00 00 00 00 00 00 00 00 00 42 AF CC CD 41 80 66 66 42 67 00 00 00 00 00 00 41 61 99 9A 40 9E 66 66 3F 66 66 66 40 53 33 33 00 00 00 00 3F 19 99 9A 43 EF 2C CD 42 F0 00 00 43 7D 33 33 00 00 00 00 42 D1 B3 33 00 00 00 00 00 00 00 00 00 00 00 00 00 00 00 00 00 00 00 00 42 9C E6 66 40 E6 66 66 42 5B 99 9A 00 00 00 00 41 80 66 66 41 68 CC CD 40 A8 00 00 40 F9 99 9A 00 00 00 00 3F AC CC CD 43 D8 60 00 42 B5 80 00 43 81 86 66 00 00 00 00 42 A5 99 9A 00 00 00 00 00 00 00 00 00 00 00 00 00 00 00 00 00 00 00 00 42 F7 CC CD 41 90 00 00 42 A5 99 9A 00 00 00 00 41 B8 CC CD 40 EB 33 33 40 06 66 66 40 53 33 33 00 00 00 00 3F E6 94 3F
write:03 03 01 0F 00 08 74 11
03 03 10
300 00 C6 28 00 00 00 00 00 00 27 D8 00 00 9D 87
43 6A 3E 77
234.244
43 6A 35 3F
234.208
43 69 E2 8F
233.885
43 CA D2 B0
405.646
43 CA A6 46
405.299
43 CA A6 46
405.299
40 27 0A 3D
2.61
40 30 A3 D7
2.76
40 51 47 AE
3.27
43 E1 00 00
450
43 FF 00 00
510
44 16 00 00
600
44 C3 00 00
1560
43 B4 00 00
360
43 B4 00 00
360
43 F0 00 00
480
44 96 00 00
1200
44 16 00 00
600
44 1D 80 00
630
44 43 00 00
780
44 F7 80 00
1980
3F 41 89 37
0.756
3F 47 EF 9E
0.781
3F 45 E3 54
0.773
3F 4A C0 83
0.792
42 48 4F 10
50.07721
43 C8 8C CD
401.1
42 9E 19 9A
79.05
43 5C CC CD
220.8
00 00 00 00
0
42 CA 33 33
101.1
00 00 00 00
0
00 00 00 00
0
00 00 00 00
0
00 00 00 00
0
00 00 00 00
0
42 AF CC CD
87.9
41 80 66 66
16.05
42 67 00 00
57.75
00 00 00 00
0
41 61 99 9A
14.1
40 9E 66 66
4.95
3F 66 66 66
0.9
40 53 33 33
3.3
00 00 00 00
0
3F 19 99 9A
0.6
43 EF 2C CD
478.35
42 F0 00 00
120
43 7D 33 33
253.2
00 00 00 00
0
42 D1 B3 33
104.85
00 00 00 00
0
00 00 00 00
0
00 00 00 00
0
00 00 00 00
0
00 00 00 00
0
42 9C E6 66
78.45
40 E6 66 66
7.2
42 5B 99 9A
54.9
00 00 00 00
0
41 80 66 66
16.05
41 68 CC CD
14.55
40 A8 00 00
5.25
40 F9 99 9A
7.8
00 00 00 00
0
3F AC CC CD
1.35
43 D8 60 00
432.75
42 B5 80 00
90.75
43 81 86 66
259.05
00 00 00 00
0
42 A5 99 9A
82.8
00 00 00 00
0
00 00 00 00
0
00 00 00 00
0
00 00 00 00
0
00 00 00 00
0
42 F7 CC CD
123.9
41 90 00 00
18
42 A5 99 9A
82.8
00 00 00 00
0
41 B8 CC CD
23.1
40 EB 33 33
7.35
40 06 66 66
2.1
40 53 33 33
3.3
00 00 00 00
0
3F E6 94 3F
1.8013991
00 00 C6 28
50728
00 00 00 00
0
00 00 27 D8
10200
00 00 9D 87
40327
234.244234.208233.885405.646405.299405.2992.612.763.274505106001560360360480120060063078019800.7560.7810.7730.79250.07721401.179.05220.80101.10000087.916.0557.75014.14.950.93.300.6478.35120253.20104.850000078.457.254.9016.0514.555.257.801.35432.7590.75259.05082.800000123.91882.8023.17.352.13.301.801399132017112714182750.728010.240.327insert into tbl_power_info_v2(P_A_DIANYA,P_B_DIANYA,P_C_DIANYA,P_UAB_XIANDIANYA,P_UBC_XIANDIANYA,P_UCA_XIANDIANYA,P_A_DIANLIU,P_B_DIANLIU,P_C_DIANLIU,P_A_YGGL,P_B_YGGL,P_C_YGGL,P_HXYGGL,P_A_WGGL,P_B_WGGL,P_C_WGGL,P_HXWGGL,P_A_SZGL,P_B_SZGL,P_C_SZGL,P_HXSZGL,P_A_GLYS,P_B_GLYS,P_C_GLYS,P_HXGLYS,P_DWPL,P_BY_KwhZ,P_BY_KwhJ,P_BY_KwhF,P_BY_KwhP,P_BY_KwhG,P_BY_HKwhZ,P_BY_HKwhJ,P_BY_HKwhF,P_BY_HKwhP,P_BY_HKwhG, P_BY_KvarhZ,P_BY_KvarhJ,P_BY_KvarhF,P_BY_KvarhP,P_BY_KvarhG, P_BY_HKvarhZ,P_BY_HKvarhJ,P_BY_HKvarhF,P_BY_HKvarhP,P_BY_HKvarhG, P_SY_KwhZ,P_SY_KwhJ,P_SY_KwhF,P_SY_KwhP,P_SY_KwhG, P_SY_HKwhZ,P_SY_HKwhJ,P_SY_HKwhF,P_SY_HKwhP,P_SY_HKwhG, P_SY_KvarhZ,P_SY_KvarhJ,P_SY_KvarhF,P_SY_KvarhP,P_SY_KvarhG, P_SY_HKvarhZ,P_SY_HKvarhJ,P_SY_HKvarhF,P_SY_HKvarhP,P_SY_HKvarhG, P_SSY_KwhZ,P_SSY_KwhJ,P_SSY_KwhF,P_SSY_KwhP,P_SSY_KwhG, P_SSY_HKwhZ,P_SSY_HKwhJ,P_SSY_HKwhF,P_SSY_HKwhP,P_SSY_HKwhG, P_SSY_KvarhZ,P_SSY_KvarhJ,P_SSY_KvarhF,P_SSY_KvarhP,P_SSY_KvarhG, P_SSY_HKvarhZ,P_SSY_HKvarhJ,P_SSY_HKvarhF,P_SSY_HKvarhP,P_SSY_HKvarhG,P_CODE,P_TIME,P_ZXYGDN,P_FXYGDN,P_ZXWGDN,P_FXWGDN)values(234.244,234.208,233.885,405.646,405.299,405.299,2.61,2.76,3.27,450,510,600,1560,360,360,480,1200,600,630,780,1980,0.756,0.781,0.773,0.792,50.07721,401.1,79.05,220.8,0,101.1,0,0,0,0,0,87.9,16.05,57.75,0,14.1,4.95,0.9,3.3,0,0.6,478.35,120,253.2,0,104.85,0,0,0,0,0,78.45,7.2,54.9,0,16.05,14.55,5.25,7.8,0,1.35,432.75,90.75,259.05,0,82.8,0,0,0,0,0,123.9,18,82.8,0,23.1,7.35,2.1,3.3,0,1.8013991,3,20171127141827,50.728,0,10.2,40.327)
写入成功读取完毕一个
write:04 03 00 38 00 34 C5 85
04 03 68
443 69 AA 7F 43 69 B7 0A 43 69 2F 9E 43 CA 58 B4 43 CA 21 48 43 CA 16 46 3F F5 C2 8F 3F FA E1 48 40 47 AE 14 43 A0 00 00 43 DC 00 00 44 16 00 00 44 AA 00 00 42 A0 00 00 00 00 00 00 00 00 00 00 00 00 00 00 43 DC 00 00 43 DC 00 00 44 34 00 00 44 AA 00 00 3F 3F BE 77 3F 72 2D 0E 3F 56 45 A2 3F 7F BE 77 42 48 60 32
write:04 03 07 CF 00 78 74 F6
04 03 F0
4totalsize 240
44 2A 40 00 43 0D 99 9A 43 C1 33 33 00 00 00 00 43 18 CC CD 00 00 00 00 00 00 00 00 00 00 00 00 00 00 00 00 00 00 00 00 40 C0 00 00 3E 4C CC CD 3F CC CC CD 00 00 00 00 40 86 66 66 42 8A 66 66 41 66 66 66 42 07 33 33 00 00 00 00 41 A6 66 66 44 1B 00 00 42 CE CC CD 43 AE 00 00 00 00 00 00 43 28 66 66 00 00 00 00 00 00 00 00 00 00 00 00 00 00 00 00 00 00 00 00 41 B0 00 00 40 26 66 66 40 C0 00 00 00 00 00 00 41 53 33 33 42 48 CC CD 41 06 66 66 41 D0 00 00 00 00 00 00 41 76 66 66 44 21 8C CD 42 DE CC CD 43 B0 99 9A 00 00 00 00 43 35 33 33 00 00 00 00 00 00 00 00 00 00 00 00 00 00 00 00 00 00 00 00 41 E8 00 00 40 B9 99 9A 40 E0 00 00 00 00 00 00 41 81 99 9A 42 14 CC CD 40 8C CC CD 41 9B 33 33 00 00 00 00 41 50 75 F0
write:04 03 01 0F 00 08 75 A6
04 03 10
400 02 94 18 00 00 00 00 00 00 42 3E 00 00 16 8D
43 69 AA 7F
233.666
43 69 B7 0A
233.715
43 69 2F 9E
233.186
43 CA 58 B4
404.693
43 CA 21 48
404.26
43 CA 16 46
404.174
3F F5 C2 8F
1.92
3F FA E1 48
1.96
40 47 AE 14
3.12
43 A0 00 00
320
43 DC 00 00
440
44 16 00 00
600
44 AA 00 00
1360
42 A0 00 00
80
00 00 00 00
0
00 00 00 00
0
00 00 00 00
0
43 DC 00 00
440
43 DC 00 00
440
44 34 00 00
720
44 AA 00 00
1360
3F 3F BE 77
0.749
3F 72 2D 0E
0.946
3F 56 45 A2
0.837
3F 7F BE 77
0.999
42 48 60 32
50.09394
44 2A 40 00
681
43 0D 99 9A
141.6
43 C1 33 33
386.4
00 00 00 00
0
43 18 CC CD
152.8
00 00 00 00
0
00 00 00 00
0
00 00 00 00
0
00 00 00 00
0
00 00 00 00
0
40 C0 00 00
6
3E 4C CC CD
0.2
3F CC CC CD
1.6
00 00 00 00
0
40 86 66 66
4.2
42 8A 66 66
69.2
41 66 66 66
14.4
42 07 33 33
33.8
00 00 00 00
0
41 A6 66 66
20.8
44 1B 00 00
620
42 CE CC CD
103.4
43 AE 00 00
348
00 00 00 00
0
43 28 66 66
168.4
00 00 00 00
0
00 00 00 00
0
00 00 00 00
0
00 00 00 00
0
00 00 00 00
0
41 B0 00 00
22
40 26 66 66
2.6
40 C0 00 00
6
00 00 00 00
0
41 53 33 33
13.2
42 48 CC CD
50.2
41 06 66 66
8.4
41 D0 00 00
26
00 00 00 00
0
41 76 66 66
15.4
44 21 8C CD
646.2
42 DE CC CD
111.4
43 B0 99 9A
353.2
00 00 00 00
0
43 35 33 33
181.2
00 00 00 00
0
00 00 00 00
0
00 00 00 00
0
00 00 00 00
0
00 00 00 00
0
41 E8 00 00
29
40 B9 99 9A
5.8
40 E0 00 00
7
00 00 00 00
0
41 81 99 9A
16.2
42 14 CC CD
37.2
40 8C CC CD
4.4
41 9B 33 33
19.4
00 00 00 00
0
41 50 75 F0
13.028793
00 02 94 18
168984
00 00 00 00
0
00 00 42 3E
16958
00 00 16 8D
5773
233.666233.715233.186404.693404.26404.1741.921.963.1232044060013608000044044072013600.7490.9460.8370.99950.09394681141.6386.40152.80000060.21.604.269.214.433.8020.8620103.43480168.400000222.66013.250.28.426015.4646.2111.4353.20181.200000295.87016.237.24.419.4013.028793420171127141928168.984016.9585.773insert into tbl_power_info_v2(P_A_DIANYA,P_B_DIANYA,P_C_DIANYA,P_UAB_XIANDIANYA,P_UBC_XIANDIANYA,P_UCA_XIANDIANYA,P_A_DIANLIU,P_B_DIANLIU,P_C_DIANLIU,P_A_YGGL,P_B_YGGL,P_C_YGGL,P_HXYGGL,P_A_WGGL,P_B_WGGL,P_C_WGGL,P_HXWGGL,P_A_SZGL,P_B_SZGL,P_C_SZGL,P_HXSZGL,P_A_GLYS,P_B_GLYS,P_C_GLYS,P_HXGLYS,P_DWPL,P_BY_KwhZ,P_BY_KwhJ,P_BY_KwhF,P_BY_KwhP,P_BY_KwhG,P_BY_HKwhZ,P_BY_HKwhJ,P_BY_HKwhF,P_BY_HKwhP,P_BY_HKwhG, P_BY_KvarhZ,P_BY_KvarhJ,P_BY_KvarhF,P_BY_KvarhP,P_BY_KvarhG, P_BY_HKvarhZ,P_BY_HKvarhJ,P_BY_HKvarhF,P_BY_HKvarhP,P_BY_HKvarhG, P_SY_KwhZ,P_SY_KwhJ,P_SY_KwhF,P_SY_KwhP,P_SY_KwhG, P_SY_HKwhZ,P_SY_HKwhJ,P_SY_HKwhF,P_SY_HKwhP,P_SY_HKwhG, P_SY_KvarhZ,P_SY_KvarhJ,P_SY_KvarhF,P_SY_KvarhP,P_SY_KvarhG, P_SY_HKvarhZ,P_SY_HKvarhJ,P_SY_HKvarhF,P_SY_HKvarhP,P_SY_HKvarhG, P_SSY_KwhZ,P_SSY_KwhJ,P_SSY_KwhF,P_SSY_KwhP,P_SSY_KwhG, P_SSY_HKwhZ,P_SSY_HKwhJ,P_SSY_HKwhF,P_SSY_HKwhP,P_SSY_HKwhG, P_SSY_KvarhZ,P_SSY_KvarhJ,P_SSY_KvarhF,P_SSY_KvarhP,P_SSY_KvarhG, P_SSY_HKvarhZ,P_SSY_HKvarhJ,P_SSY_HKvarhF,P_SSY_HKvarhP,P_SSY_HKvarhG,P_CODE,P_TIME,P_ZXYGDN,P_FXYGDN,P_ZXWGDN,P_FXWGDN)values(233.666,233.715,233.186,404.693,404.26,404.174,1.92,1.96,3.12,320,440,600,1360,80,0,0,0,440,440,720,1360,0.749,0.946,0.837,0.999,50.09394,681,141.6,386.4,0,152.8,0,0,0,0,0,6,0.2,1.6,0,4.2,69.2,14.4,33.8,0,20.8,620,103.4,348,0,168.4,0,0,0,0,0,22,2.6,6,0,13.2,50.2,8.4,26,0,15.4,646.2,111.4,353.2,0,181.2,0,0,0,0,0,29,5.8,7,0,16.2,37.2,4.4,19.4,0,13.028793,4,20171127141928,168.984,0,16.958,5.773)
写入成功读取完毕一个
write:05 03 00 38 00 34 C4 54
05 03 68
543 6A 63 D7 43 6A 98 52 43 69 EB C7 43 CA FE FA 43 CA D2 B0 43 CA BC 8B 40 8B 85 1F 40 94 7A E1 40 DC 28 F6 44 20 00 00 44 7A 00 00 44 AA 00 00 45 3B 80 00 43 20 00 00 42 F0 00 00 43 48 00 00 43 F0 00 00 44 82 00 00 44 87 00 00 44 C8 00 00 45 3E 00 00 3F 22 8F 5C 3F 6E 56 04 3F 56 87 2B 3F 7C ED 91 42 48 AB 52
write:05 03 07 CF 00 78 75 27
05 03 F0
5totalsize 240
44 B6 26 66 43 AF 66 66 44 49 F3 33 00 00 00 00 43 95 4C CD 00 00 00 00 00 00 00 00 00 00 00 00 00 00 00 00 00 00 00 00 00 00 00 00 00 00 00 00 00 00 00 00 00 00 00 00 00 00 00 00 43 65 00 00 42 48 00 00 42 DD 33 33 00 00 00 00 42 88 66 66 44 C1 06 66 43 AF 99 9A 44 5A 00 00 00 00 00 00 43 A0 66 66 00 00 00 00 00 00 00 00 00 00 00 00 00 00 00 00 00 00 00 00 3F CC CC CD 3F 19 99 9A 3F 4C CC CD 00 00 00 00 00 00 00 00 43 6F 99 9A 42 50 00 00 42 E7 33 33 00 00 00 00 42 8F 99 9A 44 D5 93 33 43 A4 B3 33 44 7E 19 9A 00 00 00 00 43 B5 33 33 00 00 00 00 00 00 00 00 00 00 00 00 00 00 00 00 00 00 00 00 42 A8 66 66 41 9B 33 33 42 69 99 9A 00 00 00 00 40 CC CC CD 43 26 33 33 41 FE 66 66 42 9E CC CD 00 00 00 00 42 5B AB 29
write:05 03 01 0F 00 08 74 77
05 03 10
500 08 87 B5 00 00 00 00 00 00 D9 A8 00 00 00 26
43 6A 63 D7
234.39
43 6A 98 52
234.595
43 69 EB C7
233.921
43 CA FE FA
405.992
43 CA D2 B0
405.646
43 CA BC 8B
405.473
40 8B 85 1F
4.36
40 94 7A E1
4.64
40 DC 28 F6
6.88
44 20 00 00
640
44 7A 00 00
1000
44 AA 00 00
1360
45 3B 80 00
3000
43 20 00 00
160
42 F0 00 00
120
43 48 00 00
200
43 F0 00 00
480
44 82 00 00
1040
44 87 00 00
1080
44 C8 00 00
1600
45 3E 00 00
3040
3F 22 8F 5C
0.635
3F 6E 56 04
0.931
3F 56 87 2B
0.838
3F 7C ED 91
0.988
42 48 AB 52
50.167305
44 B6 26 66
1457.2
43 AF 66 66
350.8
44 49 F3 33
807.8
00 00 00 00
0
43 95 4C CD
298.6
00 00 00 00
0
00 00 00 00
0
00 00 00 00
0
00 00 00 00
0
00 00 00 00
0
00 00 00 00
0
00 00 00 00
0
00 00 00 00
0
00 00 00 00
0
00 00 00 00
0
43 65 00 00
229
42 48 00 00
50
42 DD 33 33
110.6
00 00 00 00
0
42 88 66 66
68.2
44 C1 06 66
1544.2
43 AF 99 9A
351.2
44 5A 00 00
872
00 00 00 00
0
43 A0 66 66
320.8
00 00 00 00
0
00 00 00 00
0
00 00 00 00
0
00 00 00 00
0
00 00 00 00
0
3F CC CC CD
1.6
3F 19 99 9A
0.6
3F 4C CC CD
0.8
00 00 00 00
0
00 00 00 00
0
43 6F 99 9A
239.6
42 50 00 00
52
42 E7 33 33
115.6
00 00 00 00
0
42 8F 99 9A
71.8
44 D5 93 33
1708.6
43 A4 B3 33
329.4
44 7E 19 9A
1016.4
00 00 00 00
0
43 B5 33 33
362.4
00 00 00 00
0
00 00 00 00
0
00 00 00 00
0
00 00 00 00
0
00 00 00 00
0
42 A8 66 66
84.2
41 9B 33 33
19.4
42 69 99 9A
58.4
00 00 00 00
0
40 CC CC CD
6.4
43 26 33 33
166.2
41 FE 66 66
31.8
42 9E CC CD
79.4
00 00 00 00
0
42 5B AB 29
54.91715
00 08 87 B5
559029
00 00 00 00
0
00 00 D9 A8
55720
00 00 00 26
38
234.39234.595233.921405.992405.646405.4734.364.646.8864010001360300016012020048010401080160030400.6350.9310.8380.98850.1673051457.2350.8807.80298.6000000000022950110.6068.21544.2351.28720320.8000001.60.60.800239.652115.6071.81708.6329.41016.40362.40000084.219.458.406.4166.231.879.4054.91715520171127142027559.029055.720.038insert into tbl_power_info_v2(P_A_DIANYA,P_B_DIANYA,P_C_DIANYA,P_UAB_XIANDIANYA,P_UBC_XIANDIANYA,P_UCA_XIANDIANYA,P_A_DIANLIU,P_B_DIANLIU,P_C_DIANLIU,P_A_YGGL,P_B_YGGL,P_C_YGGL,P_HXYGGL,P_A_WGGL,P_B_WGGL,P_C_WGGL,P_HXWGGL,P_A_SZGL,P_B_SZGL,P_C_SZGL,P_HXSZGL,P_A_GLYS,P_B_GLYS,P_C_GLYS,P_HXGLYS,P_DWPL,P_BY_KwhZ,P_BY_KwhJ,P_BY_KwhF,P_BY_KwhP,P_BY_KwhG,P_BY_HKwhZ,P_BY_HKwhJ,P_BY_HKwhF,P_BY_HKwhP,P_BY_HKwhG, P_BY_KvarhZ,P_BY_KvarhJ,P_BY_KvarhF,P_BY_KvarhP,P_BY_KvarhG, P_BY_HKvarhZ,P_BY_HKvarhJ,P_BY_HKvarhF,P_BY_HKvarhP,P_BY_HKvarhG, P_SY_KwhZ,P_SY_KwhJ,P_SY_KwhF,P_SY_KwhP,P_SY_KwhG, P_SY_HKwhZ,P_SY_HKwhJ,P_SY_HKwhF,P_SY_HKwhP,P_SY_HKwhG, P_SY_KvarhZ,P_SY_KvarhJ,P_SY_KvarhF,P_SY_KvarhP,P_SY_KvarhG, P_SY_HKvarhZ,P_SY_HKvarhJ,P_SY_HKvarhF,P_SY_HKvarhP,P_SY_HKvarhG, P_SSY_KwhZ,P_SSY_KwhJ,P_SSY_KwhF,P_SSY_KwhP,P_SSY_KwhG, P_SSY_HKwhZ,P_SSY_HKwhJ,P_SSY_HKwhF,P_SSY_HKwhP,P_SSY_HKwhG, P_SSY_KvarhZ,P_SSY_KvarhJ,P_SSY_KvarhF,P_SSY_KvarhP,P_SSY_KvarhG, P_SSY_HKvarhZ,P_SSY_HKvarhJ,P_SSY_HKvarhF,P_SSY_HKvarhP,P_SSY_HKvarhG,P_CODE,P_TIME,P_ZXYGDN,P_FXYGDN,P_ZXWGDN,P_FXWGDN)values(234.39,234.595,233.921,405.992,405.646,405.473,4.36,4.64,6.88,640,1000,1360,3000,160,120,200,480,1040,1080,1600,3040,0.635,0.931,0.838,0.988,50.167305,1457.2,350.8,807.8,0,298.6,0,0,0,0,0,0,0,0,0,0,229,50,110.6,0,68.2,1544.2,351.2,872,0,320.8,0,0,0,0,0,1.6,0.6,0.8,0,0,239.6,52,115.6,0,71.8,1708.6,329.4,1016.4,0,362.4,0,0,0,0,0,84.2,19.4,58.4,0,6.4,166.2,31.8,79.4,0,54.91715,5,20171127142027,559.029,0,55.72,0.038)
写入成功读取完毕一个
write:06 03 00 38 00 34 C4 67
06 03 68
643 6A 64 19 43 6A A0 00 43 6A 16 C9 43 CB 0A 1D 43 CA E8 D5 43 CA C7 8D 41 89 47 AE 41 7E B8 52 41 9B D7 0A 45 4F 80 00 45 39 00 00 45 7C 80 00 46 21 40 00 43 C8 00 00 42 F0 00 00 42 A0 00 00 44 16 00 00 45 7A 00 00 45 68 80 00 45 8E 80 00 46 21 40 00 3F 52 B0 21 3F 4A C0 83 3F 62 D0 E5 3F 7F 7C EE 42 47 8A F6
write:06 03 07 CF 00 78 75 14
06 03 F0
6totalsize 240
44 DD E6 66 43 A8 33 33 44 84 D9 9A 00 00 00 00 43 BB E6 66 00 00 00 00 00 00 00 00 00 00 00 00 00 00 00 00 00 00 00 00 40 00 00 00 3E 4C CC CD 3F B3 33 33 00 00 00 00 3E 4C CC CD 43 20 CC CD 41 F8 00 00 42 94 66 66 00 00 00 00 42 5D 99 9A 44 F8 A6 66 43 BF 33 33 44 93 80 00 00 00 00 00 43 D5 4C CD 00 00 00 00 00 00 00 00 00 00 00 00 00 00 00 00 00 00 00 00 40 C6 66 66 3E CC CC CD 40 A0 00 00 00 00 00 00 3F 19 99 9A 43 47 99 9A 42 16 66 66 42 BB 99 9A 00 00 00 00 42 88 00 00 45 15 00 00 43 EA 66 66 44 AC 53 33 00 00 00 00 44 06 0C CD 00 00 00 00 00 00 00 00 00 00 00 00 00 00 00 00 00 00 00 00 41 53 33 33 40 66 66 66 40 CC CC CD 00 00 00 00 40 40 00 00 43 38 33 33 42 10 00 00 42 A8 CC CD 00 00 00 00 42 7D CE 76
write:06 03 01 0F 00 08 74 44
06 03 10
600 0B 39 2C 00 00 00 00 00 00 17 9C 00 00 46 F0
43 6A 64 19
234.391
43 6A A0 00
234.625
43 6A 16 C9
234.089
43 CB 0A 1D
406.079
43 CA E8 D5
405.819
43 CA C7 8D
405.559
41 89 47 AE
17.16
41 7E B8 52
15.92
41 9B D7 0A
19.48
45 4F 80 00
3320
45 39 00 00
2960
45 7C 80 00
4040
46 21 40 00
10320
43 C8 00 00
400
42 F0 00 00
120
42 A0 00 00
80
44 16 00 00
600
45 7A 00 00
4000
45 68 80 00
3720
45 8E 80 00
4560
46 21 40 00
10320
3F 52 B0 21
0.823
3F 4A C0 83
0.792
3F 62 D0 E5
0.886
3F 7F 7C EE
0.998
42 47 8A F6
49.885704
44 DD E6 66
1775.2
43 A8 33 33
336.4
44 84 D9 9A
1062.8
00 00 00 00
0
43 BB E6 66
375.8
00 00 00 00
0
00 00 00 00
0
00 00 00 00
0
00 00 00 00
0
00 00 00 00
0
40 00 00 00
2
3E 4C CC CD
0.2
3F B3 33 33
1.4
00 00 00 00
0
3E 4C CC CD
0.2
43 20 CC CD
160.8
41 F8 00 00
31
42 94 66 66
74.2
00 00 00 00
0
42 5D 99 9A
55.4
44 F8 A6 66
1989.2
43 BF 33 33
382.4
44 93 80 00
1180
00 00 00 00
0
43 D5 4C CD
426.6
00 00 00 00
0
00 00 00 00
0
00 00 00 00
0
00 00 00 00
0
00 00 00 00
0
40 C6 66 66
6.2
3E CC CC CD
0.4
40 A0 00 00
5
00 00 00 00
0
3F 19 99 9A
0.6
43 47 99 9A
199.6
42 16 66 66
37.6
42 BB 99 9A
93.8
00 00 00 00
0
42 88 00 00
68
45 15 00 00
2384
43 EA 66 66
468.8
44 AC 53 33
1378.6
00 00 00 00
0
44 06 0C CD
536.2
00 00 00 00
0
00 00 00 00
0
00 00 00 00
0
00 00 00 00
0
00 00 00 00
0
41 53 33 33
13.2
40 66 66 66
3.6
40 CC CC CD
6.4
00 00 00 00
0
40 40 00 00
3
43 38 33 33
184.2
42 10 00 00
36
42 A8 CC CD
84.4
00 00 00 00
0
42 7D CE 76
63.451622
00 0B 39 2C
735532
00 00 00 00
0
00 00 17 9C
6044
00 00 46 F0
18160
234.391234.625234.089406.079405.819405.55917.1615.9219.483320296040401032040012080600400037204560103200.8230.7920.8860.99849.8857041775.2336.41062.80375.80000020.21.400.2160.83174.2055.41989.2382.411800426.6000006.20.4500.6199.637.693.80682384468.81378.60536.20000013.23.66.403184.23684.4063.451622620171127142132735.53206.04418.16insert into tbl_power_info_v2(P_A_DIANYA,P_B_DIANYA,P_C_DIANYA,P_UAB_XIANDIANYA,P_UBC_XIANDIANYA,P_UCA_XIANDIANYA,P_A_DIANLIU,P_B_DIANLIU,P_C_DIANLIU,P_A_YGGL,P_B_YGGL,P_C_YGGL,P_HXYGGL,P_A_WGGL,P_B_WGGL,P_C_WGGL,P_HXWGGL,P_A_SZGL,P_B_SZGL,P_C_SZGL,P_HXSZGL,P_A_GLYS,P_B_GLYS,P_C_GLYS,P_HXGLYS,P_DWPL,P_BY_KwhZ,P_BY_KwhJ,P_BY_KwhF,P_BY_KwhP,P_BY_KwhG,P_BY_HKwhZ,P_BY_HKwhJ,P_BY_HKwhF,P_BY_HKwhP,P_BY_HKwhG, P_BY_KvarhZ,P_BY_KvarhJ,P_BY_KvarhF,P_BY_KvarhP,P_BY_KvarhG, P_BY_HKvarhZ,P_BY_HKvarhJ,P_BY_HKvarhF,P_BY_HKvarhP,P_BY_HKvarhG, P_SY_KwhZ,P_SY_KwhJ,P_SY_KwhF,P_SY_KwhP,P_SY_KwhG, P_SY_HKwhZ,P_SY_HKwhJ,P_SY_HKwhF,P_SY_HKwhP,P_SY_HKwhG, P_SY_KvarhZ,P_SY_KvarhJ,P_SY_KvarhF,P_SY_KvarhP,P_SY_KvarhG, P_SY_HKvarhZ,P_SY_HKvarhJ,P_SY_HKvarhF,P_SY_HKvarhP,P_SY_HKvarhG, P_SSY_KwhZ,P_SSY_KwhJ,P_SSY_KwhF,P_SSY_KwhP,P_SSY_KwhG, P_SSY_HKwhZ,P_SSY_HKwhJ,P_SSY_HKwhF,P_SSY_HKwhP,P_SSY_HKwhG, P_SSY_KvarhZ,P_SSY_KvarhJ,P_SSY_KvarhF,P_SSY_KvarhP,P_SSY_KvarhG, P_SSY_HKvarhZ,P_SSY_HKvarhJ,P_SSY_HKvarhF,P_SSY_HKvarhP,P_SSY_HKvarhG,P_CODE,P_TIME,P_ZXYGDN,P_FXYGDN,P_ZXWGDN,P_FXWGDN)values(234.391,234.625,234.089,406.079,405.819,405.559,17.16,15.92,19.48,3320,2960,4040,10320,400,120,80,600,4000,3720,4560,10320,0.823,0.792,0.886,0.998,49.885704,1775.2,336.4,1062.8,0,375.8,0,0,0,0,0,2,0.2,1.4,0,0.2,160.8,31,74.2,0,55.4,1989.2,382.4,1180,0,426.6,0,0,0,0,0,6.2,0.4,5,0,0.6,199.6,37.6,93.8,0,68,2384,468.8,1378.6,0,536.2,0,0,0,0,0,13.2,3.6,6.4,0,3,184.2,36,84.4,0,63.451622,6,20171127142132,735.532,0,6.044,18.16)
写入成功读取完毕一个
write:07 03 00 38 00 34 C5 B6
write:07 03 07 CF 00 78 74 C5
write:07 03 01 0F 00 08 75 95
write:08 03 00 38 00 34 C5 49
08 03 68
843 6A 51 AA 43 6A 75 C3 43 69 C0 C5 43 CA F3 F8 43 CA B1 68 43 CA A6 66 3F 0A 3D 71 00 00 00 00 00 00 00 00 42 70 00 00 00 00 00 00 00 00 00 00 42 B4 00 00 00 00 00 00 00 00 00 00 00 00 00 00 00 00 00 00 42 F0 00 00 42 70 00 00 00 00 00 00 42 B4 00 00 3E F4 39 58 3F 1C AC 08 00 00 00 00 3F 78 D4 FE 42 47 07 96
write:08 03 07 CF 00 78 74 3A
08 03 F0
8totalsize 240
42 81 00 00 00 00 00 00 42 2A 66 66 00 00 00 00 41 AF 33 33 00 00 00 00 00 00 00 00 00 00 00 00 00 00 00 00 00 00 00 00 00 00 00 00 00 00 00 00 00 00 00 00 00 00 00 00 00 00 00 00 41 3D 99 9A 00 00 00 00 40 EB 33 33 00 00 00 00 40 90 00 00 42 67 00 00 00 00 00 00 42 28 00 00 00 00 00 00 41 79 99 9A 00 00 00 00 00 00 00 00 00 00 00 00 00 00 00 00 00 00 00 00 00 00 00 00 00 00 00 00 00 00 00 00 00 00 00 00 00 00 00 00 41 1E 66 66 00 00 00 00 40 DC CC CD 00 00 00 00 40 40 00 00 42 95 19 9A 00 00 00 00 42 3B CC CD 00 00 00 00 41 DB 99 9A 00 00 00 00 00 00 00 00 00 00 00 00 00 00 00 00 00 00 00 00 00 00 00 00 00 00 00 00 00 00 00 00 00 00 00 00 00 00 00 00 41 4E 66 66 00 00 00 00 41 06 66 66 00 00 00 00 40 8B AF F6
write:08 03 01 0F 00 08 75 6A
08 03 10
800 00 49 9F 00 00 00 00 00 00 00 00 00 00 EB F1
43 6A 51 AA
234.319
43 6A 75 C3
234.46
43 69 C0 C5
233.753
43 CA F3 F8
405.906
43 CA B1 68
405.386
43 CA A6 66
405.3
3F 0A 3D 71
0.54
00 00 00 00
0
00 00 00 00
0
42 70 00 00
60
00 00 00 00
0
00 00 00 00
0
42 B4 00 00
90
00 00 00 00
0
00 00 00 00
0
00 00 00 00
0
00 00 00 00
0
42 F0 00 00
120
42 70 00 00
60
00 00 00 00
0
42 B4 00 00
90
3E F4 39 58
0.477
3F 1C AC 08
0.612
00 00 00 00
0
3F 78 D4 FE
0.972
42 47 07 96
49.75741
42 81 00 00
64.5
00 00 00 00
0
42 2A 66 66
42.6
00 00 00 00
0
41 AF 33 33
21.9
00 00 00 00
0
00 00 00 00
0
00 00 00 00
0
00 00 00 00
0
00 00 00 00
0
00 00 00 00
0
00 00 00 00
0
00 00 00 00
0
00 00 00 00
0
00 00 00 00
0
41 3D 99 9A
11.85
00 00 00 00
0
40 EB 33 33
7.35
00 00 00 00
0
40 90 00 00
4.5
42 67 00 00
57.75
00 00 00 00
0
42 28 00 00
42
00 00 00 00
0
41 79 99 9A
15.6
00 00 00 00
0
00 00 00 00
0
00 00 00 00
0
00 00 00 00
0
00 00 00 00
0
00 00 00 00
0
00 00 00 00
0
00 00 00 00
0
00 00 00 00
0
00 00 00 00
0
41 1E 66 66
9.9
00 00 00 00
0
40 DC CC CD
6.9
00 00 00 00
0
40 40 00 00
3
42 95 19 9A
74.55
00 00 00 00
0
42 3B CC CD
46.95
00 00 00 00
0
41 DB 99 9A
27.45
00 00 00 00
0
00 00 00 00
0
00 00 00 00
0
00 00 00 00
0
00 00 00 00
0
00 00 00 00
0
00 00 00 00
0
00 00 00 00
0
00 00 00 00
0
00 00 00 00
0
41 4E 66 66
12.9
00 00 00 00
0
41 06 66 66
8.4
00 00 00 00
0
40 8B AF F6
4.3652296
00 00 49 9F
18847
00 00 00 00
0
00 00 00 00
0
00 00 EB F1
60401
234.319234.46233.753405.906405.386405.30.54006000900000120600900.4770.61200.97249.7574164.5042.6021.9000000000011.8507.3504.557.75042015.600000000009.906.90374.55046.95027.45000000000012.908.404.365229682017112714232718.8470060.401insert into tbl_power_info_v2(P_A_DIANYA,P_B_DIANYA,P_C_DIANYA,P_UAB_XIANDIANYA,P_UBC_XIANDIANYA,P_UCA_XIANDIANYA,P_A_DIANLIU,P_B_DIANLIU,P_C_DIANLIU,P_A_YGGL,P_B_YGGL,P_C_YGGL,P_HXYGGL,P_A_WGGL,P_B_WGGL,P_C_WGGL,P_HXWGGL,P_A_SZGL,P_B_SZGL,P_C_SZGL,P_HXSZGL,P_A_GLYS,P_B_GLYS,P_C_GLYS,P_HXGLYS,P_DWPL,P_BY_KwhZ,P_BY_KwhJ,P_BY_KwhF,P_BY_KwhP,P_BY_KwhG,P_BY_HKwhZ,P_BY_HKwhJ,P_BY_HKwhF,P_BY_HKwhP,P_BY_HKwhG, P_BY_KvarhZ,P_BY_KvarhJ,P_BY_KvarhF,P_BY_KvarhP,P_BY_KvarhG, P_BY_HKvarhZ,P_BY_HKvarhJ,P_BY_HKvarhF,P_BY_HKvarhP,P_BY_HKvarhG, P_SY_KwhZ,P_SY_KwhJ,P_SY_KwhF,P_SY_KwhP,P_SY_KwhG, P_SY_HKwhZ,P_SY_HKwhJ,P_SY_HKwhF,P_SY_HKwhP,P_SY_HKwhG, P_SY_KvarhZ,P_SY_KvarhJ,P_SY_KvarhF,P_SY_KvarhP,P_SY_KvarhG, P_SY_HKvarhZ,P_SY_HKvarhJ,P_SY_HKvarhF,P_SY_HKvarhP,P_SY_HKvarhG, P_SSY_KwhZ,P_SSY_KwhJ,P_SSY_KwhF,P_SSY_KwhP,P_SSY_KwhG, P_SSY_HKwhZ,P_SSY_HKwhJ,P_SSY_HKwhF,P_SSY_HKwhP,P_SSY_HKwhG, P_SSY_KvarhZ,P_SSY_KvarhJ,P_SSY_KvarhF,P_SSY_KvarhP,P_SSY_KvarhG, P_SSY_HKvarhZ,P_SSY_HKvarhJ,P_SSY_HKvarhF,P_SSY_HKvarhP,P_SSY_HKvarhG,P_CODE,P_TIME,P_ZXYGDN,P_FXYGDN,P_ZXWGDN,P_FXWGDN)values(234.319,234.46,233.753,405.906,405.386,405.3,0.54,0,0,60,0,0,90,0,0,0,0,120,60,0,90,0.477,0.612,0,0.972,49.75741,64.5,0,42.6,0,21.9,0,0,0,0,0,0,0,0,0,0,11.85,0,7.35,0,4.5,57.75,0,42,0,15.6,0,0,0,0,0,0,0,0,0,0,9.9,0,6.9,0,3,74.55,0,46.95,0,27.45,0,0,0,0,0,0,0,0,0,0,12.9,0,8.4,0,4.3652296,8,20171127142327,18.847,0,0,60.401)
写入成功读取完毕一个
write:09 03 00 38 00 34 C4 98
09 03 68
943 6A 20 00 43 6A 38 52 43 69 A9 37 43 CA C7 8D 43 CA 90 21 43 CA 85 1F 00 00 00 00 00 00 00 00 3F 57 0A 3D 42 70 00 00 00 00 00 00 43 34 00 00 43 70 00 00 42 70 00 00 42 70 00 00 42 B4 00 00 43 52 00 00 42 B4 00 00 42 70 00 00 43 52 00 00 43 96 00 00 3E FE 76 C9 3E 3E 76 C9 3F 5C ED 91 3F 3D F3 B6 42 48 06 D7
write:09 03 07 CF 00 78 75 EB
09 03 F0
9totalsize 240
43 26 F3 33 41 B1 99 9A 42 A3 80 00 00 00 00 00 42 7B 66 66 00 00 00 00 00 00 00 00 00 00 00 00 00 00 00 00 00 00 00 00 00 00 00 00 00 00 00 00 00 00 00 00 00 00 00 00 00 00 00 00 43 0A 4C CD 41 B1 99 9A 42 66 66 66 00 00 00 00 42 6A 00 00 43 BC 2C CD 41 E7 99 9A 43 4D CC CD 00 00 00 00 43 0D 73 33 00 00 00 00 00 00 00 00 00 00 00 00 00 00 00 00 00 00 00 00 40 A3 33 33 00 00 00 00 40 19 99 9A 00 00 00 00 40 23 33 33 43 2C 33 33 41 D6 CC CD 42 95 19 9A 00 00 00 00 42 8D 4C CD 43 CA B9 9A 42 5D 66 66 43 44 33 33 00 00 00 00 43 19 C0 00 00 00 00 00 00 00 00 00 00 00 00 00 00 00 00 00 00 00 00 00 43 18 B3 33 41 B1 99 9A 42 8B 80 00 00 00 00 00 42 72 66 66 43 0F 8C CD 41 BC 66 66 42 72 66 66 00 00 00 00 42 6D FE 71
write:09 03 01 0F 00 08 74 BB
09 03 10
900 00 96 69 00 00 00 00 00 00 18 DA 00 00 3A 77
43 6A 20 00
234.125
43 6A 38 52
234.22
43 69 A9 37
233.661
43 CA C7 8D
405.559
43 CA 90 21
405.126
43 CA 85 1F
405.04
00 00 00 00
0
00 00 00 00
0
3F 57 0A 3D
0.84
42 70 00 00
60
00 00 00 00
0
43 34 00 00
180
43 70 00 00
240
42 70 00 00
60
42 70 00 00
60
42 B4 00 00
90
43 52 00 00
210
42 B4 00 00
90
42 70 00 00
60
43 52 00 00
210
43 96 00 00
300
3E FE 76 C9
0.497
3E 3E 76 C9
0.186
3F 5C ED 91
0.863
3F 3D F3 B6
0.742
42 48 06 D7
50.00668
43 26 F3 33
166.95
41 B1 99 9A
22.2
42 A3 80 00
81.75
00 00 00 00
0
42 7B 66 66
62.85
00 00 00 00
0
00 00 00 00
0
00 00 00 00
0
00 00 00 00
0
00 00 00 00
0
00 00 00 00
0
00 00 00 00
0
00 00 00 00
0
00 00 00 00
0
00 00 00 00
0
43 0A 4C CD
138.3
41 B1 99 9A
22.2
42 66 66 66
57.6
00 00 00 00
0
42 6A 00 00
58.5
43 BC 2C CD
376.35
41 E7 99 9A
28.95
43 4D CC CD
205.8
00 00 00 00
0
43 0D 73 33
141.45
00 00 00 00
0
00 00 00 00
0
00 00 00 00
0
00 00 00 00
0
00 00 00 00
0
40 A3 33 33
5.1
00 00 00 00
0
40 19 99 9A
2.4
00 00 00 00
0
40 23 33 33
2.55
43 2C 33 33
172.2
41 D6 CC CD
26.85
42 95 19 9A
74.55
00 00 00 00
0
42 8D 4C CD
70.65
43 CA B9 9A
405.45
42 5D 66 66
55.35
43 44 33 33
196.2
00 00 00 00
0
43 19 C0 00
153.75
00 00 00 00
0
00 00 00 00
0
00 00 00 00
0
00 00 00 00
0
00 00 00 00
0
43 18 B3 33
152.7
41 B1 99 9A
22.2
42 8B 80 00
69.75
00 00 00 00
0
42 72 66 66
60.6
43 0F 8C CD
143.55
41 BC 66 66
23.55
42 72 66 66
60.6
00 00 00 00
0
42 6D FE 71
59.498478
00 00 96 69
38505
00 00 00 00
0
00 00 18 DA
6362
00 00 3A 77
14967
234.125234.22233.661405.559405.126405.04000.8460018024060609021090602103000.4970.1860.8630.74250.00668166.9522.281.75062.850000000000138.322.257.6058.5376.3528.95205.80141.45000005.102.402.55172.226.8574.55070.65405.4555.35196.20153.7500000152.722.269.75060.6143.5523.5560.6059.49847892017112714242838.50506.36214.967insert into tbl_power_info_v2(P_A_DIANYA,P_B_DIANYA,P_C_DIANYA,P_UAB_XIANDIANYA,P_UBC_XIANDIANYA,P_UCA_XIANDIANYA,P_A_DIANLIU,P_B_DIANLIU,P_C_DIANLIU,P_A_YGGL,P_B_YGGL,P_C_YGGL,P_HXYGGL,P_A_WGGL,P_B_WGGL,P_C_WGGL,P_HXWGGL,P_A_SZGL,P_B_SZGL,P_C_SZGL,P_HXSZGL,P_A_GLYS,P_B_GLYS,P_C_GLYS,P_HXGLYS,P_DWPL,P_BY_KwhZ,P_BY_KwhJ,P_BY_KwhF,P_BY_KwhP,P_BY_KwhG,P_BY_HKwhZ,P_BY_HKwhJ,P_BY_HKwhF,P_BY_HKwhP,P_BY_HKwhG, P_BY_KvarhZ,P_BY_KvarhJ,P_BY_KvarhF,P_BY_KvarhP,P_BY_KvarhG, P_BY_HKvarhZ,P_BY_HKvarhJ,P_BY_HKvarhF,P_BY_HKvarhP,P_BY_HKvarhG, P_SY_KwhZ,P_SY_KwhJ,P_SY_KwhF,P_SY_KwhP,P_SY_KwhG, P_SY_HKwhZ,P_SY_HKwhJ,P_SY_HKwhF,P_SY_HKwhP,P_SY_HKwhG, P_SY_KvarhZ,P_SY_KvarhJ,P_SY_KvarhF,P_SY_KvarhP,P_SY_KvarhG, P_SY_HKvarhZ,P_SY_HKvarhJ,P_SY_HKvarhF,P_SY_HKvarhP,P_SY_HKvarhG, P_SSY_KwhZ,P_SSY_KwhJ,P_SSY_KwhF,P_SSY_KwhP,P_SSY_KwhG, P_SSY_HKwhZ,P_SSY_HKwhJ,P_SSY_HKwhF,P_SSY_HKwhP,P_SSY_HKwhG, P_SSY_KvarhZ,P_SSY_KvarhJ,P_SSY_KvarhF,P_SSY_KvarhP,P_SSY_KvarhG, P_SSY_HKvarhZ,P_SSY_HKvarhJ,P_SSY_HKvarhF,P_SSY_HKvarhP,P_SSY_HKvarhG,P_CODE,P_TIME,P_ZXYGDN,P_FXYGDN,P_ZXWGDN,P_FXWGDN)values(234.125,234.22,233.661,405.559,405.126,405.04,0,0,0.84,60,0,180,240,60,60,90,210,90,60,210,300,0.497,0.186,0.863,0.742,50.00668,166.95,22.2,81.75,0,62.85,0,0,0,0,0,0,0,0,0,0,138.3,22.2,57.6,0,58.5,376.35,28.95,205.8,0,141.45,0,0,0,0,0,5.1,0,2.4,0,2.55,172.2,26.85,74.55,0,70.65,405.45,55.35,196.2,0,153.75,0,0,0,0,0,152.7,22.2,69.75,0,60.6,143.55,23.55,60.6,0,59.498478,9,20171127142428,38.505,0,6.362,14.967)
写入成功读取完毕一个
write:01 03 00 38 00 34 C5 D0
01 03 68
143 6A 23 12 43 6A 2C 4A 43 69 D9 17 43 CA BC 8B 43 CA 9B 44 43 CA 9B 44 40 BD 70 A4 40 B3 33 33 00 00 00 00 44 5C 00 00 44 8C 00 00 00 00 00 00 44 FA 00 00 43 70 00 00 43 20 00 00 00 00 00 00 43 F0 00 00 44 AA 00 00 44 A0 00 00 00 00 00 00 45 02 00 00 3F 28 31 27 3F 53 74 BC 00 00 00 00 3F 78 D4 FE 42 48 D7 26
write:01 03 07 CF 00 78 74 A3
01 03 F0
1totalsize 240
44 04 E6 66 42 2E 66 66 43 A7 99 9A 00 00 00 00 43 18 66 66 00 00 00 00 00 00 00 00 00 00 00 00 00 00 00 00 00 00 00 00 3F 4C CC CD 00 00 00 00 3F 4C CC CD 00 00 00 00 00 00 00 00 43 2A 00 00 41 B0 00 00 42 AC 00 00 00 00 00 00 42 76 66 66 44 0E 99 9A 42 56 66 66 43 B2 00 00 00 00 00 00 43 20 00 00 00 00 00 00 00 00 00 00 00 00 00 00 00 00 00 00 00 00 00 00 3F CC CC CD 00 00 00 00 3F CC CC CD 00 00 00 00 00 00 00 00 43 33 33 33 41 C0 00 00 42 B7 33 33 00 00 00 00 42 7C CC CD 44 42 66 66 42 AF 33 33 43 F7 66 66 00 00 00 00 43 42 CC CD 00 00 00 00 00 00 00 00 00 00 00 00 00 00 00 00 00 00 00 00 42 21 99 9A 3F CC CC CD 41 F3 33 33 00 00 00 00 41 00 00 00 43 36 CC CD 41 DC CC CD 42 BE 66 66 00 00 00 00 42 6E CF 08
write:01 03 01 0F 00 08 75 F3
01 03 10
100 01 A0 77 00 00 00 00 00 00 8A CF 00 00 CF 8B
43 6A 23 12
234.137
43 6A 2C 4A
234.173
43 69 D9 17
233.848
43 CA BC 8B
405.473
43 CA 9B 44
405.213
43 CA 9B 44
405.213
40 BD 70 A4
5.92
40 B3 33 33
5.6
00 00 00 00
0
44 5C 00 00
880
44 8C 00 00
1120
00 00 00 00
0
44 FA 00 00
2000
43 70 00 00
240
43 20 00 00
160
00 00 00 00
0
43 F0 00 00
480
44 AA 00 00
1360
44 A0 00 00
1280
00 00 00 00
0
45 02 00 00
2080
3F 28 31 27
0.657
3F 53 74 BC
0.826
00 00 00 00
0
3F 78 D4 FE
0.972
42 48 D7 26
50.210106
44 04 E6 66
531.6
42 2E 66 66
43.6
43 A7 99 9A
335.2
00 00 00 00
0
43 18 66 66
152.4
00 00 00 00
0
00 00 00 00
0
00 00 00 00
0
00 00 00 00
0
00 00 00 00
0
3F 4C CC CD
0.8
00 00 00 00
0
3F 4C CC CD
0.8
00 00 00 00
0
00 00 00 00
0
43 2A 00 00
170
41 B0 00 00
22
42 AC 00 00
86
00 00 00 00
0
42 76 66 66
61.6
44 0E 99 9A
570.4
42 56 66 66
53.6
43 B2 00 00
356
00 00 00 00
0
43 20 00 00
160
00 00 00 00
0
00 00 00 00
0
00 00 00 00
0
00 00 00 00
0
00 00 00 00
0
3F CC CC CD
1.6
00 00 00 00
0
3F CC CC CD
1.6
00 00 00 00
0
00 00 00 00
0
43 33 33 33
179.2
41 C0 00 00
24
42 B7 33 33
91.6
00 00 00 00
0
42 7C CC CD
63.2
44 42 66 66
777.6
42 AF 33 33
87.6
43 F7 66 66
494.8
00 00 00 00
0
43 42 CC CD
194.8
00 00 00 00
0
00 00 00 00
0
00 00 00 00
0
00 00 00 00
0
00 00 00 00
0
42 21 99 9A
40.4
3F CC CC CD
1.6
41 F3 33 33
30.4
00 00 00 00
0
41 00 00 00
8
43 36 CC CD
182.8
41 DC CC CD
27.6
42 BE 66 66
95.2
00 00 00 00
0
42 6E CF 08
59.70218
00 01 A0 77
106615
00 00 00 00
0
00 00 8A CF
35535
00 00 CF 8B
53131
234.137234.173233.848405.473405.213405.2135.925.60880112002000240160048013601280020800.6570.82600.97250.210106531.643.6335.20152.4000000.800.8001702286061.6570.453.63560160000001.601.600179.22491.6063.2777.687.6494.80194.80000040.41.630.408182.827.695.2059.70218120171127142533106.615035.53553.131insert into tbl_power_info_v2(P_A_DIANYA,P_B_DIANYA,P_C_DIANYA,P_UAB_XIANDIANYA,P_UBC_XIANDIANYA,P_UCA_XIANDIANYA,P_A_DIANLIU,P_B_DIANLIU,P_C_DIANLIU,P_A_YGGL,P_B_YGGL,P_C_YGGL,P_HXYGGL,P_A_WGGL,P_B_WGGL,P_C_WGGL,P_HXWGGL,P_A_SZGL,P_B_SZGL,P_C_SZGL,P_HXSZGL,P_A_GLYS,P_B_GLYS,P_C_GLYS,P_HXGLYS,P_DWPL,P_BY_KwhZ,P_BY_KwhJ,P_BY_KwhF,P_BY_KwhP,P_BY_KwhG,P_BY_HKwhZ,P_BY_HKwhJ,P_BY_HKwhF,P_BY_HKwhP,P_BY_HKwhG, P_BY_KvarhZ,P_BY_KvarhJ,P_BY_KvarhF,P_BY_KvarhP,P_BY_KvarhG, P_BY_HKvarhZ,P_BY_HKvarhJ,P_BY_HKvarhF,P_BY_HKvarhP,P_BY_HKvarhG, P_SY_KwhZ,P_SY_KwhJ,P_SY_KwhF,P_SY_KwhP,P_SY_KwhG, P_SY_HKwhZ,P_SY_HKwhJ,P_SY_HKwhF,P_SY_HKwhP,P_SY_HKwhG, P_SY_KvarhZ,P_SY_KvarhJ,P_SY_KvarhF,P_SY_KvarhP,P_SY_KvarhG, P_SY_HKvarhZ,P_SY_HKvarhJ,P_SY_HKvarhF,P_SY_HKvarhP,P_SY_HKvarhG, P_SSY_KwhZ,P_SSY_KwhJ,P_SSY_KwhF,P_SSY_KwhP,P_SSY_KwhG, P_SSY_HKwhZ,P_SSY_HKwhJ,P_SSY_HKwhF,P_SSY_HKwhP,P_SSY_HKwhG, P_SSY_KvarhZ,P_SSY_KvarhJ,P_SSY_KvarhF,P_SSY_KvarhP,P_SSY_KvarhG, P_SSY_HKvarhZ,P_SSY_HKvarhJ,P_SSY_HKvarhF,P_SSY_HKvarhP,P_SSY_HKvarhG,P_CODE,P_TIME,P_ZXYGDN,P_FXYGDN,P_ZXWGDN,P_FXWGDN)values(234.137,234.173,233.848,405.473,405.213,405.213,5.92,5.6,0,880,1120,0,2000,240,160,0,480,1360,1280,0,2080,0.657,0.826,0,0.972,50.210106,531.6,43.6,335.2,0,152.4,0,0,0,0,0,0.8,0,0.8,0,0,170,22,86,0,61.6,570.4,53.6,356,0,160,0,0,0,0,0,1.6,0,1.6,0,0,179.2,24,91.6,0,63.2,777.6,87.6,494.8,0,194.8,0,0,0,0,0,40.4,1.6,30.4,0,8,182.8,27.6,95.2,0,59.70218,1,20171127142533,106.615,0,35.535,53.131)
写入成功读取完毕一个
write:02 03 00 38 00 34 C5 E3
02 03 68
243 6A 2B 44 43 6A 9D B2 43 6A 00 42 43 CA F3 F8 43 CA E8 D5 43 CA B1 68 40 8C CC CD 41 06 66 66 40 BA E1 48 44 48 00 00 44 D2 00 00 44 A0 00 00 45 6B 00 00 00 00 00 00 00 00 00 00 43 70 00 00 43 70 00 00 44 82 00 00 44 FA 00 00 44 AA 00 00 45 6B 00 00 3F 3F BE 77 3F 5C ED 91 3F 6D 0E 56 3F 7F 7C EE 42 48 03 2E
write:02 03 07 CF 00 78 74 90
02 03 F0
2totalsize 240
44 AE F3 33 43 1D 99 9A 44 52 CC CD 00 00 00 00 43 C7 33 33 00 00 00 00 00 00 00 00 00 00 00 00 00 00 00 00 00 00 00 00 42 F6 66 66 41 53 33 33 42 9C CC CD 00 00 00 00 41 F9 99 9A 42 39 99 9A 40 33 33 33 42 06 66 66 00 00 00 00 41 19 99 9A 44 8E D9 9A 43 18 CC CD 44 1F E6 66 00 00 00 00 43 AF 00 00 00 00 00 00 00 00 00 00 00 00 00 00 00 00 00 00 00 00 00 00 42 21 99 9A 41 20 00 00 41 A9 99 9A 00 00 00 00 41 0C CC CD 42 30 00 00 40 4C CC CD 41 F3 33 33 00 00 00 00 41 19 99 9A 45 2F 66 66 43 E3 99 9A 44 DC 33 33 00 00 00 00 44 13 4C CD 00 00 00 00 00 00 00 00 00 00 00 00 00 00 00 00 00 00 00 00 44 77 E6 66 43 2E CC CD 44 24 B3 33 00 00 00 00 43 1D 99 9A 42 13 33 33 40 00 00 00 41 D9 99 9A 00 00 00 00 40 E6 44 E8
write:02 03 01 0F 00 08 75 C0
02 03 10
200 03 50 CB 00 00 00 05 00 01 34 84 00 00 9A E0
43 6A 2B 44
234.169
43 6A 9D B2
234.616
43 6A 00 42
234.001
43 CA F3 F8
405.906
43 CA E8 D5
405.819
43 CA B1 68
405.386
40 8C CC CD
4.4
41 06 66 66
8.4
40 BA E1 48
5.84
44 48 00 00
800
44 D2 00 00
1680
44 A0 00 00
1280
45 6B 00 00
3760
00 00 00 00
0
00 00 00 00
0
43 70 00 00
240
43 70 00 00
240
44 82 00 00
1040
44 FA 00 00
2000
44 AA 00 00
1360
45 6B 00 00
3760
3F 3F BE 77
0.749
3F 5C ED 91
0.863
3F 6D 0E 56
0.926
3F 7F 7C EE
0.998
42 48 03 2E
50.003105
44 AE F3 33
1399.6
43 1D 99 9A
157.6
44 52 CC CD
843.2
00 00 00 00
0
43 C7 33 33
398.4
00 00 00 00
0
00 00 00 00
0
00 00 00 00
0
00 00 00 00
0
00 00 00 00
0
42 F6 66 66
123.2
41 53 33 33
13.2
42 9C CC CD
78.4
00 00 00 00
0
41 F9 99 9A
31.2
42 39 99 9A
46.4
40 33 33 33
2.8
42 06 66 66
33.6
00 00 00 00
0
41 19 99 9A
9.6
44 8E D9 9A
1142.8
43 18 CC CD
152.8
44 1F E6 66
639.6
00 00 00 00
0
43 AF 00 00
350
00 00 00 00
0
00 00 00 00
0
00 00 00 00
0
00 00 00 00
0
00 00 00 00
0
42 21 99 9A
40.4
41 20 00 00
10
41 A9 99 9A
21.2
00 00 00 00
0
41 0C CC CD
8.8
42 30 00 00
44
40 4C CC CD
3.2
41 F3 33 33
30.4
00 00 00 00
0
41 19 99 9A
9.6
45 2F 66 66
2806.4
43 E3 99 9A
455.2
44 DC 33 33
1761.6
00 00 00 00
0
44 13 4C CD
589.2
00 00 00 00
0
00 00 00 00
0
00 00 00 00
0
